! Created with skrf 1.8.0 (http://scikit-rf.org).
# Hz S RI R 50.0 
!freq ReS11 ImS11 ReS21 ImS21 ReS12 ImS12 ReS22 ImS22
50000.0 0.0 0.0 0.00014481532622235925 2.6775235668648418e-05 0.0 0.0 0.0 0.0
15049500.0 0.0 0.0 1.7569575090833994e-05 6.93900379890914e-05 0.0 0.0 0.0 0.0
30049000.0 0.0 0.0 -7.294689289504768e-06 6.849424680343294e-05 0.0 0.0 0.0 0.0
45048500.0 0.0 0.0 -5.007725054100011e-06 3.4125023630505216e-05 0.0 0.0 0.0 0.0
60048000.0 0.0 0.0 -3.2040549642971803e-06 2.0701006704415595e-06 0.0 0.0 0.0 0.0
75047500.0 0.0 0.0 5.5897040386058766e-05 3.257733838236812e-05 0.0 0.0 0.0 0.0
90047000.0 0.0 0.0 1.9423067571219963e-06 -1.117430330988193e-05 0.0 0.0 0.0 0.0
105046500.0 0.0 0.0 -2.596059140278293e-05 2.8753842143577144e-05 0.0 0.0 0.0 0.0
120046000.0 0.0 0.0 -5.076171508303931e-05 5.850165593236092e-05 0.0 0.0 0.0 0.0
135045500.0 0.0 0.0 -4.457474629806699e-05 7.788367856273202e-05 0.0 0.0 0.0 0.0
150045000.0 0.0 0.0 2.6588935529815193e-05 8.226907802687064e-05 0.0 0.0 0.0 0.0
165044500.0 0.0 0.0 2.2319374965896956e-05 0.00010121448624150444 0.0 0.0 0.0 0.0
180044000.0 0.0 0.0 3.6251686084536326e-05 6.719177215275867e-05 0.0 0.0 0.0 0.0
195043500.0 0.0 0.0 -9.932381222665514e-06 5.5713772698029e-05 0.0 0.0 0.0 0.0
210043000.0 0.0 0.0 -1.5710534479421307e-05 6.865061514197024e-05 0.0 0.0 0.0 0.0
225042500.0 0.0 0.0 -5.871140366451152e-05 3.953527214706866e-05 0.0 0.0 0.0 0.0
240042000.0 0.0 0.0 6.2280674851141015e-06 4.8384667534259907e-05 0.0 0.0 0.0 0.0
255041500.0 0.0 0.0 -6.146236061019444e-05 3.317416605164958e-05 0.0 0.0 0.0 0.0
270041000.0 0.0 0.0 -4.655276925120344e-05 8.913685732088722e-05 0.0 0.0 0.0 0.0
285040500.0 0.0 0.0 -9.215229994060361e-05 5.110850462160898e-05 0.0 0.0 0.0 0.0
300040000.0 0.0 0.0 -7.221176220425435e-05 0.00035642781697891684 0.0 0.0 0.0 0.0
315039500.0 0.0 0.0 -0.00034725499832733667 0.00027687912305134424 0.0 0.0 0.0 0.0
330039000.0 0.0 0.0 0.00025715917056417386 5.364003151328416e-05 0.0 0.0 0.0 0.0
345038500.0 0.0 0.0 6.196952323786448e-05 -0.0005687187242448342 0.0 0.0 0.0 0.0
360038000.0 0.0 0.0 -0.0005348732318274935 2.201352139964239e-05 0.0 0.0 0.0 0.0
375037500.0 0.0 0.0 0.0003048359854117577 -7.96758736886054e-05 0.0 0.0 0.0 0.0
390037000.0 0.0 0.0 -0.00017472142982890378 -0.00048681654414629703 0.0 0.0 0.0 0.0
405036500.0 0.0 0.0 -4.278630464869177e-05 6.210115176817317e-06 0.0 0.0 0.0 0.0
420036000.0 0.0 0.0 -0.00018725658844986575 -0.0004990072992603591 0.0 0.0 0.0 0.0
435035500.0 0.0 0.0 -0.000775116654305293 -0.00046156341425048945 0.0 0.0 0.0 0.0
450035000.0 0.0 0.0 -0.0007923296761238645 -0.0003527591635414336 0.0 0.0 0.0 0.0
465034500.0 0.0 0.0 -0.0003924622963161331 0.0003622995941086158 0.0 0.0 0.0 0.0
480034000.0 0.0 0.0 -0.0003437319417584701 -0.0006263507330633148 0.0 0.0 0.0 0.0
495033500.0 0.0 0.0 -7.798473819261633e-05 -0.0007196581783173378 0.0 0.0 0.0 0.0
510033000.0 0.0 0.0 0.00020018841810749043 -0.0008939013164329833 0.0 0.0 0.0 0.0
525032500.0 0.0 0.0 0.00026196568181797373 -0.0007270896542206087 0.0 0.0 0.0 0.0
540032000.0 0.0 0.0 0.0009109586894634355 -0.0005746029592397347 0.0 0.0 0.0 0.0
555031500.0 0.0 0.0 -0.0004874834472710904 -0.0004887612860453393 0.0 0.0 0.0 0.0
570031000.0 0.0 0.0 -0.00026549202613579593 -0.00048432266467130137 0.0 0.0 0.0 0.0
585030500.0 0.0 0.0 -1.4250066807195498e-05 -0.0003174596120894601 0.0 0.0 0.0 0.0
600030000.0 0.0 0.0 0.0012120669532143518 -0.0005233612279054293 0.0 0.0 0.0 0.0
615029500.0 0.0 0.0 0.00028627980363134134 -0.0007127367005597514 0.0 0.0 0.0 0.0
630029000.0 0.0 0.0 0.0005143562839166123 0.0003107883911610812 0.0 0.0 0.0 0.0
645028500.0 0.0 0.0 0.0011798947692510174 -0.00048786728074250743 0.0 0.0 0.0 0.0
660028000.0 0.0 0.0 0.0009187025700552329 -0.0002626361554525765 0.0 0.0 0.0 0.0
675027500.0 0.0 0.0 0.00030447073514749213 6.044545467399246e-05 0.0 0.0 0.0 0.0
690027000.0 0.0 0.0 0.00162778226730859 0.000625035022799288 0.0 0.0 0.0 0.0
705026500.0 0.0 0.0 0.0004795084675342619 0.0007390163727096604 0.0 0.0 0.0 0.0
720026000.0 0.0 0.0 4.188983872824155e-05 0.0014406713612275777 0.0 0.0 0.0 0.0
735025500.0 0.0 0.0 0.000989637860937372 0.000299788083597902 0.0 0.0 0.0 0.0
750025000.0 0.0 0.0 0.0007661938355763743 0.0007092480255698734 0.0 0.0 0.0 0.0
765024500.0 0.0 0.0 2.877487399896564e-05 0.001387303072006742 0.0 0.0 0.0 0.0
780024000.0 0.0 0.0 0.0003905247470786425 0.0011294520787209887 0.0 0.0 0.0 0.0
795023500.0 0.0 0.0 -0.0006565435958949629 0.0010105649610259164 0.0 0.0 0.0 0.0
810023000.0 0.0 0.0 -0.0007590688560395933 0.0019345814847420474 0.0 0.0 0.0 0.0
825022500.0 0.0 0.0 -0.00047863580711988144 0.0004039393970989951 0.0 0.0 0.0 0.0
840022000.0 0.0 0.0 2.6081539226428876e-05 0.00019431399711184022 0.0 0.0 0.0 0.0
855021500.0 0.0 0.0 0.0006716539663777112 0.00018309080797541003 0.0 0.0 0.0 0.0
870021000.0 0.0 0.0 -0.0003783964582128006 0.0006072440183229541 0.0 0.0 0.0 0.0
885020500.0 0.0 0.0 -0.0013374305191936524 0.00033851238987428153 0.0 0.0 0.0 0.0
900020000.0 0.0 0.0 -0.004927359084880292 0.00132699583470961 0.0 0.0 0.0 0.0
915019500.0 0.0 0.0 -0.0027850084161163673 0.0001276434252830963 0.0 0.0 0.0 0.0
930019000.0 0.0 0.0 -0.0008759153826583333 -0.00028781604246897954 0.0 0.0 0.0 0.0
945018500.0 0.0 0.0 0.002264157467529441 -0.0011145559107320134 0.0 0.0 0.0 0.0
960018000.0 0.0 0.0 0.0029889812930322343 -0.001303279091987726 0.0 0.0 0.0 0.0
975017500.0 0.0 0.0 0.000891422320044515 0.0004385447287295268 0.0 0.0 0.0 0.0
990017000.0 0.0 0.0 0.0016203753152741036 0.00017450949897168815 0.0 0.0 0.0 0.0
1005016500.0 0.0 0.0 0.0023717071944303215 0.0016415166891309554 0.0 0.0 0.0 0.0
1020016000.0 0.0 0.0 0.0019205077296216477 -0.0012610460560552516 0.0 0.0 0.0 0.0
1035015500.0 0.0 0.0 0.0018228634879353528 0.0012093721565809095 0.0 0.0 0.0 0.0
1050015000.0 0.0 0.0 0.0012192797789964205 0.000611382155866067 0.0 0.0 0.0 0.0
1065014500.0 0.0 0.0 -0.0012249897174522718 0.0013445911873280305 0.0 0.0 0.0 0.0
1080014000.0 0.0 0.0 0.001282343724528583 -0.005364598156478 0.0 0.0 0.0 0.0
1095013500.0 0.0 0.0 0.005812994670423278 -0.0015473767792003876 0.0 0.0 0.0 0.0
1110013000.0 0.0 0.0 0.0011030720028237422 0.000990669226639961 0.0 0.0 0.0 0.0
1125012500.0 0.0 0.0 -2.798662267894908e-05 -0.007199529650469954 0.0 0.0 0.0 0.0
1140012000.0 0.0 0.0 -0.0025534698198105255 -0.0024523454555549066 0.0 0.0 0.0 0.0
1155011500.0 0.0 0.0 0.00286862855654239 -0.0005753194897841745 0.0 0.0 0.0 0.0
1170011000.0 0.0 0.0 -0.0027904861094683628 -0.000997377420856378 0.0 0.0 0.0 0.0
1185010500.0 0.0 0.0 -0.001229990644101992 -0.002982778132672889 0.0 0.0 0.0 0.0
1200010000.0 0.0 0.0 -0.0009418089792941294 -0.0014258528179717392 0.0 0.0 0.0 0.0
1215009500.0 0.0 0.0 0.002448711358729725 0.0010372265944527382 0.0 0.0 0.0 0.0
1230009000.0 0.0 0.0 0.00022584104068524316 -0.004311777021294492 0.0 0.0 0.0 0.0
1245008500.0 0.0 0.0 0.002085756198206475 0.009391144017140205 0.0 0.0 0.0 0.0
1260008000.0 0.0 0.0 0.005697597363478829 -0.003837238198657348 0.0 0.0 0.0 0.0
1275007500.0 0.0 0.0 -0.0005159695427303943 -0.0011358911497232418 0.0 0.0 0.0 0.0
1290007000.0 0.0 0.0 0.002050608128203952 -0.0015517645003804168 0.0 0.0 0.0 0.0
1305006500.0 0.0 0.0 0.006314623800968121 0.004231945909669323 0.0 0.0 0.0 0.0
1320006000.0 0.0 0.0 0.004289030131064341 -0.0009683369350604156 0.0 0.0 0.0 0.0
1335005500.0 0.0 0.0 -5.0276310677083944e-05 0.006166250218087626 0.0 0.0 0.0 0.0
1350005000.0 0.0 0.0 -0.0016161510657084217 0.0061459998584285315 0.0 0.0 0.0 0.0
1365004500.0 0.0 0.0 0.006594864762579248 -0.0006961836969791552 0.0 0.0 0.0 0.0
1380004000.0 0.0 0.0 0.00910562082379909 -0.0013628616884381192 0.0 0.0 0.0 0.0
1395003500.0 0.0 0.0 0.0037060085728077997 -0.0017071292648877226 0.0 0.0 0.0 0.0
1410003000.0 0.0 0.0 -0.007486980075330578 0.008512068173006777 0.0 0.0 0.0 0.0
1425002500.0 0.0 0.0 -0.004552173062314326 5.058521523936436e-05 0.0 0.0 0.0 0.0
1440002000.0 0.0 0.0 0.0013130415136290556 0.0014634920403253711 0.0 0.0 0.0 0.0
1455001500.0 0.0 0.0 -0.015728281021658526 -0.005681059057454014 0.0 0.0 0.0 0.0
1470001000.0 0.0 0.0 -0.02008977950293664 0.0027343611075355155 0.0 0.0 0.0 0.0
1485000500.0 0.0 0.0 -0.018181054548262736 -0.002829908224065042 0.0 0.0 0.0 0.0
1500000000.0 0.0 0.0 -0.0023554527283669692 0.006865126972914456 0.0 0.0 0.0 0.0
