! Created with skrf 1.8.0 (http://scikit-rf.org).
# Hz S RI R 50.0 
!freq ReS11 ImS11 ReS21 ImS21 ReS12 ImS12 ReS22 ImS22
50000.0 0.0 0.0 0.989792064 0.001740862 0.0 0.0 0.0 0.0
15049500.0 0.0 0.0 0.996584832 0.026354424 0.0 0.0 0.0 0.0
30049000.0 0.0 0.0 0.995698624 0.052254784 0.0 0.0 0.0 0.0
45048500.0 0.0 0.0 0.99356384 0.077995904 0.0 0.0 0.0 0.0
60048000.0 0.0 0.0 0.991818816 0.103252016 0.0 0.0 0.0 0.0
75047500.0 0.0 0.0 0.989417856 0.129276824 0.0 0.0 0.0 0.0
90047000.0 0.0 0.0 0.984898944 0.156191968 0.0 0.0 0.0 0.0
105046500.0 0.0 0.0 0.981034304 0.18023864 0.0 0.0 0.0 0.0
120046000.0 0.0 0.0 0.976498176 0.204654832 0.0 0.0 0.0 0.0
135045500.0 0.0 0.0 0.970262144 0.229285872 0.0 0.0 0.0 0.0
150045000.0 0.0 0.0 0.964205952 0.254040624 0.0 0.0 0.0 0.0
165044500.0 0.0 0.0 0.955798976 0.278100416 0.0 0.0 0.0 0.0
180044000.0 0.0 0.0 0.948037504 0.303656992 0.0 0.0 0.0 0.0
195043500.0 0.0 0.0 0.939197184 0.329814432 0.0 0.0 0.0 0.0
210043000.0 0.0 0.0 0.930637568 0.35590992 0.0 0.0 0.0 0.0
225042500.0 0.0 0.0 0.922577344 0.382263552 0.0 0.0 0.0 0.0
240042000.0 0.0 0.0 0.915249856 0.408380736 0.0 0.0 0.0 0.0
255041500.0 0.0 0.0 0.907723584 0.433211744 0.0 0.0 0.0 0.0
270041000.0 0.0 0.0 0.900826816 0.456354784 0.0 0.0 0.0 0.0
285040500.0 0.0 0.0 0.892885248 0.47791712 0.0 0.0 0.0 0.0
300040000.0 0.0 0.0 0.884314752 0.498193984 0.0 0.0 0.0 0.0
315039500.0 0.0 0.0 0.87462816 0.516769184 0.0 0.0 0.0 0.0
330039000.0 0.0 0.0 0.861914624 0.533865408 0.0 0.0 0.0 0.0
345038500.0 0.0 0.0 0.845311616 0.551443712 0.0 0.0 0.0 0.0
360038000.0 0.0 0.0 0.831452352 0.570969024 0.0 0.0 0.0 0.0
375037500.0 0.0 0.0 0.811797056 0.587798784 0.0 0.0 0.0 0.0
390037000.0 0.0 0.0 0.79297024 0.602978368 0.0 0.0 0.0 0.0
405036500.0 0.0 0.0 0.775216576 0.631664384 0.0 0.0 0.0 0.0
420036000.0 0.0 0.0 0.756663296 0.65559584 0.0 0.0 0.0 0.0
435035500.0 0.0 0.0 0.736953984 0.680909632 0.0 0.0 0.0 0.0
450035000.0 0.0 0.0 0.720263872 0.704672064 0.0 0.0 0.0 0.0
465034500.0 0.0 0.0 0.703990976 0.721400832 0.0 0.0 0.0 0.0
480034000.0 0.0 0.0 0.686354176 0.739782976 0.0 0.0 0.0 0.0
495033500.0 0.0 0.0 0.667089472 0.759042368 0.0 0.0 0.0 0.0
510033000.0 0.0 0.0 0.645516736 0.774387648 0.0 0.0 0.0 0.0
525032500.0 0.0 0.0 0.620177216 0.788501568 0.0 0.0 0.0 0.0
540032000.0 0.0 0.0 0.597753344 0.805317312 0.0 0.0 0.0 0.0
555031500.0 0.0 0.0 0.571179136 0.819820864 0.0 0.0 0.0 0.0
570031000.0 0.0 0.0 0.548559424 0.840651456 0.0 0.0 0.0 0.0
585030500.0 0.0 0.0 0.524078592 0.854485568 0.0 0.0 0.0 0.0
600030000.0 0.0 0.0 0.504868384 0.884283712 0.0 0.0 0.0 0.0
615029500.0 0.0 0.0 0.484181536 0.90707584 0.0 0.0 0.0 0.0
630029000.0 0.0 0.0 0.464965152 0.926067392 0.0 0.0 0.0 0.0
645028500.0 0.0 0.0 0.447809152 0.94149088 0.0 0.0 0.0 0.0
660028000.0 0.0 0.0 0.431769536 0.956511616 0.0 0.0 0.0 0.0
675027500.0 0.0 0.0 0.419025056 0.967436544 0.0 0.0 0.0 0.0
690027000.0 0.0 0.0 0.39835392 0.972446912 0.0 0.0 0.0 0.0
705026500.0 0.0 0.0 0.3791544 0.977761856 0.0 0.0 0.0 0.0
720026000.0 0.0 0.0 0.350405056 0.979507584 0.0 0.0 0.0 0.0
735025500.0 0.0 0.0 0.325928352 0.979380608 0.0 0.0 0.0 0.0
750025000.0 0.0 0.0 0.296431072 0.978863744 0.0 0.0 0.0 0.0
765024500.0 0.0 0.0 0.26256808 0.977246656 0.0 0.0 0.0 0.0
780024000.0 0.0 0.0 0.242624848 0.969994368 0.0 0.0 0.0 0.0
795023500.0 0.0 0.0 0.192902336 0.9808864 0.0 0.0 0.0 0.0
810023000.0 0.0 0.0 0.162287936 0.983336192 0.0 0.0 0.0 0.0
825022500.0 0.0 0.0 0.131570656 0.984902656 0.0 0.0 0.0 0.0
840022000.0 0.0 0.0 0.106778104 0.98332096 0.0 0.0 0.0 0.0
855021500.0 0.0 0.0 0.087519608 0.984562368 0.0 0.0 0.0 0.0
870021000.0 0.0 0.0 0.06878416 0.985352832 0.0 0.0 0.0 0.0
885020500.0 0.0 0.0 0.0569113 0.982754368 0.0 0.0 0.0 0.0
900020000.0 0.0 0.0 0.05103498 0.978301568 0.0 0.0 0.0 0.0
915019500.0 0.0 0.0 0.032744944 0.973471616 0.0 0.0 0.0 0.0
930019000.0 0.0 0.0 0.006672032 0.9713232 0.0 0.0 0.0 0.0
945018500.0 0.0 0.0 -0.013776844 0.963077248 0.0 0.0 0.0 0.0
960018000.0 0.0 0.0 -0.04378102 0.960287488 0.0 0.0 0.0 0.0
975017500.0 0.0 0.0 -0.070353832 0.964430656 0.0 0.0 0.0 0.0
990017000.0 0.0 0.0 -0.096423208 0.970592448 0.0 0.0 0.0 0.0
1005016500.0 0.0 0.0 -0.11134444 0.962944896 0.0 0.0 0.0 0.0
1020016000.0 0.0 0.0 -0.14175504 0.970073216 0.0 0.0 0.0 0.0
1035015500.0 0.0 0.0 -0.151793888 0.976022912 0.0 0.0 0.0 0.0
1050015000.0 0.0 0.0 -0.148549296 0.977927296 0.0 0.0 0.0 0.0
1065014500.0 0.0 0.0 -0.172355376 0.978171392 0.0 0.0 0.0 0.0
1080014000.0 0.0 0.0 -0.184980032 0.979089408 0.0 0.0 0.0 0.0
1095013500.0 0.0 0.0 -0.19422704 0.977929088 0.0 0.0 0.0 0.0
1110013000.0 0.0 0.0 -0.211948624 0.96990464 0.0 0.0 0.0 0.0
1125012500.0 0.0 0.0 -0.230323648 0.970230528 0.0 0.0 0.0 0.0
1140012000.0 0.0 0.0 -0.249487792 0.967363328 0.0 0.0 0.0 0.0
1155011500.0 0.0 0.0 -0.253716176 0.934021888 0.0 0.0 0.0 0.0
1170011000.0 0.0 0.0 -0.303426304 0.946555264 0.0 0.0 0.0 0.0
1185010500.0 0.0 0.0 -0.336450656 0.931661376 0.0 0.0 0.0 0.0
1200010000.0 0.0 0.0 -0.378796448 0.938534528 0.0 0.0 0.0 0.0
1215009500.0 0.0 0.0 -0.410031296 0.936894016 0.0 0.0 0.0 0.0
1230009000.0 0.0 0.0 -0.420160768 0.9343744 0.0 0.0 0.0 0.0
1245008500.0 0.0 0.0 -0.461470112 0.935993472 0.0 0.0 0.0 0.0
1260008000.0 0.0 0.0 -0.470729376 0.963240896 0.0 0.0 0.0 0.0
1275007500.0 0.0 0.0 -0.493614656 0.9503904 0.0 0.0 0.0 0.0
1290007000.0 0.0 0.0 -0.501289728 0.954511424 0.0 0.0 0.0 0.0
1305006500.0 0.0 0.0 -0.497980544 0.964391232 0.0 0.0 0.0 0.0
1320006000.0 0.0 0.0 -0.495847104 0.966805248 0.0 0.0 0.0 0.0
1335005500.0 0.0 0.0 -0.526732992 0.986311744 0.0 0.0 0.0 0.0
1350005000.0 0.0 0.0 -0.520958368 0.986619136 0.0 0.0 0.0 0.0
1365004500.0 0.0 0.0 -0.527513376 0.965630784 0.0 0.0 0.0 0.0
1380004000.0 0.0 0.0 -0.573696064 1.020802974 0.0 0.0 0.0 0.0
1395003500.0 0.0 0.0 -0.613748416 1.083387016 0.0 0.0 0.0 0.0
1410003000.0 0.0 0.0 -0.659867136 1.097219944 0.0 0.0 0.0 0.0
1425002500.0 0.0 0.0 -0.712315648 1.144953136 0.0 0.0 0.0 0.0
1440002000.0 0.0 0.0 -0.80973984 1.18747496 0.0 0.0 0.0 0.0
1455001500.0 0.0 0.0 -0.937652864 1.177817344 0.0 0.0 0.0 0.0
1470001000.0 0.0 0.0 -1.109701632 1.121362088 0.0 0.0 0.0 0.0
1485000500.0 0.0 0.0 -1.195142272 1.021533608 0.0 0.0 0.0 0.0
1500000000.0 0.0 0.0 -1.317559712 0.916985088 0.0 0.0 0.0 0.0
