! Created with skrf 1.8.0 (http://scikit-rf.org).
# Hz S RI R 50.0 
!freq ReS11 ImS11 ReS21 ImS21 ReS12 ImS12 ReS22 ImS22
50000.0 0.0 0.0 6.8693e-05 -3.288e-05 0.0 0.0 0.0 0.0
15049500.0 0.0 0.0 2.5865e-05 -7.854e-06 0.0 0.0 0.0 0.0
30049000.0 0.0 0.0 1.958e-05 5.3081e-05 0.0 0.0 0.0 0.0
45048500.0 0.0 0.0 8.768e-06 3.246e-06 0.0 0.0 0.0 0.0
60048000.0 0.0 0.0 1.9905e-05 5.1709e-05 0.0 0.0 0.0 0.0
75047500.0 0.0 0.0 4.4587e-05 5.5708e-05 0.0 0.0 0.0 0.0
90047000.0 0.0 0.0 -6.2329e-05 7.3123e-05 0.0 0.0 0.0 0.0
105046500.0 0.0 0.0 -3.3038e-05 5.8021e-05 0.0 0.0 0.0 0.0
120046000.0 0.0 0.0 8.884e-06 5.4565e-05 0.0 0.0 0.0 0.0
135045500.0 0.0 0.0 1.0054e-05 7.3435e-05 0.0 0.0 0.0 0.0
150045000.0 0.0 0.0 7.4e-06 0.000113636 0.0 0.0 0.0 0.0
165044500.0 0.0 0.0 3.8677e-05 6.9263e-05 0.0 0.0 0.0 0.0
180044000.0 0.0 0.0 -8.348e-06 4.4214e-05 0.0 0.0 0.0 0.0
195043500.0 0.0 0.0 -1.9387e-05 2.8027e-05 0.0 0.0 0.0 0.0
210043000.0 0.0 0.0 -2.1125e-05 4.7674e-05 0.0 0.0 0.0 0.0
225042500.0 0.0 0.0 -3.012e-06 4.0451e-05 0.0 0.0 0.0 0.0
240042000.0 0.0 0.0 -4.8019e-05 3.2835e-05 0.0 0.0 0.0 0.0
255041500.0 0.0 0.0 -7.1442e-05 3.6953e-05 0.0 0.0 0.0 0.0
270041000.0 0.0 0.0 -7.8627e-05 5.6328e-05 0.0 0.0 0.0 0.0
285040500.0 0.0 0.0 -6.9377e-05 4.9671e-05 0.0 0.0 0.0 0.0
300040000.0 0.0 0.0 -0.000528634 0.000247398 0.0 0.0 0.0 0.0
315039500.0 0.0 0.0 -0.000106835 0.00019525 0.0 0.0 0.0 0.0
330039000.0 0.0 0.0 -4.5462e-05 -0.000189488 0.0 0.0 0.0 0.0
345038500.0 0.0 0.0 0.000101976 0.00020677 0.0 0.0 0.0 0.0
360038000.0 0.0 0.0 -5.869e-05 -0.000120696 0.0 0.0 0.0 0.0
375037500.0 0.0 0.0 8.256e-05 -0.000134733 0.0 0.0 0.0 0.0
390037000.0 0.0 0.0 -0.000637938 0.000379078 0.0 0.0 0.0 0.0
405036500.0 0.0 0.0 -0.000196795 -0.000244248 0.0 0.0 0.0 0.0
420036000.0 0.0 0.0 -0.000453394 -0.000185702 0.0 0.0 0.0 0.0
435035500.0 0.0 0.0 -7.8545e-05 -0.000566313 0.0 0.0 0.0 0.0
450035000.0 0.0 0.0 0.000152299 -0.000522788 0.0 0.0 0.0 0.0
465034500.0 0.0 0.0 -0.000124056 -0.000556612 0.0 0.0 0.0 0.0
480034000.0 0.0 0.0 -0.000291165 -0.000995231 0.0 0.0 0.0 0.0
495033500.0 0.0 0.0 3.7106e-05 -0.000904437 0.0 0.0 0.0 0.0
510033000.0 0.0 0.0 -0.000203774 -0.000857064 0.0 0.0 0.0 0.0
525032500.0 0.0 0.0 -0.000831967 -0.000239085 0.0 0.0 0.0 0.0
540032000.0 0.0 0.0 8.8611e-05 -0.000660195 0.0 0.0 0.0 0.0
555031500.0 0.0 0.0 0.000833639 -0.00032185 0.0 0.0 0.0 0.0
570031000.0 0.0 0.0 -0.00023567 -0.000606008 0.0 0.0 0.0 0.0
585030500.0 0.0 0.0 0.000372631 0.000237752 0.0 0.0 0.0 0.0
600030000.0 0.0 0.0 -0.000426494 -0.000290057 0.0 0.0 0.0 0.0
615029500.0 0.0 0.0 0.000696511 -0.000130012 0.0 0.0 0.0 0.0
630029000.0 0.0 0.0 0.000471198 -0.000516461 0.0 0.0 0.0 0.0
645028500.0 0.0 0.0 0.00095762 -0.000339355 0.0 0.0 0.0 0.0
660028000.0 0.0 0.0 0.000750652 -0.00037325 0.0 0.0 0.0 0.0
675027500.0 0.0 0.0 0.001398298 -0.000195809 0.0 0.0 0.0 0.0
690027000.0 0.0 0.0 0.000249808 0.000389586 0.0 0.0 0.0 0.0
705026500.0 0.0 0.0 0.000746235 0.000978673 0.0 0.0 0.0 0.0
720026000.0 0.0 0.0 0.000867678 -0.000137942 0.0 0.0 0.0 0.0
735025500.0 0.0 0.0 -4.2494e-05 0.000830894 0.0 0.0 0.0 0.0
750025000.0 0.0 0.0 0.000117184 0.000611967 0.0 0.0 0.0 0.0
765024500.0 0.0 0.0 5.754e-06 0.000897858 0.0 0.0 0.0 0.0
780024000.0 0.0 0.0 -5.4015e-05 0.001242169 0.0 0.0 0.0 0.0
795023500.0 0.0 0.0 -0.000677096 0.000729572 0.0 0.0 0.0 0.0
810023000.0 0.0 0.0 -0.001689694 4.2165e-05 0.0 0.0 0.0 0.0
825022500.0 0.0 0.0 -0.00058869 -0.00057918 0.0 0.0 0.0 0.0
840022000.0 0.0 0.0 -0.000775227 0.000870563 0.0 0.0 0.0 0.0
855021500.0 0.0 0.0 -0.000910711 0.00028967 0.0 0.0 0.0 0.0
870021000.0 0.0 0.0 -0.000363642 -0.000207693 0.0 0.0 0.0 0.0
885020500.0 0.0 0.0 -0.000777149 8.4834e-05 0.0 0.0 0.0 0.0
900020000.0 0.0 0.0 -0.002088964 0.002431328 0.0 0.0 0.0 0.0
915019500.0 0.0 0.0 0.001284535 -0.002546678 0.0 0.0 0.0 0.0
930019000.0 0.0 0.0 -0.000803269 0.000306915 0.0 0.0 0.0 0.0
945018500.0 0.0 0.0 -0.000566591 -6.214e-06 0.0 0.0 0.0 0.0
960018000.0 0.0 0.0 -0.001729782 0.001780229 0.0 0.0 0.0 0.0
975017500.0 0.0 0.0 0.001322159 -0.000496689 0.0 0.0 0.0 0.0
990017000.0 0.0 0.0 0.004765921 -0.004182723 0.0 0.0 0.0 0.0
1005016500.0 0.0 0.0 0.001030658 0.000804895 0.0 0.0 0.0 0.0
1020016000.0 0.0 0.0 0.002672931 0.002738212 0.0 0.0 0.0 0.0
1035015500.0 0.0 0.0 0.004289558 -0.00153691 0.0 0.0 0.0 0.0
1050015000.0 0.0 0.0 -0.000265681 -6.0333e-05 0.0 0.0 0.0 0.0
1065014500.0 0.0 0.0 0.003477826 0.000323103 0.0 0.0 0.0 0.0
1080014000.0 0.0 0.0 -0.002718805 -0.000513706 0.0 0.0 0.0 0.0
1095013500.0 0.0 0.0 -0.000432994 -0.000681349 0.0 0.0 0.0 0.0
1110013000.0 0.0 0.0 0.002834608 -0.001893284 0.0 0.0 0.0 0.0
1125012500.0 0.0 0.0 -0.000528894 -0.003681008 0.0 0.0 0.0 0.0
1140012000.0 0.0 0.0 -0.00390028 0.000675742 0.0 0.0 0.0 0.0
1155011500.0 0.0 0.0 -0.003223361 0.002000081 0.0 0.0 0.0 0.0
1170011000.0 0.0 0.0 -0.003389923 -0.005840036 0.0 0.0 0.0 0.0
1185010500.0 0.0 0.0 0.001918102 -0.002129591 0.0 0.0 0.0 0.0
1200010000.0 0.0 0.0 -0.005591109 0.004058603 0.0 0.0 0.0 0.0
1215009500.0 0.0 0.0 -0.004506524 -0.005755677 0.0 0.0 0.0 0.0
1230009000.0 0.0 0.0 0.004103802 0.006880588 0.0 0.0 0.0 0.0
1245008500.0 0.0 0.0 0.009316688 -0.004684946 0.0 0.0 0.0 0.0
1260008000.0 0.0 0.0 0.004873753 -0.004564135 0.0 0.0 0.0 0.0
1275007500.0 0.0 0.0 0.008244013 -0.006846005 0.0 0.0 0.0 0.0
1290007000.0 0.0 0.0 -0.002946093 0.00266972 0.0 0.0 0.0 0.0
1305006500.0 0.0 0.0 -0.003130791 0.005954302 0.0 0.0 0.0 0.0
1320006000.0 0.0 0.0 0.009450952 0.002452188 0.0 0.0 0.0 0.0
1335005500.0 0.0 0.0 0.004188261 0.007095198 0.0 0.0 0.0 0.0
1350005000.0 0.0 0.0 -0.002196464 0.004277895 0.0 0.0 0.0 0.0
1365004500.0 0.0 0.0 -0.00415344 0.002011823 0.0 0.0 0.0 0.0
1380004000.0 0.0 0.0 0.006406356 -0.00301556 0.0 0.0 0.0 0.0
1395003500.0 0.0 0.0 -0.000345848 0.002162616 0.0 0.0 0.0 0.0
1410003000.0 0.0 0.0 -0.002019805 0.01090268 0.0 0.0 0.0 0.0
1425002500.0 0.0 0.0 -0.00593052 0.000664068 0.0 0.0 0.0 0.0
1440002000.0 0.0 0.0 0.00020952 0.010429202 0.0 0.0 0.0 0.0
1455001500.0 0.0 0.0 -0.01451941 -0.006643627 0.0 0.0 0.0 0.0
1470001000.0 0.0 0.0 -0.012128716 0.009425242 0.0 0.0 0.0 0.0
1485000500.0 0.0 0.0 -0.009546768 0.003717645 0.0 0.0 0.0 0.0
1500000000.0 0.0 0.0 -0.011689276 -0.009502174 0.0 0.0 0.0 0.0
