! Created with skrf 1.8.0 (http://scikit-rf.org).
# Hz S RI R 50.0 
!freq ReS11 ImS11 ReS21 ImS21 ReS12 ImS12 ReS22 ImS22
50000.0 0.0 0.0 4.1946e-05 -1.6675e-05 0.0 0.0 0.0 0.0
15049500.0 0.0 0.0 5.3162e-05 5.167e-06 0.0 0.0 0.0 0.0
30049000.0 0.0 0.0 1.4178e-05 -1.0807e-05 0.0 0.0 0.0 0.0
45048500.0 0.0 0.0 -2.8461e-05 3.4128e-05 0.0 0.0 0.0 0.0
60048000.0 0.0 0.0 7.2493e-05 2.8738e-05 0.0 0.0 0.0 0.0
75047500.0 0.0 0.0 6.4267e-05 3.2137e-05 0.0 0.0 0.0 0.0
90047000.0 0.0 0.0 3.1239e-05 1.4302e-05 0.0 0.0 0.0 0.0
105046500.0 0.0 0.0 2.4208e-05 4.5178e-05 0.0 0.0 0.0 0.0
120046000.0 0.0 0.0 2.2716e-05 4.2885e-05 0.0 0.0 0.0 0.0
135045500.0 0.0 0.0 -1.3813e-05 4.7984e-05 0.0 0.0 0.0 0.0
150045000.0 0.0 0.0 -1.5117e-05 9.7688e-05 0.0 0.0 0.0 0.0
165044500.0 0.0 0.0 3.173e-06 8.701e-05 0.0 0.0 0.0 0.0
180044000.0 0.0 0.0 -1.5696e-05 7.5495e-05 0.0 0.0 0.0 0.0
195043500.0 0.0 0.0 -6.5239e-05 4.1122e-05 0.0 0.0 0.0 0.0
210043000.0 0.0 0.0 -2.0869e-05 2.4259e-05 0.0 0.0 0.0 0.0
225042500.0 0.0 0.0 -7.4112e-05 9.3727e-05 0.0 0.0 0.0 0.0
240042000.0 0.0 0.0 -8.5924e-05 8.6316e-05 0.0 0.0 0.0 0.0
255041500.0 0.0 0.0 -0.000110076 2.3993e-05 0.0 0.0 0.0 0.0
270041000.0 0.0 0.0 -6.8649e-05 6.6783e-05 0.0 0.0 0.0 0.0
285040500.0 0.0 0.0 -8.1909e-05 3.5254e-05 0.0 0.0 0.0 0.0
300040000.0 0.0 0.0 0.000256129 -0.000571694 0.0 0.0 0.0 0.0
315039500.0 0.0 0.0 -0.000247877 -0.00049657 0.0 0.0 0.0 0.0
330039000.0 0.0 0.0 1.2891e-05 0.000319872 0.0 0.0 0.0 0.0
345038500.0 0.0 0.0 -0.000119554 0.000350715 0.0 0.0 0.0 0.0
360038000.0 0.0 0.0 -0.000242792 0.00037498 0.0 0.0 0.0 0.0
375037500.0 0.0 0.0 -0.000401149 -0.000364424 0.0 0.0 0.0 0.0
390037000.0 0.0 0.0 0.000116143 8.4902e-05 0.0 0.0 0.0 0.0
405036500.0 0.0 0.0 -0.000237046 0.000156502 0.0 0.0 0.0 0.0
420036000.0 0.0 0.0 0.000217574 0.000200996 0.0 0.0 0.0 0.0
435035500.0 0.0 0.0 -0.000100347 -0.00055798 0.0 0.0 0.0 0.0
450035000.0 0.0 0.0 -0.000204942 -0.000209574 0.0 0.0 0.0 0.0
465034500.0 0.0 0.0 -0.000434765 -0.000768903 0.0 0.0 0.0 0.0
480034000.0 0.0 0.0 0.000279655 -0.000707428 0.0 0.0 0.0 0.0
495033500.0 0.0 0.0 -0.000387175 -0.000654237 0.0 0.0 0.0 0.0
510033000.0 0.0 0.0 -0.000110337 -0.000948626 0.0 0.0 0.0 0.0
525032500.0 0.0 0.0 0.000314022 -0.00024834 0.0 0.0 0.0 0.0
540032000.0 0.0 0.0 0.000394649 -0.000705425 0.0 0.0 0.0 0.0
555031500.0 0.0 0.0 0.000364447 -0.000307864 0.0 0.0 0.0 0.0
570031000.0 0.0 0.0 0.000342825 -0.000744997 0.0 0.0 0.0 0.0
585030500.0 0.0 0.0 0.000911644 -0.000770761 0.0 0.0 0.0 0.0
600030000.0 0.0 0.0 0.000698137 -0.001442389 0.0 0.0 0.0 0.0
615029500.0 0.0 0.0 -0.00020101 -4.706e-06 0.0 0.0 0.0 0.0
630029000.0 0.0 0.0 0.000552268 -0.000359353 0.0 0.0 0.0 0.0
645028500.0 0.0 0.0 0.000630407 -0.000956323 0.0 0.0 0.0 0.0
660028000.0 0.0 0.0 0.000143056 0.0007383 0.0 0.0 0.0 0.0
675027500.0 0.0 0.0 0.000446355 -0.000226967 0.0 0.0 0.0 0.0
690027000.0 0.0 0.0 0.000653715 0.000299161 0.0 0.0 0.0 0.0
705026500.0 0.0 0.0 0.000207156 7.4075e-05 0.0 0.0 0.0 0.0
720026000.0 0.0 0.0 5.9865e-05 0.000428823 0.0 0.0 0.0 0.0
735025500.0 0.0 0.0 0.00055263 0.000917608 0.0 0.0 0.0 0.0
750025000.0 0.0 0.0 0.000732901 0.001083874 0.0 0.0 0.0 0.0
765024500.0 0.0 0.0 -0.000463473 0.000423252 0.0 0.0 0.0 0.0
780024000.0 0.0 0.0 0.000260534 0.000770759 0.0 0.0 0.0 0.0
795023500.0 0.0 0.0 -0.000410594 0.001022941 0.0 0.0 0.0 0.0
810023000.0 0.0 0.0 -0.001305508 0.000448136 0.0 0.0 0.0 0.0
825022500.0 0.0 0.0 -0.001009743 0.000118669 0.0 0.0 0.0 0.0
840022000.0 0.0 0.0 0.000348095 0.000266207 0.0 0.0 0.0 0.0
855021500.0 0.0 0.0 -0.001463911 0.000233898 0.0 0.0 0.0 0.0
870021000.0 0.0 0.0 -0.000185322 -0.000520858 0.0 0.0 0.0 0.0
885020500.0 0.0 0.0 -0.000904212 -0.000370069 0.0 0.0 0.0 0.0
900020000.0 0.0 0.0 0.000746206 0.004697405 0.0 0.0 0.0 0.0
915019500.0 0.0 0.0 -0.000578603 -0.000980564 0.0 0.0 0.0 0.0
930019000.0 0.0 0.0 -0.001790836 -0.002042225 0.0 0.0 0.0 0.0
945018500.0 0.0 0.0 -0.002034578 -0.001670667 0.0 0.0 0.0 0.0
960018000.0 0.0 0.0 0.000786897 0.001501764 0.0 0.0 0.0 0.0
975017500.0 0.0 0.0 0.001048247 0.000832787 0.0 0.0 0.0 0.0
990017000.0 0.0 0.0 0.001008705 -0.000999783 0.0 0.0 0.0 0.0
1005016500.0 0.0 0.0 0.000424176 0.000773856 0.0 0.0 0.0 0.0
1020016000.0 0.0 0.0 0.002227787 -0.000344177 0.0 0.0 0.0 0.0
1035015500.0 0.0 0.0 0.001505936 0.001458428 0.0 0.0 0.0 0.0
1050015000.0 0.0 0.0 0.001080404 0.00038569 0.0 0.0 0.0 0.0
1065014500.0 0.0 0.0 0.001697419 0.004483571 0.0 0.0 0.0 0.0
1080014000.0 0.0 0.0 0.001198861 0.002615782 0.0 0.0 0.0 0.0
1095013500.0 0.0 0.0 0.001734195 0.002926352 0.0 0.0 0.0 0.0
1110013000.0 0.0 0.0 -0.001064378 0.001989705 0.0 0.0 0.0 0.0
1125012500.0 0.0 0.0 -0.000200384 0.000251643 0.0 0.0 0.0 0.0
1140012000.0 0.0 0.0 -0.000730615 0.000386491 0.0 0.0 0.0 0.0
1155011500.0 0.0 0.0 0.001416227 0.001179539 0.0 0.0 0.0 0.0
1170011000.0 0.0 0.0 0.005467 -0.001130104 0.0 0.0 0.0 0.0
1185010500.0 0.0 0.0 -0.002109818 0.00161453 0.0 0.0 0.0 0.0
1200010000.0 0.0 0.0 -0.000901081 -0.004060495 0.0 0.0 0.0 0.0
1215009500.0 0.0 0.0 0.00790374 0.00024508 0.0 0.0 0.0 0.0
1230009000.0 0.0 0.0 0.00492416 0.002429949 0.0 0.0 0.0 0.0
1245008500.0 0.0 0.0 -0.005717827 0.003622172 0.0 0.0 0.0 0.0
1260008000.0 0.0 0.0 0.001153476 0.001453535 0.0 0.0 0.0 0.0
1275007500.0 0.0 0.0 -0.005768705 -0.00407398 0.0 0.0 0.0 0.0
1290007000.0 0.0 0.0 -0.000357141 0.003141621 0.0 0.0 0.0 0.0
1305006500.0 0.0 0.0 -0.002569693 0.001981656 0.0 0.0 0.0 0.0
1320006000.0 0.0 0.0 0.001650031 0.002264314 0.0 0.0 0.0 0.0
1335005500.0 0.0 0.0 0.001539419 -0.00487475 0.0 0.0 0.0 0.0
1350005000.0 0.0 0.0 0.000132909 0.006133197 0.0 0.0 0.0 0.0
1365004500.0 0.0 0.0 0.001732032 0.001805323 0.0 0.0 0.0 0.0
1380004000.0 0.0 0.0 -0.00483546 0.009795412 0.0 0.0 0.0 0.0
1395003500.0 0.0 0.0 0.001323658 0.013615534 0.0 0.0 0.0 0.0
1410003000.0 0.0 0.0 0.001046483 0.005306608 0.0 0.0 0.0 0.0
1425002500.0 0.0 0.0 -0.006451399 -0.001607609 0.0 0.0 0.0 0.0
1440002000.0 0.0 0.0 0.005891755 0.008791902 0.0 0.0 0.0 0.0
1455001500.0 0.0 0.0 0.000115192 0.015971512 0.0 0.0 0.0 0.0
1470001000.0 0.0 0.0 -0.023548674 -0.002295545 0.0 0.0 0.0 0.0
1485000500.0 0.0 0.0 -0.001953599 -0.00373604 0.0 0.0 0.0 0.0
1500000000.0 0.0 0.0 -0.023338298 0.006110624 0.0 0.0 0.0 0.0
