! Created with skrf 1.8.0 (http://scikit-rf.org).
# Hz S RI R 50.0 
!freq ReS11 ImS11 ReS21 ImS21 ReS12 ImS12 ReS22 ImS22
50000.0 0.0 0.0 0.994504768 0.001518372 0.0 0.0 0.0 0.0
15049500.0 0.0 0.0 0.999804544 0.026782916 0.0 0.0 0.0 0.0
30049000.0 0.0 0.0 0.99895072 0.052999012 0.0 0.0 0.0 0.0
45048500.0 0.0 0.0 0.997072256 0.079092776 0.0 0.0 0.0 0.0
60048000.0 0.0 0.0 0.995082688 0.104709632 0.0 0.0 0.0 0.0
75047500.0 0.0 0.0 0.992782784 0.130660264 0.0 0.0 0.0 0.0
90047000.0 0.0 0.0 0.9882752 0.157759776 0.0 0.0 0.0 0.0
105046500.0 0.0 0.0 0.9844768 0.181985088 0.0 0.0 0.0 0.0
120046000.0 0.0 0.0 0.980006016 0.206992208 0.0 0.0 0.0 0.0
135045500.0 0.0 0.0 0.97406496 0.231617824 0.0 0.0 0.0 0.0
150045000.0 0.0 0.0 0.966551488 0.256209648 0.0 0.0 0.0 0.0
165044500.0 0.0 0.0 0.959607424 0.281585088 0.0 0.0 0.0 0.0
180044000.0 0.0 0.0 0.950725824 0.306975584 0.0 0.0 0.0 0.0
195043500.0 0.0 0.0 0.942031424 0.33323136 0.0 0.0 0.0 0.0
210043000.0 0.0 0.0 0.933030016 0.359755008 0.0 0.0 0.0 0.0
225042500.0 0.0 0.0 0.925135936 0.387053664 0.0 0.0 0.0 0.0
240042000.0 0.0 0.0 0.916988032 0.413738368 0.0 0.0 0.0 0.0
255041500.0 0.0 0.0 0.908938176 0.439202336 0.0 0.0 0.0 0.0
270041000.0 0.0 0.0 0.902374912 0.462429984 0.0 0.0 0.0 0.0
285040500.0 0.0 0.0 0.893361344 0.484045248 0.0 0.0 0.0 0.0
300040000.0 0.0 0.0 0.884574464 0.504144672 0.0 0.0 0.0 0.0
315039500.0 0.0 0.0 0.876807488 0.523058112 0.0 0.0 0.0 0.0
330039000.0 0.0 0.0 0.86279424 0.5378176 0.0 0.0 0.0 0.0
345038500.0 0.0 0.0 0.84819904 0.560020544 0.0 0.0 0.0 0.0
360038000.0 0.0 0.0 0.831049344 0.577859264 0.0 0.0 0.0 0.0
375037500.0 0.0 0.0 0.812224896 0.5964736 0.0 0.0 0.0 0.0
390037000.0 0.0 0.0 0.791111616 0.61965184 0.0 0.0 0.0 0.0
405036500.0 0.0 0.0 0.773724928 0.6411808 0.0 0.0 0.0 0.0
420036000.0 0.0 0.0 0.755997312 0.664415488 0.0 0.0 0.0 0.0
435035500.0 0.0 0.0 0.73669216 0.690428288 0.0 0.0 0.0 0.0
450035000.0 0.0 0.0 0.721413312 0.707753536 0.0 0.0 0.0 0.0
465034500.0 0.0 0.0 0.703111552 0.731391232 0.0 0.0 0.0 0.0
480034000.0 0.0 0.0 0.683018432 0.748748608 0.0 0.0 0.0 0.0
495033500.0 0.0 0.0 0.663464896 0.764858048 0.0 0.0 0.0 0.0
510033000.0 0.0 0.0 0.642829952 0.781992832 0.0 0.0 0.0 0.0
525032500.0 0.0 0.0 0.621037504 0.796892928 0.0 0.0 0.0 0.0
540032000.0 0.0 0.0 0.597104576 0.814107904 0.0 0.0 0.0 0.0
555031500.0 0.0 0.0 0.568443456 0.827178368 0.0 0.0 0.0 0.0
570031000.0 0.0 0.0 0.54373792 0.844600128 0.0 0.0 0.0 0.0
585030500.0 0.0 0.0 0.518610112 0.86284128 0.0 0.0 0.0 0.0
600030000.0 0.0 0.0 0.498087584 0.89010656 0.0 0.0 0.0 0.0
615029500.0 0.0 0.0 0.478101376 0.911014016 0.0 0.0 0.0 0.0
630029000.0 0.0 0.0 0.45807376 0.929276032 0.0 0.0 0.0 0.0
645028500.0 0.0 0.0 0.44030432 0.944313088 0.0 0.0 0.0 0.0
660028000.0 0.0 0.0 0.425299584 0.958754688 0.0 0.0 0.0 0.0
675027500.0 0.0 0.0 0.406723904 0.969333568 0.0 0.0 0.0 0.0
690027000.0 0.0 0.0 0.389013568 0.977041088 0.0 0.0 0.0 0.0
705026500.0 0.0 0.0 0.370080832 0.981084416 0.0 0.0 0.0 0.0
720026000.0 0.0 0.0 0.340490016 0.983168512 0.0 0.0 0.0 0.0
735025500.0 0.0 0.0 0.31779328 0.982622144 0.0 0.0 0.0 0.0
750025000.0 0.0 0.0 0.287115424 0.97997248 0.0 0.0 0.0 0.0
765024500.0 0.0 0.0 0.253281392 0.982421056 0.0 0.0 0.0 0.0
780024000.0 0.0 0.0 0.238819104 0.984098816 0.0 0.0 0.0 0.0
795023500.0 0.0 0.0 0.187080224 0.98281312 0.0 0.0 0.0 0.0
810023000.0 0.0 0.0 0.154511344 0.981256576 0.0 0.0 0.0 0.0
825022500.0 0.0 0.0 0.125502808 0.983755904 0.0 0.0 0.0 0.0
840022000.0 0.0 0.0 0.101216192 0.98433792 0.0 0.0 0.0 0.0
855021500.0 0.0 0.0 0.080323016 0.985457856 0.0 0.0 0.0 0.0
870021000.0 0.0 0.0 0.061678016 0.983766976 0.0 0.0 0.0 0.0
885020500.0 0.0 0.0 0.046634476 0.980628096 0.0 0.0 0.0 0.0
900020000.0 0.0 0.0 0.045022992 0.974871872 0.0 0.0 0.0 0.0
915019500.0 0.0 0.0 0.020124922 0.970863616 0.0 0.0 0.0 0.0
930019000.0 0.0 0.0 -0.006819541 0.967418688 0.0 0.0 0.0 0.0
945018500.0 0.0 0.0 -0.029036714 0.964764224 0.0 0.0 0.0 0.0
960018000.0 0.0 0.0 -0.062127384 0.96006304 0.0 0.0 0.0 0.0
975017500.0 0.0 0.0 -0.07706936 0.970250624 0.0 0.0 0.0 0.0
990017000.0 0.0 0.0 -0.110110728 0.9579936 0.0 0.0 0.0 0.0
1005016500.0 0.0 0.0 -0.13028628 0.95946752 0.0 0.0 0.0 0.0
1020016000.0 0.0 0.0 -0.147446304 0.954656 0.0 0.0 0.0 0.0
1035015500.0 0.0 0.0 -0.16446888 0.965214208 0.0 0.0 0.0 0.0
1050015000.0 0.0 0.0 -0.190745072 0.960802816 0.0 0.0 0.0 0.0
1065014500.0 0.0 0.0 -0.188666416 0.96169888 0.0 0.0 0.0 0.0
1080014000.0 0.0 0.0 -0.198874848 0.963776128 0.0 0.0 0.0 0.0
1095013500.0 0.0 0.0 -0.216918464 0.960061888 0.0 0.0 0.0 0.0
1110013000.0 0.0 0.0 -0.220777392 0.94624768 0.0 0.0 0.0 0.0
1125012500.0 0.0 0.0 -0.239486752 0.955625024 0.0 0.0 0.0 0.0
1140012000.0 0.0 0.0 -0.258505136 0.93761472 0.0 0.0 0.0 0.0
1155011500.0 0.0 0.0 -0.299689856 0.951137408 0.0 0.0 0.0 0.0
1170011000.0 0.0 0.0 -0.319001952 0.92688768 0.0 0.0 0.0 0.0
1185010500.0 0.0 0.0 -0.354265888 0.916914944 0.0 0.0 0.0 0.0
1200010000.0 0.0 0.0 -0.380090464 0.904027072 0.0 0.0 0.0 0.0
1215009500.0 0.0 0.0 -0.419190816 0.910455552 0.0 0.0 0.0 0.0
1230009000.0 0.0 0.0 -0.436744544 0.920221888 0.0 0.0 0.0 0.0
1245008500.0 0.0 0.0 -0.461525664 0.920583744 0.0 0.0 0.0 0.0
1260008000.0 0.0 0.0 -0.476624832 0.922705024 0.0 0.0 0.0 0.0
1275007500.0 0.0 0.0 -0.478712288 0.923206592 0.0 0.0 0.0 0.0
1290007000.0 0.0 0.0 -0.493727552 0.940216 0.0 0.0 0.0 0.0
1305006500.0 0.0 0.0 -0.48420112 0.948530112 0.0 0.0 0.0 0.0
1320006000.0 0.0 0.0 -0.504287712 0.948234624 0.0 0.0 0.0 0.0
1335005500.0 0.0 0.0 -0.501476224 0.962464448 0.0 0.0 0.0 0.0
1350005000.0 0.0 0.0 -0.533652672 0.963806848 0.0 0.0 0.0 0.0
1365004500.0 0.0 0.0 -0.495914816 1.003899098 0.0 0.0 0.0 0.0
1380004000.0 0.0 0.0 -0.555484608 1.0281744 0.0 0.0 0.0 0.0
1395003500.0 0.0 0.0 -0.607074688 1.044041276 0.0 0.0 0.0 0.0
1410003000.0 0.0 0.0 -0.622997952 1.103756904 0.0 0.0 0.0 0.0
1425002500.0 0.0 0.0 -0.722998912 1.145175456 0.0 0.0 0.0 0.0
1440002000.0 0.0 0.0 -0.789770432 1.194149856 0.0 0.0 0.0 0.0
1455001500.0 0.0 0.0 -0.912266432 1.197780496 0.0 0.0 0.0 0.0
1470001000.0 0.0 0.0 -1.053047776 1.164587504 0.0 0.0 0.0 0.0
1485000500.0 0.0 0.0 -1.19378472 1.063535332 0.0 0.0 0.0 0.0
1500000000.0 0.0 0.0 -1.29517232 0.905218752 0.0 0.0 0.0 0.0
