! Created with skrf 1.8.0 (http://scikit-rf.org).
# Hz S RI R 50.0 
!freq ReS11 ImS11
50000.0 0.991411328 0.000512764
15049500.0 0.988329216 0.011309416
30049000.0 0.98766816 0.023638046
45048500.0 0.986702976 0.036758956
60048000.0 0.986271296 0.050793888
75047500.0 0.985585216 0.065051036
90047000.0 0.984353664 0.081390944
105046500.0 0.983625088 0.096137304
120046000.0 0.98278432 0.112235752
135045500.0 0.982127296 0.129214288
150045000.0 0.980488704 0.145807424
165044500.0 0.978995648 0.161835504
180044000.0 0.97705376 0.178520176
195043500.0 0.975443072 0.194985872
210043000.0 0.9718768 0.21153864
225042500.0 0.96735264 0.227045856
240042000.0 0.962427328 0.2413412
255041500.0 0.957259392 0.255390368
270041000.0 0.95209056 0.266918816
285040500.0 0.947580096 0.278757152
300040000.0 0.941480448 0.28337424
315039500.0 0.933384576 0.297211776
330039000.0 0.928175616 0.30242528
345038500.0 0.924251904 0.312086592
360038000.0 0.916352448 0.32031024
375037500.0 0.91101824 0.328008064
390037000.0 0.904072384 0.336641056
405036500.0 0.898647808 0.345525888
420036000.0 0.892544768 0.355454848
435035500.0 0.886163456 0.366163424
450035000.0 0.874754176 0.37532752
465034500.0 0.87301408 0.390325728
480034000.0 0.8606512 0.400133184
495033500.0 0.856336704 0.412488416
510033000.0 0.85017376 0.426679488
525032500.0 0.844772096 0.442366496
540032000.0 0.837165504 0.45742336
555031500.0 0.833902592 0.47537408
570031000.0 0.829482432 0.4917832
585030500.0 0.822524736 0.511591808
600030000.0 0.816181952 0.538010304
615029500.0 0.802430528 0.558611712
630029000.0 0.79083776 0.575873792
645028500.0 0.777683712 0.592719808
660028000.0 0.764503808 0.605510208
675027500.0 0.754753792 0.625301888
690027000.0 0.74026912 0.629075392
705026500.0 0.731542272 0.642396544
720026000.0 0.716282048 0.647649728
735025500.0 0.707118976 0.655026112
750025000.0 0.693426816 0.658849856
765024500.0 0.685523776 0.664357632
780024000.0 0.66974144 0.6721808
795023500.0 0.66750464 0.669333312
810023000.0 0.66111168 0.670080192
825022500.0 0.652499008 0.670294656
840022000.0 0.645712576 0.66529088
855021500.0 0.638818176 0.667580608
870021000.0 0.63078144 0.677226688
885020500.0 0.628717312 0.672745152
900020000.0 0.64781984 0.66886336
915019500.0 0.646358336 0.678017344
930019000.0 0.633452416 0.695903744
945018500.0 0.629418496 0.707750208
960018000.0 0.616147328 0.725996224
975017500.0 0.59761568 0.748511936
990017000.0 0.570945792 0.767418112
1005016500.0 0.553328 0.762262016
1020016000.0 0.530375232 0.786899328
1035015500.0 0.517299776 0.789327424
1050015000.0 0.505928288 0.768372672
1065014500.0 0.508437408 0.817507392
1080014000.0 0.482529536 0.836550912
1095013500.0 0.482519968 0.866545408
1110013000.0 0.480350016 0.879939648
1125012500.0 0.463847584 0.91489184
1140012000.0 0.436514688 0.936284864
1155011500.0 0.455582816 0.997187968
1170011000.0 0.381790272 0.971646016
1185010500.0 0.387480224 0.971319296
1200010000.0 0.354987776 0.986293184
1215009500.0 0.344954944 0.980742976
1230009000.0 0.29915248 0.98995552
1245008500.0 0.261614944 0.968909248
1260008000.0 0.249711344 0.94493632
1275007500.0 0.220859824 0.931985216
1290007000.0 0.231339328 0.927291008
1305006500.0 0.246191744 0.905900288
1320006000.0 0.215444352 0.8944832
1335005500.0 0.201503904 0.916551744
1350005000.0 0.249531184 0.980555136
1365004500.0 0.308127264 0.977692416
1380004000.0 0.202030624 1.084855912
1395003500.0 0.159708608 1.1507256
1410003000.0 0.032350906 1.196192736
1425002500.0 -0.081583616 1.249894864
1440002000.0 -0.281554208 1.186006304
1455001500.0 -0.394696992 1.091713544
1470001000.0 -0.523486016 1.004415751
1485000500.0 -0.664256768 0.824633984
1500000000.0 -0.7995568 0.656756736
