! Created with skrf 1.8.0 (http://scikit-rf.org).
# Hz S RI R 50.0 
!freq ReS11 ImS11
50000.0 0.99228864 0.000585655
15049500.0 0.988968128 0.011099884
30049000.0 0.987995392 0.023504336
45048500.0 0.987206272 0.037068252
60048000.0 0.986538176 0.050643324
75047500.0 0.98599648 0.065243632
90047000.0 0.984821504 0.081359
105046500.0 0.98433728 0.096787632
120046000.0 0.98383104 0.112470936
135045500.0 0.982991104 0.129931808
150045000.0 0.980919936 0.146452576
165044500.0 0.979813248 0.16300656
180044000.0 0.978337984 0.17937832
195043500.0 0.976624896 0.195637232
210043000.0 0.973066432 0.212810352
225042500.0 0.968542656 0.228568576
240042000.0 0.964134848 0.242927536
255041500.0 0.957515392 0.256801248
270041000.0 0.95385664 0.269070176
285040500.0 0.948292032 0.280137024
300040000.0 0.944605824 0.288581312
315039500.0 0.935820672 0.297893888
330039000.0 0.930029312 0.304105824
345038500.0 0.923558912 0.312775136
360038000.0 0.917990336 0.320495936
375037500.0 0.912316352 0.328919264
390037000.0 0.90413184 0.335521824
405036500.0 0.899618432 0.344044128
420036000.0 0.892435712 0.354101824
435035500.0 0.888036096 0.365431264
450035000.0 0.881340288 0.380460864
465034500.0 0.872631104 0.388361536
480034000.0 0.865223104 0.399574144
495033500.0 0.857378432 0.411814016
510033000.0 0.850550592 0.4280136
525032500.0 0.845944384 0.441257952
540032000.0 0.840588096 0.4575464
555031500.0 0.835014592 0.475082816
570031000.0 0.832085568 0.492287104
585030500.0 0.825468992 0.510605216
600030000.0 0.817527488 0.537208896
615029500.0 0.806126592 0.556027072
630029000.0 0.792855488 0.574912448
645028500.0 0.778934592 0.593651072
660028000.0 0.768267968 0.610637824
675027500.0 0.756523904 0.623290432
690027000.0 0.74273728 0.638684608
705026500.0 0.729552704 0.646707712
720026000.0 0.72211584 0.652289664
735025500.0 0.705615488 0.659516096
750025000.0 0.690016896 0.659230656
765024500.0 0.6848688 0.665332352
780024000.0 0.665181248 0.67130784
795023500.0 0.66627552 0.667204352
810023000.0 0.657138432 0.669657984
825022500.0 0.650984448 0.665929536
840022000.0 0.645324736 0.667142336
855021500.0 0.637335168 0.666903488
870021000.0 0.63556128 0.662193472
885020500.0 0.62466464 0.670044992
900020000.0 0.64672352 0.659085376
915019500.0 0.64388576 0.676410624
930019000.0 0.634608704 0.691229824
945018500.0 0.624469376 0.714030272
960018000.0 0.611454272 0.7199408
975017500.0 0.592737984 0.737582784
990017000.0 0.568000192 0.759881728
1005016500.0 0.558655808 0.768174912
1020016000.0 0.543735872 0.772521408
1035015500.0 0.519319936 0.788448064
1050015000.0 0.527813984 0.783700096
1065014500.0 0.502848256 0.804929216
1080014000.0 0.490306976 0.84141536
1095013500.0 0.477334464 0.875364224
1110013000.0 0.489266528 0.8863632
1125012500.0 0.477649792 0.919836608
1140012000.0 0.44601744 0.924037632
1155011500.0 0.429785408 0.894124736
1170011000.0 0.384462592 0.950155456
1185010500.0 0.397374752 0.985430464
1200010000.0 0.340235872 0.969833344
1215009500.0 0.33993168 0.978800448
1230009000.0 0.290384608 0.96633824
1245008500.0 0.251609856 0.946332608
1260008000.0 0.250420304 0.967091328
1275007500.0 0.235668304 0.930375808
1290007000.0 0.222707968 0.915050048
1305006500.0 0.2152396 0.89869984
1320006000.0 0.217564912 0.899093696
1335005500.0 0.209028944 0.896973696
1350005000.0 0.1990384 0.948104704
1365004500.0 0.158026832 1.015543342
1380004000.0 0.185457328 1.040198444
1395003500.0 0.091656408 1.13964248
1410003000.0 0.048897388 1.210589888
1425002500.0 -0.103374064 1.213224048
1440002000.0 -0.30107312 1.166244512
1455001500.0 -0.446440672 1.133709192
1470001000.0 -0.524066976 0.980638976
1485000500.0 -0.637307968 0.813293376
1500000000.0 -0.72650112 0.664594624
