! Created with skrf 1.8.0 (http://scikit-rf.org).
# Hz S RI R 50.0 
!freq ReS11 ImS11
50000.0 0.99117056 0.001128132
15049500.0 0.988518848 0.010806858
30049000.0 0.987285696 0.023396898
45048500.0 0.986667008 0.036758424
60048000.0 0.985770752 0.050733624
75047500.0 0.985408384 0.064998584
90047000.0 0.984235264 0.081227168
105046500.0 0.983401408 0.096017408
120046000.0 0.9828272 0.112208928
135045500.0 0.982167872 0.12887248
150045000.0 0.9794224 0.146023376
165044500.0 0.979150784 0.162466016
180044000.0 0.976916672 0.17874632
195043500.0 0.975324928 0.195509536
210043000.0 0.971857408 0.211978288
225042500.0 0.966913792 0.228086112
240042000.0 0.962987648 0.242522304
255041500.0 0.957456 0.256002784
270041000.0 0.950265088 0.268310016
285040500.0 0.946859328 0.27937824
300040000.0 0.94250048 0.28941856
315039500.0 0.935058368 0.296987936
330039000.0 0.93035456 0.306798208
345038500.0 0.923919424 0.313567968
360038000.0 0.917324096 0.321842144
375037500.0 0.91032544 0.328290368
390037000.0 0.905284672 0.33634256
405036500.0 0.898132544 0.345655232
420036000.0 0.891905984 0.354477536
435035500.0 0.886733952 0.366626464
450035000.0 0.882331072 0.379853376
465034500.0 0.871419584 0.388790368
480034000.0 0.86374528 0.402474528
495033500.0 0.856746816 0.410290592
510033000.0 0.850537472 0.427020192
525032500.0 0.843294912 0.442385152
540032000.0 0.840618368 0.458614688
555031500.0 0.836626624 0.474256544
570031000.0 0.830398464 0.490413216
585030500.0 0.825806208 0.508005728
600030000.0 0.817625024 0.538412352
615029500.0 0.80682784 0.554758464
630029000.0 0.789257984 0.5759456
645028500.0 0.780237056 0.591523328
660028000.0 0.766380992 0.606950144
675027500.0 0.75567392 0.619539264
690027000.0 0.73828672 0.63701248
705026500.0 0.730595584 0.640702912
720026000.0 0.715689024 0.6485552
735025500.0 0.707401664 0.656801152
750025000.0 0.693679744 0.666032448
765024500.0 0.685748672 0.665674432
780024000.0 0.67577984 0.660386816
795023500.0 0.666736448 0.671417472
810023000.0 0.658417984 0.673307904
825022500.0 0.650741696 0.67415872
840022000.0 0.64285984 0.672815872
855021500.0 0.637251968 0.669539264
870021000.0 0.635690624 0.675014976
885020500.0 0.630664384 0.680252224
900020000.0 0.649713024 0.665744768
915019500.0 0.64074688 0.682899008
930019000.0 0.627257024 0.7002144
945018500.0 0.627358976 0.71176736
960018000.0 0.613433344 0.733163008
975017500.0 0.597728832 0.74102016
990017000.0 0.581293568 0.759545728
1005016500.0 0.548614784 0.767587072
1020016000.0 0.545214144 0.784200256
1035015500.0 0.52494144 0.787977536
1050015000.0 0.477142272 0.824343232
1065014500.0 0.49352288 0.813892864
1080014000.0 0.48040544 0.842700288
1095013500.0 0.49817936 0.854087168
1110013000.0 0.479326656 0.880751168
1125012500.0 0.45835408 0.920780224
1140012000.0 0.447737856 0.927890688
1155011500.0 0.376408928 0.929272256
1170011000.0 0.417687872 0.95663104
1185010500.0 0.382803008 0.973088768
1200010000.0 0.348097824 0.993254656
1215009500.0 0.320784384 1.000580668
1230009000.0 0.2792072 0.974545024
1245008500.0 0.267655072 0.949165312
1260008000.0 0.227845712 0.943509376
1275007500.0 0.248478256 0.917273472
1290007000.0 0.214720224 0.89930592
1305006500.0 0.230454192 0.9084192
1320006000.0 0.230152672 0.891124096
1335005500.0 0.250812528 0.924881152
1350005000.0 0.187056928 0.928861376
1365004500.0 0.207188048 0.931046144
1380004000.0 0.185724336 1.065779208
1395003500.0 0.117842624 1.154691808
1410003000.0 0.030458202 1.19621336
1425002500.0 -0.14650224 1.247541792
1440002000.0 -0.264825488 1.229959008
1455001500.0 -0.467948832 1.088770624
1470001000.0 -0.502982848 0.998295552
1485000500.0 -0.6927104 0.829108096
1500000000.0 -0.77880992 0.6442592
