! Created with skrf 1.8.0 (http://scikit-rf.org).
# Hz S RI R 50.0 
!freq ReS11 ImS11
50000.0 -0.0006319043242518236 -0.00030185736024279755
15049500.0 2.131372113042661e-05 2.386451749314423e-05
30049000.0 -1.5440504231470848e-05 -1.4402977153932967e-05
45048500.0 8.847578014689315e-05 8.404609014027022e-05
60048000.0 -0.00022503031995123261 0.0001429957897836527
75047500.0 2.7350047672711614e-05 9.31632986022115e-05
90047000.0 -2.6875883088977645e-05 -8.333133203024055e-05
105046500.0 -1.9042950276720985e-05 2.4079559855998845e-05
120046000.0 -2.5683122736429003e-05 3.156986022295744e-05
135045500.0 -0.0001123281189828647 -0.00034957890252125865
150045000.0 0.00010087393255587778 -0.00012100795784907255
165044500.0 -7.774664781145052e-05 6.000959991813843e-05
180044000.0 4.8040155304373956e-05 3.475718062977828e-05
195043500.0 3.749337927200206e-05 -1.8187112024765526e-05
210043000.0 -5.125856423574028e-05 4.094799191532095e-05
225042500.0 -7.201009365319645e-05 -7.504097178403077e-05
240042000.0 0.0002237715032022438 0.0002800041294864185
255041500.0 -3.288985387862713e-05 0.0001958906169050057
270041000.0 -6.777221476081177e-05 -5.8222713959292355e-05
285040500.0 0.00012500418427520364 -2.1367410941979468e-05
300040000.0 -0.0003842861397661198 -0.00028921228881202693
315039500.0 -0.0002039763200157793 -0.0005421664276851378
330039000.0 -0.00027379682155257817 -0.00026996460366162414
345038500.0 0.00011623905366531455 6.62201404131856e-05
360038000.0 -0.0002164574843674075 -0.00039179682344842737
375037500.0 5.058123689150193e-05 -0.0005344354688097378
390037000.0 -0.0511459894376924 0.07441077609762993
405036500.0 0.0004629163869901007 -0.00024721063865919474
420036000.0 -0.0005721722049037356 -0.0008657599511919527
435035500.0 0.006242997066134075 0.007195490363139571
450035000.0 0.0002792789228712238 -0.0016456584183797355
465034500.0 0.00044364797842582807 -0.0018494467421100442
480034000.0 0.0002053983977558265 0.001756545085534069
495033500.0 0.0012281601502268677 0.0011762552388968172
510033000.0 0.008556210758774257 -0.003011225115826137
525032500.0 0.0029422773742978584 -0.0004522649570482413
540032000.0 1.115477858099585e-05 -0.0030517644210846947
555031500.0 0.0006170884955968266 -0.0009847352992400629
570031000.0 -0.0070421597096418645 0.010139238110931903
585030500.0 -0.0004761965344977657 -0.0004938829752441676
600030000.0 -0.0002597310978170722 0.00010076300972124884
615029500.0 0.00039459896078768294 -0.004859923856967721
630029000.0 -0.0003419214794371349 0.0008534929709296705
645028500.0 0.00048555658912300244 -0.0009321446821919873
660028000.0 0.00709709590207715 -0.0033598931812740345
675027500.0 -3.148016679989167e-05 0.0009601575107977807
690027000.0 0.001709234056704707 0.0020029914973299975
705026500.0 -0.0008732755567753961 4.2453289837271535e-05
720026000.0 -0.0008097832703925306 -0.002332322974112457
735025500.0 -2.548674982712789e-05 -0.0007472641697333271
750025000.0 0.001021883367199041 -0.0007074569976907698
765024500.0 0.0014361089346208186 -0.0012329860873254463
780024000.0 0.04603565126680399 -0.02477328574060334
795023500.0 0.00030483495979632876 4.2052273115696925e-05
810023000.0 0.0005394414858931933 0.00022458722442704164
825022500.0 0.0009477610059245036 0.0008338024430038215
840022000.0 -8.856599357998683e-05 -0.0008570033318043756
855021500.0 0.00014940716567943512 -0.0008050670598197188
870021000.0 0.0018968666628966198 -0.005884061534523627
885020500.0 0.003913738174073279 0.010309197665950554
900020000.0 0.002734527428033464 -0.0018959443693765381
915019500.0 0.0023812091545375594 -0.0024181893755122964
930019000.0 -0.007695642102431893 9.239936793550534e-05
945018500.0 0.0024763562134726596 -0.005335850369539014
960018000.0 -0.0006740024238797325 -0.0037687576037283353
975017500.0 0.0005990651220631234 0.002377374955287002
990017000.0 -0.0020422532828247944 -0.0022644948391323787
1005016500.0 0.04056187536651075 -0.019008935888954307
1020016000.0 0.017358739113298733 0.004198937332605843
1035015500.0 0.04742868710888621 -0.0361261972707845
1050015000.0 -0.006691195305516965 -0.004755538187059188
1065014500.0 -0.002022180244561917 -0.0023829173226394946
1080014000.0 -0.004708626847549324 0.004565298838858282
1095013500.0 0.0013817055111403685 0.00012197052304538414
1110013000.0 0.0027401619901797577 -0.029364924433933473
1125012500.0 0.0036000334013353073 -0.0022676959870186766
1140012000.0 0.005523891541860843 -0.0021869230706994375
1155011500.0 -0.002970177724168693 -0.009839919077209517
1170011000.0 0.007313619690290897 0.016661245016554426
1185010500.0 0.0023223052965363374 -5.927582668011689e-06
1200010000.0 -0.029485170329460395 -0.02950592555797081
1215009500.0 -0.011235915469486839 0.00400776973313472
1230009000.0 0.006561616762799998 -0.02504490507845268
1245008500.0 -0.006704342352704337 -0.0027016549907900446
1260008000.0 0.011632952622597921 0.00530284825179953
1275007500.0 -0.010549967507497569 -0.0009616736775838007
1290007000.0 0.020211308739930045 -0.019547349084248183
1305006500.0 0.01789136033600625 -0.03848741922797398
1320006000.0 -0.003439117421435206 -0.009214363663238778
1335005500.0 0.015198368182115216 -0.036861301856940566
1350005000.0 -0.014899229742575548 -0.13847015318019007
1365004500.0 0.029696831591806958 0.09189253715666441
1380004000.0 -0.0021899357017599163 0.006302742135458078
1395003500.0 0.003953710192653604 -0.03423749096617222
1410003000.0 0.02350005285025167 0.12839296748231413
1425002500.0 -0.032100802333370156 -0.010429764069990452
1440002000.0 -0.021891971338364884 0.04379116027038367
1455001500.0 0.039596249881119656 -0.09005801046793463
1470001000.0 -0.020385877862988726 0.011582984801518708
1485000500.0 -0.07455884885131993 0.042608733516982585
1500000000.0 0.010255410510349438 -0.007224635343109865
