! Created with skrf 1.8.0 (http://scikit-rf.org).
# Hz S RI R 50.0 
!freq ReS11 ImS11
50000.0 -2.3464632662909133 -1.0354902169370923
15049500.0 -0.9417876525171696 -0.48095960959466316
30049000.0 0.0014325374944530568 0.11309105187347357
45048500.0 -0.7816719882838121 -0.9362678799714739
60048000.0 -0.4161771471428925 1.4276461416689592
75047500.0 -1.1297771372573489 0.7417440019445886
90047000.0 -0.5384914366532904 -0.17279425116663683
105046500.0 -0.6409052368799601 -0.07737247513400095
120046000.0 0.823436378150776 1.1244987427677717
135045500.0 1.8253938927284292 -1.5323038794333164
150045000.0 -0.18438971141817548 1.4617729437226137
165044500.0 -0.5767325202053227 1.1317438638489805
180044000.0 0.16868855470039795 1.1400740224374464
195043500.0 -0.5711823700298635 1.170972426557409
210043000.0 -1.3100834786887723 -0.45378765131685456
225042500.0 1.2417633961472316 -2.50512959135591
240042000.0 0.610098390262819 4.602359946361866
255041500.0 -1.180734326014102 -1.491647614204032
270041000.0 -0.6376178264165961 -1.076580795889517
285040500.0 2.307134946705659 0.22690933829322468
300040000.0 0.49509816272946133 -0.07904287847925459
315039500.0 0.1705835534183485 -0.0023835964116301757
330039000.0 0.13530008600184404 0.8293512672315687
345038500.0 -1.0042172555179263 -0.1553005443985542
360038000.0 -0.06904438160266109 -0.1258067102720716
375037500.0 0.607254635534941 0.997820686563141
390037000.0 -28.499975606920763 -34.99269347792969
405036500.0 0.31967154363813777 1.0115971771072052
420036000.0 -0.15553951414090056 -1.1813925104778973
435035500.0 6.336688355470454 -0.6024117458171726
450035000.0 -0.5694560521599064 1.746639404674412
465034500.0 1.5482008808180678 1.7279769454275433
480034000.0 0.7701058704093566 -1.872589523418044
495033500.0 -2.030735714275481 1.5815522532264896
510033000.0 -5.171081118946666 1.5343025247209512
525032500.0 -1.4517434912457783 -1.6620934987153568
540032000.0 2.0259107113723633 2.4592027626652793
555031500.0 -1.2023966176644165 1.2760931842713297
570031000.0 4.664046104699595 5.018883640902454
585030500.0 -0.01212746917919921 -0.32702135135734967
600030000.0 -0.6773751195914165 0.2816661747449695
615029500.0 -3.5727768109115594 -3.243092465222162
630029000.0 0.2736515454582238 1.131944798999235
645028500.0 1.723948532602331 -0.3275998361922127
660028000.0 -2.884011562824053 8.078624606608546
675027500.0 0.03864660443393581 1.19038270740614
690027000.0 3.8882175272616415 -1.3309012615539286
705026500.0 0.6928755442321313 1.792510186408934
720026000.0 1.3408761336800181 1.6321998578671468
735025500.0 0.12430170626031829 -0.7517129748757192
750025000.0 -0.01202715453136642 0.49438430939056016
765024500.0 -0.8528778265942595 0.9388765725339141
780024000.0 -3.6577223438281723 6.047058861501435
795023500.0 0.9140144292494472 -0.22600721718780517
810023000.0 0.669874167103116 -0.11686635574645286
825022500.0 -0.5528905812378853 -0.8738440317352509
840022000.0 -0.05724789870351703 -1.000537102639844
855021500.0 0.4753175451951384 0.5749487672734399
870021000.0 -2.174987885767399 -3.7253980948470478
885020500.0 -3.2288730764990685 -5.34968821030018
900020000.0 0.47523670756419095 0.9299413558036528
915019500.0 -0.6034946874596041 0.6334675788021984
930019000.0 -0.8122083202518465 -1.7707173738472484
945018500.0 0.3847786867409709 0.8089780271754933
960018000.0 0.27662401312350754 -0.3557551482644263
975017500.0 -0.08665161081160548 -0.2746389998173011
990017000.0 0.020480176425858438 -0.8147169721118342
1005016500.0 -4.224993238545966 3.3281863455377128
1020016000.0 1.979791064917774 0.4169594104443918
1035015500.0 -0.05976819920399003 -6.078207676429485
1050015000.0 -0.6159295099500953 0.5964211739682699
1065014500.0 1.0797041400310492 0.871398436153482
1080014000.0 0.10988801580598051 -0.5174449107671433
1095013500.0 0.7879088789174726 0.009203111307373932
1110013000.0 0.4165675978489049 -2.4854723806457173
1125012500.0 1.1266219504231059 0.4320694284235068
1140012000.0 -0.17282060801769933 0.09068951930620948
1155011500.0 -1.378934275048717 0.5786828415655094
1170011000.0 1.7767728292559328 -1.1647482482420528
1185010500.0 -0.9105455729167972 -0.14806029114031577
1200010000.0 2.896450288861364 0.8327180559050227
1215009500.0 -0.18576121493791492 -0.1544620230653103
1230009000.0 0.4295973940589253 -1.0286954162205644
1245008500.0 -0.0017640276506833493 0.2481059158197028
1260008000.0 1.5112571837305333 -0.11497516573382366
1275007500.0 -0.633517277479649 0.6109112281934463
1290007000.0 2.2268919467590997 0.42493194324072353
1305006500.0 2.4798060451089925 -2.2875739065261373
1320006000.0 0.18963663007563775 -0.5756924833804986
1335005500.0 3.329404560958556 0.043688668482022484
1350005000.0 1.0622150763189302 3.3965496590967645
1365004500.0 -0.6664677105378974 -3.247274366896301
1380004000.0 1.418505469570524 -0.1869546085822324
1395003500.0 -1.113817751877465 -1.2219116484118828
1410003000.0 0.1759773585578245 1.8198412588139186
1425002500.0 0.09592887143113546 -0.9595245461371602
1440002000.0 -0.5857154212120446 1.2923891990993737
1455001500.0 -0.18724781082563252 -1.5134611807943132
1470001000.0 0.028882799369060064 -0.165764357325877
1485000500.0 -0.19057901238078725 -1.4392572056433273
1500000000.0 0.8707688708173106 1.3114210479028812
