! Created with skrf 1.8.0 (http://scikit-rf.org).
# Hz S RI R 50.0 
!freq ReS11 ImS11
50000.0 0.010182994 -0.004486774
15049500.0 0.015040232 0.00558445
30049000.0 0.015018696 0.009474406
45048500.0 0.013802162 0.013428344
60048000.0 0.012150074 0.017586054
75047500.0 0.00994757 0.022498124
90047000.0 0.00786728 0.027354926
105046500.0 0.006444505 0.03253119
120046000.0 0.005957182 0.038111336
135045500.0 0.006807615 0.043512296
150045000.0 0.008735104 0.048387152
165044500.0 0.012044522 0.052509344
180044000.0 0.016343486 0.055554776
195043500.0 0.021609326 0.057507348
210043000.0 0.027444898 0.058093028
225042500.0 0.033311572 0.057521172
240042000.0 0.038929488 0.055740964
255041500.0 0.043754752 0.052982156
270041000.0 0.047447456 0.049614116
285040500.0 0.049604688 0.046029584
300040000.0 0.04956878 0.042267384
315039500.0 0.048444232 0.03876676
330039000.0 0.04461702 0.036473436
345038500.0 0.03867502 0.034723992
360038000.0 0.030986152 0.035308388
375037500.0 0.02118865 0.036285216
390037000.0 0.009356164 0.038286288
405036500.0 -0.002751704 0.043982532
420036000.0 -0.015129092 0.05053086
435035500.0 -0.027831034 0.059999008
450035000.0 -0.04173992 0.068570832
465034500.0 -0.052332788 0.077719856
480034000.0 -0.062385856 0.08810464
495033500.0 -0.070107848 0.09866532
510033000.0 -0.076917688 0.110165576
525032500.0 -0.079605536 0.120709824
540032000.0 -0.081047784 0.129804
555031500.0 -0.079289656 0.139500128
570031000.0 -0.074152568 0.148396624
585030500.0 -0.067788992 0.152394176
600030000.0 -0.059619856 0.161301296
615029500.0 -0.050052056 0.164644704
630029000.0 -0.0393629 0.165333344
645028500.0 -0.027376722 0.163079232
660028000.0 -0.015392632 0.16004072
675027500.0 -0.002950009 0.154327504
690027000.0 0.007901371 0.148553488
705026500.0 0.016535328 0.140339712
720026000.0 0.023334038 0.131816552
735025500.0 0.0282277 0.122241248
750025000.0 0.02912381 0.110784056
765024500.0 0.026597946 0.101544816
780024000.0 0.019265444 0.088753816
795023500.0 0.012208608 0.083726936
810023000.0 0.000113636 0.07408912
825022500.0 -0.013223222 0.06771804
840022000.0 -0.030461978 0.059705792
855021500.0 -0.049017712 0.056250896
870021000.0 -0.0683166 0.054492
885020500.0 -0.089203232 0.054077244
900020000.0 -0.101288 0.062082104
915019500.0 -0.12235972 0.064612596
930019000.0 -0.135103088 0.075648856
945018500.0 -0.15590848 0.08375828
960018000.0 -0.16220992 0.0952584
975017500.0 -0.173397936 0.10644488
990017000.0 -0.180979984 0.118208568
1005016500.0 -0.186963808 0.127014536
1020016000.0 -0.173128464 0.139212928
1035015500.0 -0.17133216 0.155633872
1050015000.0 -0.167761184 0.167153488
1065014500.0 -0.151374384 0.177141552
1080014000.0 -0.137868672 0.17645128
1095013500.0 -0.124225304 0.185545936
1110013000.0 -0.102847248 0.199477696
1125012500.0 -0.095557736 0.208351248
1140012000.0 -0.083179888 0.212250032
1155011500.0 -0.072416752 0.215006464
1170011000.0 -0.057488716 0.214290016
1185010500.0 -0.047510612 0.213176752
1200010000.0 -0.0586841 0.19410968
1215009500.0 -0.053170068 0.17275832
1230009000.0 -0.037619528 0.16808808
1245008500.0 -0.04077336 0.154398464
1260008000.0 -0.04823004 0.129916992
1275007500.0 -0.059574012 0.111417264
1290007000.0 -0.058733584 0.085401472
1305006500.0 -0.062087568 0.066219008
1320006000.0 -0.082240688 0.061386388
1335005500.0 -0.090435488 0.036426248
1350005000.0 -0.145561504 0.025317318
1365004500.0 -0.150994416 0.042940068
1380004000.0 -0.173873984 0.05187846
1395003500.0 -0.19057832 0.067781384
1410003000.0 -0.172747504 0.083295968
1425002500.0 -0.270076352 0.082274712
1440002000.0 -0.307386848 0.088397536
1455001500.0 -0.341487168 0.077831192
1470001000.0 -0.45556912 0.041969216
1485000500.0 -0.467516032 -0.014080812
1500000000.0 -0.454743296 -0.036801656
