! Created with skrf 1.8.0 (http://scikit-rf.org).
# Hz S RI R 50.0 
!freq ReS11 ImS11 ReS21 ImS21 ReS12 ImS12 ReS22 ImS22
50000.0 0.0 0.0 -7.417585292948259e-05 1.2071903710010628e-05 0.0 0.0 0.0 0.0
15049500.0 0.0 0.0 3.688400033968132e-05 -6.6123000493314125e-06 0.0 0.0 0.0 0.0
30049000.0 0.0 0.0 3.9176856955622965e-05 7.485352635558092e-06 0.0 0.0 0.0 0.0
45048500.0 0.0 0.0 1.538056484247648e-05 -4.5881026717344074e-06 0.0 0.0 0.0 0.0
60048000.0 0.0 0.0 5.990123232625116e-05 8.80451712454934e-06 0.0 0.0 0.0 0.0
75047500.0 0.0 0.0 7.987562094191592e-05 1.8936596081222287e-05 0.0 0.0 0.0 0.0
90047000.0 0.0 0.0 8.471677738839754e-06 7.787887976395943e-05 0.0 0.0 0.0 0.0
105046500.0 0.0 0.0 4.582549910649088e-05 3.287893358430295e-05 0.0 0.0 0.0 0.0
120046000.0 0.0 0.0 -3.833487889552141e-05 1.4207259273544176e-05 0.0 0.0 0.0 0.0
135045500.0 0.0 0.0 3.304086146542658e-05 5.7628148145003675e-05 0.0 0.0 0.0 0.0
150045000.0 0.0 0.0 1.320097310612171e-05 0.00011747797511470586 0.0 0.0 0.0 0.0
165044500.0 0.0 0.0 2.763526719312883e-05 7.148172041273473e-05 0.0 0.0 0.0 0.0
180044000.0 0.0 0.0 -3.0087642095102326e-05 8.510242578891054e-05 0.0 0.0 0.0 0.0
195043500.0 0.0 0.0 -4.636776308851594e-05 8.469345601737634e-05 0.0 0.0 0.0 0.0
210043000.0 0.0 0.0 -6.336294973352242e-05 6.472127862663958e-05 0.0 0.0 0.0 0.0
225042500.0 0.0 0.0 -4.3515013098609036e-05 3.804915648247519e-05 0.0 0.0 0.0 0.0
240042000.0 0.0 0.0 -9.278200156970969e-05 4.057112635506179e-05 0.0 0.0 0.0 0.0
255041500.0 0.0 0.0 -6.084540060478897e-05 4.420013405231647e-05 0.0 0.0 0.0 0.0
270041000.0 0.0 0.0 -5.6962004160021016e-05 6.965914019045705e-05 0.0 0.0 0.0 0.0
285040500.0 0.0 0.0 -7.448705747978677e-05 3.1376980686531046e-05 0.0 0.0 0.0 0.0
300040000.0 0.0 0.0 -0.0002337701211314469 -0.0006344702248870223 0.0 0.0 0.0 0.0
315039500.0 0.0 0.0 0.00021794106055544765 0.001089216960332957 0.0 0.0 0.0 0.0
330039000.0 0.0 0.0 -0.0004505875126501932 -9.775897057412195e-05 0.0 0.0 0.0 0.0
345038500.0 0.0 0.0 0.00019280389246111084 0.00013494286339723344 0.0 0.0 0.0 0.0
360038000.0 0.0 0.0 -0.0005662343359575503 0.0005145163194960023 0.0 0.0 0.0 0.0
375037500.0 0.0 0.0 -4.8961958207238904e-05 0.00018558951665843788 0.0 0.0 0.0 0.0
390037000.0 0.0 0.0 -6.961646311798167e-05 0.00023896372181764894 0.0 0.0 0.0 0.0
405036500.0 0.0 0.0 -1.4319123875060044e-05 -0.0005913145914151373 0.0 0.0 0.0 0.0
420036000.0 0.0 0.0 -0.00013354579150642407 -0.00042290167507462386 0.0 0.0 0.0 0.0
435035500.0 0.0 0.0 -0.0005542925556817553 -0.0008210958614539402 0.0 0.0 0.0 0.0
450035000.0 0.0 0.0 -5.017462730212839e-05 -0.00020353145107351961 0.0 0.0 0.0 0.0
465034500.0 0.0 0.0 0.0004601756307289681 -0.0004940036441325068 0.0 0.0 0.0 0.0
480034000.0 0.0 0.0 0.00011711502545173082 4.354501495510644e-05 0.0 0.0 0.0 0.0
495033500.0 0.0 0.0 -0.00030591448551230523 -0.000608860119314561 0.0 0.0 0.0 0.0
510033000.0 0.0 0.0 0.00016381071603685987 -0.00043712003315392816 0.0 0.0 0.0 0.0
525032500.0 0.0 0.0 -0.0003390867874364974 -0.0005528166364464764 0.0 0.0 0.0 0.0
540032000.0 0.0 0.0 -0.0003248271545804938 -0.0010537205700052268 0.0 0.0 0.0 0.0
555031500.0 0.0 0.0 0.00024838103795359626 -0.000806262680886381 0.0 0.0 0.0 0.0
570031000.0 0.0 0.0 0.00036184209575770376 -0.0006891425027537285 0.0 0.0 0.0 0.0
585030500.0 0.0 0.0 0.000391869360812316 -0.0002550116094152321 0.0 0.0 0.0 0.0
600030000.0 0.0 0.0 -0.00016351243441512317 -0.0015852680098307165 0.0 0.0 0.0 0.0
615029500.0 0.0 0.0 0.0007421560039400552 -0.00026837126898334097 0.0 0.0 0.0 0.0
630029000.0 0.0 0.0 0.0007485434317504126 -0.0004859301867586693 0.0 0.0 0.0 0.0
645028500.0 0.0 0.0 0.001066758029517193 -0.0003098785734535311 0.0 0.0 0.0 0.0
660028000.0 0.0 0.0 0.000718940456291873 0.00015823386819462332 0.0 0.0 0.0 0.0
675027500.0 0.0 0.0 0.0002449125173882295 0.00044949646259627023 0.0 0.0 0.0 0.0
690027000.0 0.0 0.0 0.0012965544932684616 8.191970847317327e-06 0.0 0.0 0.0 0.0
705026500.0 0.0 0.0 0.00029485930080994116 0.0007452220711404573 0.0 0.0 0.0 0.0
720026000.0 0.0 0.0 0.00012894700824366993 0.00047471000582356265 0.0 0.0 0.0 0.0
735025500.0 0.0 0.0 4.64408251384485e-05 -0.00010463391406929232 0.0 0.0 0.0 0.0
750025000.0 0.0 0.0 0.0008683540477950208 0.0005519406704193873 0.0 0.0 0.0 0.0
765024500.0 0.0 0.0 2.310810123837429e-05 -9.688618156454018e-05 0.0 0.0 0.0 0.0
780024000.0 0.0 0.0 0.00016054114608673317 0.0005821301130556279 0.0 0.0 0.0 0.0
795023500.0 0.0 0.0 -0.0008002863453142379 0.0008988208693280216 0.0 0.0 0.0 0.0
810023000.0 0.0 0.0 -0.0007339861377555951 0.000340314503228447 0.0 0.0 0.0 0.0
825022500.0 0.0 0.0 -0.00018947532125051706 0.0012637546057530367 0.0 0.0 0.0 0.0
840022000.0 0.0 0.0 -0.001424115316652523 0.0002093638604933625 0.0 0.0 0.0 0.0
855021500.0 0.0 0.0 -0.0009660294268652445 -0.0004213505060545286 0.0 0.0 0.0 0.0
870021000.0 0.0 0.0 -0.0011466751012451054 -0.0002426708726681616 0.0 0.0 0.0 0.0
885020500.0 0.0 0.0 -0.000863035920867491 0.00010306985765684174 0.0 0.0 0.0 0.0
900020000.0 0.0 0.0 0.0021564691770202577 -0.0006787717614298444 0.0 0.0 0.0 0.0
915019500.0 0.0 0.0 -0.0008259508831658976 -0.0007700325671908129 0.0 0.0 0.0 0.0
930019000.0 0.0 0.0 -0.0002208768639088979 -0.0017621489472725539 0.0 0.0 0.0 0.0
945018500.0 0.0 0.0 0.0010487854555003614 -0.0021782487591475636 0.0 0.0 0.0 0.0
960018000.0 0.0 0.0 0.00029615992359081987 2.8075447778693666e-06 0.0 0.0 0.0 0.0
975017500.0 0.0 0.0 0.0022389523585972394 0.0009370464025633192 0.0 0.0 0.0 0.0
990017000.0 0.0 0.0 0.0020275202607771287 0.0008137427972254152 0.0 0.0 0.0 0.0
1005016500.0 0.0 0.0 0.0017399504719841235 -0.0015624845595929022 0.0 0.0 0.0 0.0
1020016000.0 0.0 0.0 0.001408369214135906 -0.0030965682233787795 0.0 0.0 0.0 0.0
1035015500.0 0.0 0.0 0.0011956284965683967 0.001034233140568216 0.0 0.0 0.0 0.0
1050015000.0 0.0 0.0 0.003042087771711154 -0.0030699856455082106 0.0 0.0 0.0 0.0
1065014500.0 0.0 0.0 0.006471244865680643 0.0009424038075087117 0.0 0.0 0.0 0.0
1080014000.0 0.0 0.0 0.0009698997066519726 -0.001622003675261378 0.0 0.0 0.0 0.0
1095013500.0 0.0 0.0 0.0036246216320267558 -0.001575969118177351 0.0 0.0 0.0 0.0
1110013000.0 0.0 0.0 -9.230053113191974e-05 -0.001367680038399978 0.0 0.0 0.0 0.0
1125012500.0 0.0 0.0 0.00576342843522711 0.0017667152179252287 0.0 0.0 0.0 0.0
1140012000.0 0.0 0.0 0.004747244053257983 0.0007313327236112935 0.0 0.0 0.0 0.0
1155011500.0 0.0 0.0 0.0002788401905903512 0.0016371946998572089 0.0 0.0 0.0 0.0
1170011000.0 0.0 0.0 0.0015861599044044502 0.0020104134075885154 0.0 0.0 0.0 0.0
1185010500.0 0.0 0.0 0.0001610876711166391 -0.0031132235288104863 0.0 0.0 0.0 0.0
1200010000.0 0.0 0.0 0.0028851752277882035 -0.005415311485949566 0.0 0.0 0.0 0.0
1215009500.0 0.0 0.0 -0.0006986441585472089 -0.0022115070116607957 0.0 0.0 0.0 0.0
1230009000.0 0.0 0.0 -0.0019293236205277595 0.0065141736608301795 0.0 0.0 0.0 0.0
1245008500.0 0.0 0.0 0.0015320783887718351 -0.0004626082734747592 0.0 0.0 0.0 0.0
1260008000.0 0.0 0.0 -0.0008633624808501663 0.0026593808530177183 0.0 0.0 0.0 0.0
1275007500.0 0.0 0.0 0.0012185825639715003 0.0030173431261731973 0.0 0.0 0.0 0.0
1290007000.0 0.0 0.0 -0.009363480048171932 0.0056685580534061 0.0 0.0 0.0 0.0
1305006500.0 0.0 0.0 0.00290513072858681 0.0028277628557390852 0.0 0.0 0.0 0.0
1320006000.0 0.0 0.0 -0.00454457975238276 0.0005186515093592782 0.0 0.0 0.0 0.0
1335005500.0 0.0 0.0 0.007902172330253207 0.00478322936272573 0.0 0.0 0.0 0.0
1350005000.0 0.0 0.0 0.000862848727831826 -0.006337934249308997 0.0 0.0 0.0 0.0
1365004500.0 0.0 0.0 0.0022428881980581183 0.006715464836970082 0.0 0.0 0.0 0.0
1380004000.0 0.0 0.0 -0.003805975599499612 0.004087743989520817 0.0 0.0 0.0 0.0
1395003500.0 0.0 0.0 0.002151450522600059 0.005794836455481459 0.0 0.0 0.0 0.0
1410003000.0 0.0 0.0 0.01082768949882257 0.0038684260766693557 0.0 0.0 0.0 0.0
1425002500.0 0.0 0.0 0.002022353431388676 0.013039740851397448 0.0 0.0 0.0 0.0
1440002000.0 0.0 0.0 -0.0016419084430366296 0.005482791716012476 0.0 0.0 0.0 0.0
1455001500.0 0.0 0.0 0.00926807389520902 0.0167202996579861 0.0 0.0 0.0 0.0
1470001000.0 0.0 0.0 -0.0012700678750181727 -0.008039337787295844 0.0 0.0 0.0 0.0
1485000500.0 0.0 0.0 -0.0013931867926328433 0.0023936767218205156 0.0 0.0 0.0 0.0
1500000000.0 0.0 0.0 -0.01973662970331865 -0.007785352942352705 0.0 0.0 0.0 0.0
