! Created with skrf 1.8.0 (http://scikit-rf.org).
# Hz S RI R 50.0 
!freq ReS11 ImS11
50000.0 0.007131954 -0.004362367
15049500.0 0.019171794 0.004485761
30049000.0 0.01830309 0.006815611
45048500.0 0.015912538 0.0091388
60048000.0 0.012719664 0.01146327
75047500.0 0.00900726 0.013989562
90047000.0 0.005848978 0.015913644
105046500.0 0.003501636 0.017205822
120046000.0 0.002906876 0.017880638
135045500.0 0.003573527 0.016654252
150045000.0 0.005808775 0.013639774
165044500.0 0.009126502 0.008605898
180044000.0 0.013438568 0.001318671
195043500.0 0.017949848 -0.007924268
210043000.0 0.022249426 -0.01871921
225042500.0 0.025810324 -0.030289218
240042000.0 0.028209808 -0.041689056
255041500.0 0.029186926 -0.05223764
270041000.0 0.02814123 -0.061302464
285040500.0 0.025502572 -0.067802072
300040000.0 0.02194693 -0.071052472
315039500.0 0.015472444 -0.070944008
330039000.0 0.009785024 -0.067277712
345038500.0 0.002793762 -0.05977032
360038000.0 -0.003768925 -0.04832426
375037500.0 -0.009701058 -0.034753748
390037000.0 -0.015783248 -0.01840936
405036500.0 -0.018557738 -0.001837262
420036000.0 -0.020553066 0.014072028
435035500.0 -0.020604622 0.030940846
450035000.0 -0.018918856 0.045369748
465034500.0 -0.01655198 0.054740372
480034000.0 -0.012031424 0.061379432
495033500.0 -0.008905152 0.064400604
510033000.0 -0.003834773 0.062151108
525032500.0 0.001538615 0.055329332
540032000.0 0.004729152 0.043301804
555031500.0 0.006560271 0.026710834
570031000.0 0.006332557 0.008154953
585030500.0 0.004411915 -0.01456503
600030000.0 0.000126149 -0.037475228
615029500.0 -0.00488818 -0.060816188
630029000.0 -0.012264094 -0.082546424
645028500.0 -0.022528288 -0.10402616
660028000.0 -0.032887906 -0.119357952
675027500.0 -0.04452906 -0.132238984
690027000.0 -0.055774252 -0.137578352
705026500.0 -0.066353372 -0.1382112
720026000.0 -0.076439696 -0.135178048
735025500.0 -0.086017992 -0.126036752
750025000.0 -0.094451864 -0.10972544
765024500.0 -0.096472784 -0.090804224
780024000.0 -0.104361808 -0.063838692
795023500.0 -0.099521136 -0.04243384
810023000.0 -0.097927656 -0.017828042
825022500.0 -0.093424232 0.005968922
840022000.0 -0.084758528 0.03011434
855021500.0 -0.076667064 0.048243564
870021000.0 -0.06965068 0.061725376
885020500.0 -0.060031384 0.071720592
900020000.0 -0.050615368 0.073905328
915019500.0 -0.04577496 0.06920452
930019000.0 -0.0374078 0.064971864
945018500.0 -0.029454426 0.047611448
960018000.0 -0.038359192 0.0381934
975017500.0 -0.03959432 0.006345123
990017000.0 -0.048014212 -0.006110545
1005016500.0 -0.057758432 -0.033421204
1020016000.0 -0.071266088 -0.046352972
1035015500.0 -0.093236232 -0.07063728
1050015000.0 -0.106548232 -0.081415704
1065014500.0 -0.119986816 -0.10074312
1080014000.0 -0.147084656 -0.112208688
1095013500.0 -0.17570968 -0.118326464
1110013000.0 -0.189788512 -0.125070704
1125012500.0 -0.209679856 -0.113069016
1140012000.0 -0.212087632 -0.096154704
1155011500.0 -0.224322976 -0.101613648
1170011000.0 -0.225871936 -0.05927318
1185010500.0 -0.216142224 -0.044572
1200010000.0 -0.204268224 -0.020898174
1215009500.0 -0.185368272 -0.002368596
1230009000.0 -0.175782016 0.028696398
1245008500.0 -0.158996112 0.054423524
1260008000.0 -0.16346352 0.07670824
1275007500.0 -0.127484976 0.086308544
1290007000.0 -0.124196848 0.098701968
1305006500.0 -0.077502992 0.113588752
1320006000.0 -0.071705272 0.11542968
1335005500.0 -0.076952168 0.12350264
1350005000.0 -0.073436024 0.108656408
1365004500.0 -0.077196856 0.095920168
1380004000.0 -0.076525312 0.078722032
1395003500.0 -0.081677544 0.08019264
1410003000.0 -0.133430912 0.075757576
1425002500.0 -0.121555416 0.043409516
1440002000.0 -0.188331776 0.025934224
1455001500.0 -0.281310016 -0.037388016
1470001000.0 -0.330470688 -0.084855992
1485000500.0 -0.326823488 -0.141898736
1500000000.0 -0.350648256 -0.228859232
