! Created with skrf 1.8.0 (http://scikit-rf.org).
# Hz S RI R 50.0 
!freq ReS11 ImS11
50000.0 0.99921536 0.001160015
15049500.0 0.977489216 0.220756032
30049000.0 0.90778944 0.428162944
45048500.0 0.794897984 0.615955648
60048000.0 0.645837888 0.77328576
75047500.0 0.466888 0.896705536
90047000.0 0.253173616 0.982366336
105046500.0 0.033506464 1.0146693
120046000.0 -0.188123232 0.999669184
135045500.0 -0.4024728 0.9361792
150045000.0 -0.601330944 0.825570112
165044500.0 -0.769478656 0.673591168
180044000.0 -0.900470144 0.486789984
195043500.0 -0.987721152 0.275350304
210043000.0 -1.026248098 0.046183124
225042500.0 -1.011556388 -0.187130976
240042000.0 -0.942180864 -0.412684672
255041500.0 -0.823049984 -0.616120832
270041000.0 -0.659475584 -0.787799616
285040500.0 -0.462670624 -0.919269568
300040000.0 -0.241192416 -0.988618048
315039500.0 -0.008806568 -1.016602874
330039000.0 0.226510304 -0.991729344
345038500.0 0.44761248 -0.918231744
360038000.0 0.64314208 -0.798746624
375037500.0 0.805556864 -0.638897792
390037000.0 0.936391872 -0.456222112
405036500.0 1.014476776 -0.241460416
420036000.0 1.056940792 -0.017209882
435035500.0 1.044460416 0.21852432
450035000.0 0.983032448 0.44472944
465034500.0 0.869419008 0.659906624
480034000.0 0.7105696 0.836292736
495033500.0 0.516424608 0.968905856
510033000.0 0.303664512 1.053031444
525032500.0 0.082265888 1.094693424
540032000.0 -0.144589024 1.081664208
555031500.0 -0.361117152 1.026892066
570031000.0 -0.551506368 0.928219776
585030500.0 -0.726424512 0.79153408
600030000.0 -0.879002176 0.642407872
615029500.0 -0.987263296 0.445155712
630029000.0 -1.055500744 0.222504656
645028500.0 -1.075419424 -0.012419506
660028000.0 -1.03454542 -0.246791088
675027500.0 -0.949652736 -0.475672096
690027000.0 -0.8057552 -0.68465056
705026500.0 -0.618682176 -0.849717824
720026000.0 -0.393075488 -0.977142336
735025500.0 -0.1488992 -1.046372532
750025000.0 0.1287602 -1.056483628
765024500.0 0.39758288 -0.998893184
780024000.0 0.686774656 -0.88558048
795023500.0 0.862579904 -0.68014368
810023000.0 1.016178132 -0.439196224
825022500.0 1.10069752 -0.169403408
840022000.0 1.09996188 0.10675808
855021500.0 1.048277856 0.356565312
870021000.0 0.931602496 0.573232448
885020500.0 0.783259008 0.755162688
900020000.0 0.62762496 0.92090592
915019500.0 0.434970016 1.03034234
930019000.0 0.23998528 1.090098264
945018500.0 0.028524952 1.109916928
960018000.0 -0.161439552 1.094586968
975017500.0 -0.340609248 1.045688628
990017000.0 -0.520721984 0.962745984
1005016500.0 -0.67568288 0.860628544
1020016000.0 -0.822374144 0.734821952
1035015500.0 -0.941213952 0.569260672
1050015000.0 -1.05091858 0.367444256
1065014500.0 -1.105936528 0.194226848
1080014000.0 -1.126816032 -0.032640762
1095013500.0 -1.112604376 -0.24710576
1110013000.0 -1.056510212 -0.475122048
1125012500.0 -0.97407712 -0.693597056
1140012000.0 -0.7802832 -0.89490752
1155011500.0 -0.537212224 -1.099622968
1170011000.0 -0.274779616 -1.200394512
1185010500.0 0.032988102 -1.324211712
1200010000.0 0.430896512 -1.329211712
1215009500.0 0.83602656 -1.201852912
1230009000.0 1.249844672 -0.858106624
1245008500.0 1.43459104 -0.398378784
1260008000.0 1.41372192 0.08394848
1275007500.0 1.249693152 0.472035744
1290007000.0 1.023571492 0.70503392
1305006500.0 0.78585248 0.86396064
1320006000.0 0.574660096 0.92303712
1335005500.0 0.438695008 0.957287104
1350005000.0 0.280964864 0.995919168
1365004500.0 0.141633664 1.046630024
1380004000.0 0.062956488 1.066497804
1395003500.0 -0.057300816 1.123803016
1410003000.0 -0.19258848 1.219921232
1425002500.0 -0.386592096 1.339657536
1440002000.0 -0.769198208 1.437113632
1455001500.0 -1.365162496 1.318932544
1470001000.0 -1.86483136 0.64160768
1485000500.0 -1.763901376 -0.075468032
1500000000.0 -1.381080864 -0.37219936
