! Created with skrf 1.8.0 (http://scikit-rf.org).
# Hz S RI R 50.0 
!freq ReS11 ImS11
50000.0 0.99910848 0.000783959
15049500.0 0.977502656 0.22067264
30049000.0 0.90768032 0.428218784
45048500.0 0.794573248 0.616095872
60048000.0 0.645806272 0.7735456
75047500.0 0.46615984 0.897270464
90047000.0 0.252305424 0.982422784
105046500.0 0.032810882 1.01448679
120046000.0 -0.189042736 0.999107328
135045500.0 -0.404695264 0.93595872
150045000.0 -0.601778944 0.824731008
165044500.0 -0.770495424 0.672137216
180044000.0 -0.901173952 0.484774656
195043500.0 -0.988031424 0.273503008
210043000.0 -1.026336194 0.044895436
225042500.0 -1.010547876 -0.189027312
240042000.0 -0.94104288 -0.414665824
255041500.0 -0.8218448 -0.6190672
270041000.0 -0.657818496 -0.789938944
285040500.0 -0.45902096 -0.919607296
300040000.0 -0.237933008 -0.988849408
315039500.0 -0.00636665 -1.016921402
330039000.0 0.226733408 -0.991033088
345038500.0 0.447104032 -0.917768192
360038000.0 0.645332992 -0.79670048
375037500.0 0.80812864 -0.635973824
390037000.0 0.936372224 -0.441615328
405036500.0 1.013164164 -0.239785648
420036000.0 1.056002736 -0.016013388
435035500.0 1.04777038 0.221623072
450035000.0 0.985194688 0.44690992
465034500.0 0.866886336 0.661425536
480034000.0 0.70576608 0.836667136
495033500.0 0.51377152 0.969612608
510033000.0 0.301210656 1.057394744
525032500.0 0.078694912 1.090496424
540032000.0 -0.148899648 1.081217888
555031500.0 -0.363069824 1.022960902
570031000.0 -0.559425472 0.92820224
585030500.0 -0.731322816 0.790419136
600030000.0 -0.87959552 0.639860032
615029500.0 -0.986324864 0.441077248
630029000.0 -1.05176544 0.218251488
645028500.0 -1.06842196 -0.01550917
660028000.0 -1.034926416 -0.255683216
675027500.0 -0.9445536 -0.483240448
690027000.0 -0.802807872 -0.683248192
705026500.0 -0.614183872 -0.851657856
720026000.0 -0.388714784 -0.973070976
735025500.0 -0.13569928 -1.04864204
750025000.0 0.14475056 -1.054511072
765024500.0 0.405397952 -0.993148736
780024000.0 0.632821888 -0.875009344
795023500.0 0.869039616 -0.671543744
810023000.0 1.015743376 -0.433908064
825022500.0 1.095252512 -0.163562272
840022000.0 1.108432648 0.11072996
855021500.0 1.042937516 0.368180096
870021000.0 0.929980992 0.580964864
885020500.0 0.770007104 0.761971584
900020000.0 0.62436864 0.923875968
915019500.0 0.420752928 1.033148408
930019000.0 0.226600352 1.091912624
945018500.0 0.029594416 1.102837328
960018000.0 -0.171180912 1.089922312
975017500.0 -0.343570848 1.034999372
990017000.0 -0.538269056 0.954469696
1005016500.0 -0.686477568 0.855025216
1020016000.0 -0.828006976 0.72283072
1035015500.0 -0.951659392 0.569509568
1050015000.0 -1.066800236 0.384534528
1065014500.0 -1.11263144 0.189830272
1080014000.0 -1.12747228 -0.033777388
1095013500.0 -1.109874248 -0.248950928
1110013000.0 -1.047549488 -0.459519968
1125012500.0 -0.967758912 -0.70659104
1140012000.0 -0.77238848 -0.900122304
1155011500.0 -0.602930368 -1.097041488
1170011000.0 -0.28648976 -1.260271664
1185010500.0 0.04821142 -1.331895008
1200010000.0 0.416008384 -1.318860064
1215009500.0 0.881934976 -1.181442384
1230009000.0 1.222330336 -0.84089056
1245008500.0 1.418265472 -0.389846976
1260008000.0 1.421190496 0.114193104
1275007500.0 1.2560476 0.473742432
1290007000.0 1.005049944 0.716515712
1305006500.0 0.770242688 0.844381632
1320006000.0 0.58209536 0.937041984
1335005500.0 0.42576464 0.951736896
1350005000.0 0.295630688 0.99799712
1365004500.0 0.171472896 1.055702448
1380004000.0 0.072248336 1.045735716
1395003500.0 -0.0674222 1.115780352
1410003000.0 -0.187619968 1.220967408
1425002500.0 -0.403767296 1.306778208
1440002000.0 -0.754930624 1.375518784
1455001500.0 -1.384009728 1.269831552
1470001000.0 -1.86931264 0.679115328
1485000500.0 -1.720081664 -0.064318492
1500000000.0 -1.398190496 -0.402397216
