! Created with skrf 1.8.0 (http://scikit-rf.org).
# Hz S RI R 50.0 
!freq ReS11 ImS11
50000.0 0.007208463 -0.00435116
15049500.0 0.018937606 0.004403456
30049000.0 0.018017106 0.006640657
45048500.0 0.015764172 0.008910512
60048000.0 0.012530076 0.011214592
75047500.0 0.008876754 0.013901104
90047000.0 0.005785989 0.015574126
105046500.0 0.003499887 0.017074048
120046000.0 0.002820282 0.017580074
135045500.0 0.003520011 0.016471746
150045000.0 0.005791041 0.013398336
165044500.0 0.0091683 0.008410982
180044000.0 0.01341188 0.001198626
195043500.0 0.01798846 -0.00810119
210043000.0 0.0223414 -0.018797232
225042500.0 0.02588139 -0.030298502
240042000.0 0.028288336 -0.041653668
255041500.0 0.029121816 -0.052186996
270041000.0 0.028162526 -0.06104532
285040500.0 0.025520512 -0.067705328
300040000.0 0.021895816 -0.071714448
315039500.0 0.01679978 -0.070770728
330039000.0 0.008924264 -0.066746904
345038500.0 0.002671698 -0.058825024
360038000.0 -0.004081192 -0.048611156
375037500.0 -0.010714858 -0.034681004
390037000.0 -0.016122902 -0.018962204
405036500.0 -0.019095746 -0.001865394
420036000.0 -0.020157226 0.015094464
435035500.0 -0.020162446 0.030976762
450035000.0 -0.018639748 0.043938044
465034500.0 -0.01626807 0.05553916
480034000.0 -0.013647654 0.061381492
495033500.0 -0.009588248 0.06441298
510033000.0 -0.003950043 0.062196736
525032500.0 0.000904735 0.05497916
540032000.0 0.004521446 0.04294024
555031500.0 0.006468917 0.027046708
570031000.0 0.006984948 0.007948615
585030500.0 0.005827726 -0.014980428
600030000.0 0.001190733 -0.036557132
615029500.0 -0.004490952 -0.061627224
630029000.0 -0.012340474 -0.083440472
645028500.0 -0.021437802 -0.104748032
660028000.0 -0.032395486 -0.118982952
675027500.0 -0.044339392 -0.130007536
690027000.0 -0.05469832 -0.138059952
705026500.0 -0.066343544 -0.139096576
720026000.0 -0.076842416 -0.13270104
735025500.0 -0.087002976 -0.12337676
750025000.0 -0.094522696 -0.111086288
765024500.0 -0.098156744 -0.090914368
780024000.0 -0.096962344 -0.067675216
795023500.0 -0.100387216 -0.042683036
810023000.0 -0.096901376 -0.01733819
825022500.0 -0.093587304 0.007306689
840022000.0 -0.086435152 0.029912796
855021500.0 -0.0774814 0.047799748
870021000.0 -0.067729576 0.062671244
885020500.0 -0.060402168 0.072643992
900020000.0 -0.046010388 0.075117216
915019500.0 -0.044923808 0.069239736
930019000.0 -0.032985598 0.06069064
945018500.0 -0.037773104 0.051764268
960018000.0 -0.035878076 0.03423132
975017500.0 -0.043646088 0.01564993
990017000.0 -0.052218504 -0.011430518
1005016500.0 -0.059335708 -0.036809492
1020016000.0 -0.075593304 -0.053003692
1035015500.0 -0.093635088 -0.072473984
1050015000.0 -0.109681696 -0.091921656
1065014500.0 -0.126909288 -0.099950472
1080014000.0 -0.149547408 -0.118400592
1095013500.0 -0.161224176 -0.11063224
1110013000.0 -0.185050048 -0.117095504
1125012500.0 -0.20877144 -0.114247792
1140012000.0 -0.208346544 -0.100978944
1155011500.0 -0.222118448 -0.090194576
1170011000.0 -0.227424208 -0.063126936
1185010500.0 -0.204902288 -0.0513315
1200010000.0 -0.211404432 -0.027587348
1215009500.0 -0.199321376 -0.007717815
1230009000.0 -0.188973696 0.03279414
1245008500.0 -0.155609968 0.039004204
1260008000.0 -0.138562864 0.066791436
1275007500.0 -0.122938488 0.08037048
1290007000.0 -0.121776 0.100708608
1305006500.0 -0.093935504 0.104176944
1320006000.0 -0.065076312 0.113765832
1335005500.0 -0.070323488 0.103613824
1350005000.0 -0.04990788 0.118459768
1365004500.0 -0.058305352 0.093240024
1380004000.0 -0.074487632 0.071512648
1395003500.0 -0.071411952 0.075889688
1410003000.0 -0.094056416 0.078583376
1425002500.0 -0.160325536 0.047845812
1440002000.0 -0.198022192 -0.004157917
1455001500.0 -0.299547456 -0.051492728
1470001000.0 -0.328760288 -0.090800736
1485000500.0 -0.327180352 -0.159626016
1500000000.0 -0.319242048 -0.216223136
