! Created with skrf 1.8.0 (http://scikit-rf.org).
# Hz S RI R 50.0 
!freq ReS11 ImS11
50000.0 0.0005304962909153147 -0.0012742767719010513
15049500.0 0.0019545611190698 -0.0018701248533315588
30049000.0 0.0006924176076403328 0.000275003863607558
45048500.0 0.0010842924035214696 -0.0009905332431478582
60048000.0 0.0001903450692487497 -1.2484393029214018e-05
75047500.0 0.00041813544917741795 -0.00031377915713699713
90047000.0 0.00012512150192031484 -0.00016098110196698917
105046500.0 -0.0012184370203613866 -0.0009724955156259978
120046000.0 8.819658810133724e-05 6.870696279113544e-07
135045500.0 0.0021035622709014252 0.00065527249066303
150045000.0 0.0017387646157723156 -0.0004041501452005264
165044500.0 0.0031617559813045064 -0.002272544564055392
180044000.0 -4.964282096226289e-05 5.459399020941942e-05
195043500.0 -0.0003832360946953527 0.0004259775020417358
210043000.0 0.0006921554138927015 0.00034682870971652956
225042500.0 0.0006663421273474968 -0.0004975560997923634
240042000.0 0.00036256524239261495 -0.0003738021116779608
255041500.0 -0.000495712306705756 0.0011350515738637913
270041000.0 -0.00040626207456644976 -0.0029333864901278485
285040500.0 0.0013320129567949569 -0.00024680760778058626
300040000.0 -0.023334154695383587 -0.021138479667731414
315039500.0 0.009282588365645094 -0.0006881437084846622
330039000.0 -0.003232868540130594 0.0012975007053175128
345038500.0 -0.001462991513169802 -0.011068065398952484
360038000.0 0.0011559180976848757 0.0005871506150045122
375037500.0 -0.0028855223504446704 0.0009907725622421162
390037000.0 -0.02911794236948235 -0.031035681275314957
405036500.0 0.0010716784332293055 0.020385344467351272
420036000.0 -0.0029967364868837523 0.0008407652233708061
435035500.0 0.01419290637076071 -0.007457534604248861
450035000.0 -0.019872563869940803 0.005508987035256628
465034500.0 -0.018169179317245345 -0.01633474463733257
480034000.0 0.00019788812049666724 -0.001966736693903608
495033500.0 -0.003918280681583761 0.005665854564386008
510033000.0 0.0013044165545639489 0.0032181326013363248
525032500.0 -0.0002268318995284686 -0.002135596235025192
540032000.0 -0.005420635358454853 -0.005313218949216333
555031500.0 0.001520266163153481 0.009422191933658296
570031000.0 0.003732009527846469 0.012507493358458627
585030500.0 -3.273013976412718e-05 -0.00011223809189102824
600030000.0 -0.0027778806998684682 0.003826178908862741
615029500.0 0.0017792048621889584 -0.001138777514745928
630029000.0 0.004828504837527226 0.003264346001214648
645028500.0 0.005123653954056263 0.0014950513376849413
660028000.0 0.019430961461607613 0.0032596498314340777
675027500.0 0.004884319436082229 -0.004173314853036173
690027000.0 -0.009893515440684713 0.025741142115698244
705026500.0 0.006555946536666664 0.015468376099719914
720026000.0 0.011389912398005292 0.026151862951950884
735025500.0 -0.03930187823918754 -0.02789107706400736
750025000.0 0.0025780288802392808 -0.0037568955684539407
765024500.0 0.0011472718033383603 0.005301098393404722
780024000.0 0.021429861730930037 -0.0009301444245776347
795023500.0 -0.002943652496952449 0.001117790276856101
810023000.0 -0.0007923294530019814 -0.0031632855107462383
825022500.0 -0.0018015126967195361 -0.0034990469003707858
840022000.0 0.007437830629209898 0.018789943539576803
855021500.0 -0.0060808219727889684 -0.003805518726410114
870021000.0 0.007722314060886636 -0.00393400938412474
885020500.0 0.0025600291889530933 -0.000440575252917198
900020000.0 0.004467687336752484 -0.004170533056430351
915019500.0 0.014770991877014826 0.013986119006973824
930019000.0 0.003713748582723952 0.0005130485252814777
945018500.0 -0.015952368594621222 -0.012386494029185409
960018000.0 -0.0031801156874004073 0.00023417342080055457
975017500.0 -0.08470013099534747 -0.1375323516506072
990017000.0 0.007528404986941233 -0.007681881659661956
1005016500.0 0.006568058610015896 -0.0019982557111735857
1020016000.0 0.0025734171570174253 0.0008975784151377176
1035015500.0 0.002777517827612334 0.00465337383882927
1050015000.0 0.098066585521163 0.3098969566637008
1065014500.0 0.002356119388988603 0.004216000041218734
1080014000.0 -0.15210381129253206 0.004268664540923275
1095013500.0 -0.005532644799373811 -0.012038600701850727
1110013000.0 -0.013924627634060615 -0.006117851251927045
1125012500.0 0.025602375889313276 0.0023308100967942623
1140012000.0 0.004209152889873354 -0.006879794530842509
1155011500.0 0.03176899724523942 0.014091429087335924
1170011000.0 -0.0666356010570839 0.14448196400914698
1185010500.0 -0.004254550396085639 -0.013392275182734703
1200010000.0 -0.04989756822376755 -0.015583912024532446
1215009500.0 -0.02549137919976192 0.014266438252237217
1230009000.0 0.04340311302913389 0.09115513766798534
1245008500.0 -0.026747407328325718 0.0012917309693841344
1260008000.0 -0.004144294252860073 0.048185252342356065
1275007500.0 -0.0028074909614807957 -0.014526091850047287
1290007000.0 0.013245612499203717 -0.034475290640835175
1305006500.0 0.03156820722244976 -0.035472833818908464
1320006000.0 -0.007768422706098137 -0.029967129622594152
1335005500.0 -0.022652969779717598 -0.0012958128335958234
1350005000.0 0.011403696554733807 0.007378435267613858
1365004500.0 -0.03247232550309043 0.012806977443269878
1380004000.0 0.00932547366680178 -0.008777672627255572
1395003500.0 -0.008546586741706039 0.010918611626772533
1410003000.0 -0.013453973025472122 0.003776846919085765
1425002500.0 -0.05961465222622448 0.11827493824754444
1440002000.0 -0.0077718825820771225 0.009616970150501605
1455001500.0 -0.1040837455561707 0.017027914489961583
1470001000.0 0.06781270793527693 0.0684442085052202
1485000500.0 -0.02749417435867562 -0.03459607367081584
1500000000.0 0.24254206111152019 -0.2254232240024506
