! Created with skrf 1.8.0 (http://scikit-rf.org).
# Hz S RI R 50.0 
!freq ReS11 ImS11
50000.0 -7.058155930541763e-05 -3.4565081760603887e-06
15049500.0 -5.473910532151638e-05 9.673717255844147e-06
30049000.0 0.0001104888650856663 -3.131597191349646e-05
45048500.0 -0.0001859461956914834 0.0001327936461701042
60048000.0 -3.194221704697143e-05 8.694396045304319e-05
75047500.0 7.963429100483295e-05 -0.0003685384261296608
90047000.0 -0.000176688702615213 1.5921010940115698e-05
105046500.0 -0.00036800257906444535 -0.0001238786637493556
120046000.0 0.00047493137598954104 0.00018568173529774637
135045500.0 0.00015712707360334018 -0.0005184886525977284
150045000.0 -0.00018429697635130647 3.601787271310445e-05
165044500.0 2.549846800421287e-05 2.6499838378254198e-05
180044000.0 0.00016254513108941227 0.00014341382879294053
195043500.0 8.678344356810405e-06 3.300500179504436e-06
210043000.0 -0.00016537411237074078 0.0001402589236861759
225042500.0 2.8445421200544694e-05 0.00031414593228868597
240042000.0 -0.00021030495468785392 0.0004685909906502692
255041500.0 0.00012381075408715876 -0.00011767974818636167
270041000.0 -6.859336841858417e-05 -2.3935622343336933e-05
285040500.0 -0.00010857545914469031 7.206231734371764e-05
300040000.0 -0.000371064347294204 -2.997098758283533e-05
315039500.0 0.0008941726261706216 -0.000917054729556487
330039000.0 -0.00021200652303142445 -0.0006728784043788284
345038500.0 -0.000356594134257778 -2.794129845097266e-05
360038000.0 -0.0005549360138938926 -0.0007829297704131352
375037500.0 0.0006798130157837409 -0.0018863103128730306
390037000.0 0.0027341749732342872 0.0020913876470287644
405036500.0 -0.00018506984027794466 -0.0002748480871143498
420036000.0 0.003276257437945333 0.002014326634737187
435035500.0 -0.0022009676999884165 -0.005795359886886647
450035000.0 0.0009717712512344013 0.0021241465450681377
465034500.0 -0.002541479747483106 0.005692975630814072
480034000.0 7.507162653369122e-05 -0.007371756705188115
495033500.0 0.0003835895724587034 0.0008763485741223431
510033000.0 0.0004354057051929614 0.000358285194647218
525032500.0 -0.0009397511430721707 0.0007851730001094777
540032000.0 -0.0007146644927624722 0.001394176540363044
555031500.0 -0.0002328801963148006 0.00024595711985272984
570031000.0 0.0002762285107230245 0.0007954930392247263
585030500.0 0.002050784126854142 0.0025293543656398254
600030000.0 -0.00012010839741327295 -0.004753436048355323
615029500.0 -0.0007195994494107498 -0.0011298096618222165
630029000.0 -0.001109992873237979 -0.0005459345289147036
645028500.0 0.004804554578520143 -0.010797345056837312
660028000.0 0.0006806303369051266 0.001390418042572524
675027500.0 0.000956810421803952 -9.984136190568296e-05
690027000.0 -0.005832172303533872 0.0029863372767385404
705026500.0 0.005146617262762288 -0.0007225064149375056
720026000.0 -0.0022213534037444564 0.0009184541392189529
735025500.0 0.003142786422186742 0.0010735143900361347
750025000.0 0.007232478729180602 -0.006678608302569599
765024500.0 0.0013509388598774183 -0.004621585840952461
780024000.0 -0.006970932750527813 -0.0034434795804700827
795023500.0 0.001899925618222767 -0.00368050543086781
810023000.0 -0.000213346481873508 0.00025654157159789325
825022500.0 0.0011330616394771707 -0.00045445817109695353
840022000.0 -0.006206741613694814 0.0009122152038417392
855021500.0 -0.00088941336048547 -0.00023727073933723963
870021000.0 -6.596170880653406e-05 -0.002162419334627525
885020500.0 0.0029759864144292617 -0.004509692415181402
900020000.0 -0.00546550907295817 0.0009006405964107731
915019500.0 -0.000749437245150844 0.018291225149559505
930019000.0 -0.0051321286618224255 -0.0003613803343210583
945018500.0 -0.0015005942494812938 0.022608693529158525
960018000.0 0.0038978518946640468 -0.006138169928974004
975017500.0 -0.0166448605251889 -0.00583449175810817
990017000.0 -0.003112397292638894 -0.00014670743806142043
1005016500.0 -0.0015246744678326328 0.00608569351145264
1020016000.0 0.01724108600706144 0.04101394386268096
1035015500.0 0.0025497815116989945 -0.00451977804060355
1050015000.0 0.01284620156755107 -0.0189606806883278
1065014500.0 0.0013403276230035345 -0.014193610243457137
1080014000.0 0.006304704165375971 0.003051877508782361
1095013500.0 0.0003689255956747014 -0.005091274927861811
1110013000.0 0.008319073035472708 -0.00911214382351059
1125012500.0 -0.03476042204467775 0.01950915570302406
1140012000.0 0.01627050128428022 0.0142985404924649
1155011500.0 0.029523691875605666 -0.0033540803381107457
1170011000.0 0.011273880116367926 0.009805430877301515
1185010500.0 0.009207289570344883 -0.0007354714328921211
1200010000.0 0.009528282122094032 -0.003495741065272199
1215009500.0 -0.005840557362989443 -0.005092724523232388
1230009000.0 0.0020933440388402 -0.004351073037290288
1245008500.0 0.002122969606641748 -0.005667470824199359
1260008000.0 0.049322848627459635 0.012292986041132204
1275007500.0 0.01396931290563552 -0.033881284664834095
1290007000.0 0.03948790596974035 -0.08062988910902755
1305006500.0 0.06721943215180154 0.03829498290337201
1320006000.0 0.005565825158550423 0.012854826013492516
1335005500.0 -0.003727868658649839 0.08227899241405418
1350005000.0 -0.041054231391674634 -0.009525138812023218
1365004500.0 0.011848141748047875 -0.011626895070150526
1380004000.0 0.0017343859905305323 -0.009626115327705884
1395003500.0 0.0032926031047314894 0.015090479822139881
1410003000.0 -0.01027860885947621 -0.03004250278672695
1425002500.0 0.09420590245266353 0.06688485682988106
1440002000.0 -0.01981563876096704 -0.008906167271129539
1455001500.0 0.05800546118270547 -0.061391164376068404
1470001000.0 -0.014813914425986159 -0.004052904542573109
1485000500.0 0.00833546974412264 -0.010912554419186602
1500000000.0 0.02146706920730055 -0.1365446479049674
