! Created with skrf 1.8.0 (http://scikit-rf.org).
# Hz S RI R 50.0 
!freq ReS11 ImS11
50000.0 0.0003617346679161069 -6.210807331778394e-05
15049500.0 7.00241642137166e-05 4.627591562296105e-05
30049000.0 -2.8487635900625932e-05 -3.2266828764919996e-06
45048500.0 3.419167433556353e-05 -5.8099555901910205e-05
60048000.0 -7.43130656804067e-05 1.6411462849405866e-05
75047500.0 -0.0014398834368161497 -0.0053819776409497
90047000.0 0.0005176753395595609 0.00017665740447615647
105046500.0 0.00016351904455333893 -0.00033293047971104985
120046000.0 -4.881064327204346e-07 -0.0008573921280691299
135045500.0 -0.0002130360152748654 0.00031838542118621196
150045000.0 -0.0016812319197132579 -0.0008926465136071907
165044500.0 -0.00030465802921053283 -6.645118558551282e-05
180044000.0 -0.00020692977929819212 0.0002876640450607006
195043500.0 0.00022861755837168095 -0.00042939420648277943
210043000.0 0.006347482922607767 -0.0055076293371500214
225042500.0 0.0005966804287362506 -0.00043623275923341566
240042000.0 0.0011417514252489963 0.0002692157027451831
255041500.0 -0.0005974111213073376 -8.756522279086726e-05
270041000.0 0.0020254325371354825 0.0002902920255885824
285040500.0 1.1820138104358894e-05 0.0007425832398048152
300040000.0 0.0002108811916766458 -0.0011150411840129615
315039500.0 -0.003080011271270565 0.0030325037552404836
330039000.0 -0.006657159599526309 0.008511988332213843
345038500.0 0.0009983052230825508 0.0003783539176576462
360038000.0 0.0015691991593490935 0.004094954485494532
375037500.0 -0.01744538504494548 -0.011840116173787487
390037000.0 0.010826359011097995 0.0018264747977557276
405036500.0 0.0008754023589586109 -0.0020002828538085568
420036000.0 -0.00023496486237916083 0.0012109302846182249
435035500.0 -0.0131756613769091 -0.013634908582960927
450035000.0 -0.013299525817744323 0.0006156504878320168
465034500.0 0.0017370467521700302 0.006542122478164017
480034000.0 0.0009350473622248792 -0.0007621527124957509
495033500.0 -0.008429605879705477 0.003709239575919794
510033000.0 -0.00065227931996515 -0.003667875389165575
525032500.0 0.00080525457844261 -0.00045401203104771816
540032000.0 -6.120017212969301e-05 -0.0003533088637433757
555031500.0 -0.0004940972456433842 0.0022483428228008587
570031000.0 0.001741761943142602 0.00040050344375405165
585030500.0 0.003724720398741154 0.003682368258859968
600030000.0 0.0019458779399918597 -0.005028475310436498
615029500.0 0.007287562454153271 0.011082774859897157
630029000.0 -0.0008565965620225247 0.0005271641948562352
645028500.0 0.00434643763289883 -0.034523605240682084
660028000.0 0.0006622018903587881 -0.0007720321275775361
675027500.0 0.008079817039319178 -0.0016883713370713482
690027000.0 0.016682542047829707 -0.001585598737594405
705026500.0 -0.010364148536933907 0.011993280685204702
720026000.0 -0.016289764447595435 0.010244286167845493
735025500.0 0.0026354255668708726 -0.0028524833693427606
750025000.0 -0.0043347375285848885 0.003687234613952729
765024500.0 0.0017333993515609115 -0.002786192475711377
780024000.0 0.9041113302971217 -0.3409185005812429
795023500.0 -0.0012520287304623706 -0.002581402683979444
810023000.0 0.01474887172716047 0.010367607821863224
825022500.0 0.0028356522760047713 -0.006259906643831507
840022000.0 0.0007870046659274127 0.008566162620341562
855021500.0 -0.0014585045764243733 -0.0023125829461098438
870021000.0 0.011684404351611343 0.011107577360903486
885020500.0 -0.0026278920818869947 -0.0032149861099430707
900020000.0 0.0020126491007859946 0.0034845892757017064
915019500.0 -0.0018576596926558522 -0.011009091394386519
930019000.0 0.012406551918512561 -0.005171849018529432
945018500.0 -0.002898844227103759 0.00034643237498362524
960018000.0 -0.0029558718302411012 -0.007686703846437774
975017500.0 0.006058135079268326 -0.011784511447952896
990017000.0 0.004177470198001013 -0.0016985426280694239
1005016500.0 -0.0037931201169838836 0.003618422137131345
1020016000.0 -3.0128218651975903e-05 0.006942399542825047
1035015500.0 0.007610480376050257 -0.006108286628246855
1050015000.0 -0.008058227625909076 -0.01530710095629732
1065014500.0 0.014147793987349926 0.017319439512908267
1080014000.0 -0.11377526567324325 -0.021359167699632853
1095013500.0 -0.0018378067811387806 0.015085719357963864
1110013000.0 0.019659979440706857 -0.01811232851245986
1125012500.0 -0.0008518359715724498 0.0016168698701932785
1140012000.0 0.007569182584838226 0.00032150349514668684
1155011500.0 -0.004574688426298752 0.04258802434670254
1170011000.0 0.21608412862213214 0.5094641113095133
1185010500.0 0.0014192327502639366 -0.004569868228075143
1200010000.0 0.028722973656878488 -0.011095534889412086
1215009500.0 0.010511590233613278 -0.042263283758381565
1230009000.0 -0.059394002412118355 0.12453258675179073
1245008500.0 -0.019293542414673567 0.0018274582443920837
1260008000.0 -0.07095107405374196 -0.01818066537583339
1275007500.0 -0.003691144820307009 -0.025442608903369055
1290007000.0 -0.01633335904820827 -0.023630213620776188
1305006500.0 0.0013477044586166877 -0.0025843492162149944
1320006000.0 -0.023456616555450765 -0.007550331957878188
1335005500.0 0.015838313240815215 -0.005538888835881345
1350005000.0 0.2439266654464514 0.10371436295768933
1365004500.0 0.1720927512908325 -0.12566207510401456
1380004000.0 -0.08816374703792021 -0.010697704304106855
1395003500.0 -0.02040996975582593 0.0020350904158180725
1410003000.0 -0.007836318756764554 0.012559541720278263
1425002500.0 0.08256443984985135 0.05649078239722236
1440002000.0 0.015654907637181633 0.0045187270141373165
1455001500.0 0.053411182943522574 0.23040349964109663
1470001000.0 0.11195487370099808 -0.1919875073321656
1485000500.0 0.17768464441458506 -0.520541607938144
1500000000.0 0.06549675212084688 0.10625762428216494
