! Created with skrf 1.8.0 (http://scikit-rf.org).
# Hz S RI R 50.0 
!freq ReS11 ImS11
50000.0 -0.00015770812668760998 0.0035457034053035428
15049500.0 0.0006451701224078457 0.0015979352097027508
30049000.0 -0.00014413169968678337 -1.2335791203211654e-05
45048500.0 0.00011331912570130209 -6.907248042067743e-05
60048000.0 0.00042011277701464993 0.0003531138838121752
75047500.0 0.00029831930252796873 -0.0004071890500667017
90047000.0 -0.0001285801924158321 -0.0001383706500711209
105046500.0 -0.00010174809386699792 -2.8786841676519346e-05
120046000.0 0.0003326354632777707 -0.00016654836919070267
135045500.0 -0.0028123093701343804 -0.0019576096263285736
150045000.0 0.002712842748635847 0.002922249976677062
165044500.0 0.0013601367014330033 0.00016947499525207235
180044000.0 -8.13409941468486e-05 -0.0006853871821241936
195043500.0 0.0004332265438630144 0.00015377942104232952
210043000.0 -0.0005984934220380202 -0.0012568698869914999
225042500.0 -0.000649828084400933 0.003875779401010487
240042000.0 0.0002025892956293655 0.0010356204385311384
255041500.0 9.008930245546482e-05 -0.0004753005377785449
270041000.0 0.002647774978061865 -0.001985495454031317
285040500.0 -0.0007671849786271422 0.0003710252993470185
300040000.0 -0.002369787780112806 0.0024989637060039423
315039500.0 0.0002344382688049633 -0.0009151421648828889
330039000.0 -0.005071647046701578 0.003331921578722061
345038500.0 0.0008051972921463495 0.0022103215980725935
360038000.0 -0.0028220807020084317 0.0015562702087241823
375037500.0 -0.0010609523971173167 -0.00023983250815035276
390037000.0 -0.02785681974661879 0.006749668777470155
405036500.0 0.005861588345954669 0.004712898806162196
420036000.0 -0.00330988186874309 -2.2609117852798687e-05
435035500.0 -0.0035066657224352344 0.0015179180888111703
450035000.0 0.0068678703521966086 0.007959461543838883
465034500.0 -0.001735619287683547 -0.0005463356775070138
480034000.0 -0.001351984676969413 0.0015290401738940606
495033500.0 -0.00037956152432951513 -0.00017664762536728906
510033000.0 0.0013164771774654721 -0.0030711811411185817
525032500.0 -0.002093242310428851 0.000620372836830051
540032000.0 -0.00530012515667014 0.0052439268442533
555031500.0 0.0024545209925564988 -3.1873248121396006e-05
570031000.0 0.00010966030379021038 0.000752734197099205
585030500.0 -0.0006783318252579239 -0.006355883385992324
600030000.0 1.174529095517932e-05 -0.0016982157962583332
615029500.0 0.0012644935048905456 -0.0010653371076200775
630029000.0 -5.984092263407469e-05 0.0032669086456884474
645028500.0 0.004281584084209243 0.006290081738567484
660028000.0 -0.004199583829965938 -0.0035905653907290997
675027500.0 0.04245563136755237 0.017786804204598102
690027000.0 -0.0016583504822671514 -0.0009389421977802946
705026500.0 -0.01805298966615763 0.020991742864013913
720026000.0 0.0055268894336179455 -0.011444176371524785
735025500.0 -0.004776454193442797 0.0006930885192568225
750025000.0 -0.004537509376250104 -0.0016809261779373128
765024500.0 -0.0009952539514841065 -0.004590344429920201
780024000.0 -0.014553013932976748 0.011120957727073036
795023500.0 -0.017455153928107706 -0.005474260685347794
810023000.0 0.007485535969458961 -0.012477427491663397
825022500.0 -0.000528616089199932 0.0006412933509187429
840022000.0 -0.0049257502431991436 -0.005501467778494116
855021500.0 0.014965320310626865 -0.009018719387475461
870021000.0 -0.002636513655585319 0.00625112896484677
885020500.0 0.001732018613641866 0.004882493065459084
900020000.0 0.0025316283582721166 0.005459309030869546
915019500.0 -0.0037351953515741805 -0.005861037125392769
930019000.0 -0.004528756404417546 -0.0005443118001565185
945018500.0 0.005248088312588253 0.004963858833248703
960018000.0 -0.009721569934171299 -0.015924649269668
975017500.0 0.03683042831820726 -0.02467386608880134
990017000.0 0.0040805880606690345 -0.01283845576565204
1005016500.0 0.11017257427676769 -0.02087168984006774
1020016000.0 -0.004612752861991444 0.013451205372270979
1035015500.0 0.02065009843353955 -0.005757936142418411
1050015000.0 0.02417108581143434 -0.004493794050397307
1065014500.0 -0.010736676072795165 0.031161765936001676
1080014000.0 -0.007202899248302151 0.018481709183533385
1095013500.0 -0.03273802072818589 0.00879330866921743
1110013000.0 0.010303613370492426 -0.019136629223580642
1125012500.0 0.002118355757465022 0.007189718677174768
1140012000.0 0.011726321413069889 0.03124183811504689
1155011500.0 -0.0431979357984457 -0.035565317628234526
1170011000.0 -0.6566753878209465 0.3415033461627357
1185010500.0 0.02181096819407798 0.020053548983490436
1200010000.0 0.01826453108743535 -0.028982416349173503
1215009500.0 -0.009597408252429912 -0.0016628486656865228
1230009000.0 -0.03947300739213039 -0.034265652837699626
1245008500.0 0.07821228286996175 0.1083992722174868
1260008000.0 -0.013100711616664299 0.0014005914211357316
1275007500.0 0.0063250053525234435 -0.0006107479306153131
1290007000.0 -0.12047012769037548 0.08519714755014283
1305006500.0 -0.007450426541918056 0.002830165622204564
1320006000.0 0.01236151174076919 0.012099443328276647
1335005500.0 -0.031103468694369335 -0.04047532459641376
1350005000.0 -0.009315771824505102 0.001048821238333227
1365004500.0 -0.013491400134073052 -0.13261842517170866
1380004000.0 -0.011403462009551113 -0.045640720432588155
1395003500.0 -0.01739008618672922 -0.0022791214726226726
1410003000.0 0.0002820315625898378 0.0017006030096276955
1425002500.0 0.006052478527907705 0.011399668739280984
1440002000.0 0.022546268595315513 0.006095460632410523
1455001500.0 0.2807123927820677 -0.08366033854971652
1470001000.0 -0.01658352450008662 -0.005597432455516925
1485000500.0 -0.275546398832074 -0.10388002594560075
1500000000.0 -0.01891275037784343 0.04831094497582641
