! Created with skrf 1.8.0 (http://scikit-rf.org).
# Hz S RI R 50.0 
!freq ReS11 ImS11
50000.0 -0.003796113879028061 0.025455786960442036
15049500.0 -0.0007837474695994492 -0.000407604562727052
30049000.0 0.0016537800923784533 -0.000960307560436353
45048500.0 -0.0003068384480071221 0.0009875161512531087
60048000.0 -0.000671785328158427 -0.0010194020707497958
75047500.0 0.0005777768728272247 -0.00038939225931427276
90047000.0 -0.00019216466681986884 -0.0002954662457611636
105046500.0 0.00018791298526514433 -8.469467854487594e-05
120046000.0 0.00024287364870811465 -5.7512072242409335e-05
135045500.0 0.0003745488633735236 0.001452682744529954
150045000.0 -8.30528709067939e-05 -0.000325307715100436
165044500.0 0.00012293550315491082 -0.0005089750800281974
180044000.0 -0.0011778841848110553 0.00020807983575006365
195043500.0 0.00027666850476979214 0.0003992307441045328
210043000.0 0.0021690511734438456 -0.0006321587716505728
225042500.0 0.0002345365280323146 0.0004552603490036989
240042000.0 -2.554934386887533e-05 -0.0002179629079281739
255041500.0 -0.00024484712754213025 -0.00012636523652080677
270041000.0 0.0009590173716571848 -0.0006212283192575146
285040500.0 0.00019325730887383784 0.0010481649177978146
300040000.0 0.006189398634187518 -0.0020839337908782427
315039500.0 -0.0007758456338820523 0.0005224310961852207
330039000.0 0.001082052889437565 0.003660954350444183
345038500.0 0.0005049301552579516 -0.00045311767214944136
360038000.0 0.0019672605150301546 -0.0007336651067069563
375037500.0 -0.0001219978360305601 0.0018192756559615728
390037000.0 -0.002084072936432754 -0.0018328193814333919
405036500.0 -0.009589020408210167 -0.009033894408340537
420036000.0 0.0014101475626684542 -0.0006764349307939155
435035500.0 0.004513876247528828 0.004169429361431426
450035000.0 -0.02400508379558874 -0.002609190557682107
465034500.0 -0.000417314361029605 -0.0006745591801211942
480034000.0 0.0011355978542917364 0.004159751707641447
495033500.0 6.731074801042283e-05 -0.00030961014387319665
510033000.0 -0.004815483465767753 0.008697670716275087
525032500.0 -0.002880463528712921 -0.017632226049307934
540032000.0 -0.0008662620276601547 0.0015577096362230077
555031500.0 -0.001504983038244152 0.000498184022472833
570031000.0 0.0061635946730661155 0.034896531182624486
585030500.0 -0.006254196638122715 -0.005616272943747297
600030000.0 -0.0021489844449382716 -0.0021337380147393114
615029500.0 -0.0038566356661359604 0.003319127547763095
630029000.0 -0.002227752806341079 0.0017130652499726927
645028500.0 -0.016908161246460825 -0.02092695069758693
660028000.0 0.0027493756179517615 -0.0005130388161962468
675027500.0 -0.009386960488545181 -0.004599486658111672
690027000.0 0.0003362577213006626 -0.007196196011123252
705026500.0 0.0006263369502951027 0.002466198632299952
720026000.0 -0.01714763387772628 0.004167531469222261
735025500.0 0.00012258313424503005 0.004306064162652942
750025000.0 0.031848220498660935 0.0179763435803521
765024500.0 -0.0077916916253066865 0.00030139572899553493
780024000.0 -0.02031240243916061 -0.14824396406391083
795023500.0 -0.003945528571720306 0.0059013106471473105
810023000.0 -0.009274173041833087 0.0017193832678949392
825022500.0 0.01119776020469977 -0.0022407746759201376
840022000.0 0.015094427959827156 0.013273950540476186
855021500.0 -0.005247562660809035 0.010932552184498288
870021000.0 -0.00039239246548509365 -0.005893581849738104
885020500.0 0.022126544865303657 0.01574677627546223
900020000.0 -0.00434014590944512 -0.003082557654861042
915019500.0 -0.1249121377758071 0.02780932104010879
930019000.0 -0.04453963479408454 0.06761381724097569
945018500.0 -0.007392495214387822 0.018662836907254243
960018000.0 -0.003498283130646295 -0.0033125586211383553
975017500.0 -0.004992377756118189 0.002788895034400424
990017000.0 -0.005381382241759465 -0.02789560887714
1005016500.0 -0.0024235192360340585 -0.0024169508086215904
1020016000.0 0.014392172277774161 -0.006747569890571073
1035015500.0 0.00015706271336512348 0.0046192861662846885
1050015000.0 -0.034174354380454165 0.028584350752635757
1065014500.0 0.03551937435661363 -0.01155985728502996
1080014000.0 -0.0003255797932948831 -0.0010584369500769885
1095013500.0 -1.6623638976792606e-05 0.010054830974751223
1110013000.0 0.04525083366872583 -0.05503667210423753
1125012500.0 -0.006128885879970384 -0.04200083389376792
1140012000.0 0.0016339291894409828 -0.0013943394270254316
1155011500.0 -0.3166936081232055 -0.8954239211558772
1170011000.0 0.0028279029817294145 -0.03400595745853454
1185010500.0 -0.009673133414440817 -0.015103147021705699
1200010000.0 -0.0495719610418646 0.01654941420196129
1215009500.0 0.027824568542671974 0.03310584166568195
1230009000.0 0.027699100752744076 -0.01586766631575868
1245008500.0 0.005115241418100183 -0.04514343177584125
1260008000.0 -0.04864480867087067 -0.024918457673974603
1275007500.0 -0.0027018081967337417 0.040830471150913
1290007000.0 -0.004145582494201791 0.007487878279440991
1305006500.0 0.03205139813019725 -0.07812067834475608
1320006000.0 -0.018471258638164338 0.016266915077292367
1335005500.0 -0.007342953383757761 -0.2797813780183538
1350005000.0 0.014114344077540291 -0.010989472016072322
1365004500.0 -0.007753992428739658 -0.08222616777508168
1380004000.0 -0.017382891365000902 0.05997058353742247
1395003500.0 -0.0038947158522605477 0.04603726688731347
1410003000.0 -0.03443389612987854 0.015055038667624714
1425002500.0 -0.007144082167040803 -0.01881758345964726
1440002000.0 0.03257472856421658 -0.05103806522176958
1455001500.0 0.7452290105957049 -0.005893537363633422
1470001000.0 -0.021134084257416634 -0.005062447959275056
1485000500.0 -0.03828291962902129 0.01827456000410377
1500000000.0 0.04346458690215229 0.016045480362282406
