! Created with skrf 1.8.0 (http://scikit-rf.org).
# Hz S RI R 50.0 
!freq ReS11 ImS11
50000.0 1.1867134406477176 0.22200766321699372
15049500.0 0.2930354440977536 0.5062168121384116
30049000.0 1.6579408657694426 -1.2227434278580975
45048500.0 -0.32735249429984065 2.332615354359401
60048000.0 -0.4466909762096287 0.7780130295986888
75047500.0 3.2261295118133937 0.14436034418248556
90047000.0 0.21799982952297003 0.8309468497861758
105046500.0 2.3775752310294274 -0.4738723051313661
120046000.0 -0.1061142129620112 -5.66666166459251
135045500.0 -0.23891509813562212 2.3935590617544737
150045000.0 -0.7381464746896712 2.5761756115557923
165044500.0 -0.6399851177917041 -0.7004086263579332
180044000.0 2.12251669265156 1.0682335592425884
195043500.0 0.09863838586134124 0.3557472318325462
210043000.0 -0.8303201086071306 -2.1042716263910184
225042500.0 -2.875473802916342 -1.0242930397904642
240042000.0 0.6620555146983027 -4.3966532541877905
255041500.0 -0.25368121702190216 -1.818322923024893
270041000.0 -0.6062407821536017 -0.4654188298606396
285040500.0 0.6657813781547264 0.659178275439807
300040000.0 -0.9503010817972231 0.9024226059426803
315039500.0 -2.31853787507072 0.017627362603063006
330039000.0 0.2152697944325582 0.5340971836823948
345038500.0 -1.4529105695919988 -0.6292669805042601
360038000.0 0.31837684501101027 0.06578672278445268
375037500.0 0.24915434722096674 -1.7436636037160562
390037000.0 0.7020828089778516 -1.4446490245785024
405036500.0 -1.2852917094987921 0.16363906916233362
420036000.0 -3.6828747302159743 1.562541840042564
435035500.0 -5.305304004266163 3.365282021905312
450035000.0 2.548843160274441 0.6353546523159646
465034500.0 -9.578248665426024 -2.391034436105632
480034000.0 0.5235222084775099 -5.23589832543527
495033500.0 -0.35447381496010383 -1.4023375262505096
510033000.0 -0.7377867268827786 -0.4358401780535187
525032500.0 -0.1967875257713717 0.7419333283681713
540032000.0 -0.38291535593630677 1.409790644170437
555031500.0 -0.5189041224180128 0.4009185116298107
570031000.0 -0.3144079377848553 -0.539517653597268
585030500.0 -1.5952543536003083 -2.1955762352839883
600030000.0 -0.4986567112834562 3.6518726744241046
615029500.0 -2.348077016560931 -0.3026521722046188
630029000.0 -1.3512545962129219 0.6275395929198907
645028500.0 0.7900901002924754 7.966576376490097
660028000.0 0.39144901216794814 -1.3811684446939412
675027500.0 -0.9047901861378551 0.4265066479091346
690027000.0 1.1522683219302232 -4.641914465367065
705026500.0 3.3551356824943235 -1.7796109519068641
720026000.0 0.21524126242208574 -0.817343350758637
735025500.0 0.18326891439278584 1.2944224020827684
750025000.0 -5.084682579161278 1.5227788892751726
765024500.0 2.259373059242218 -1.6523931685240183
780024000.0 1.4168751685562098 0.6409815466798164
795023500.0 -1.5666580275470803 -1.747174138343434
810023000.0 -0.00014867977019011126 -0.21722628901694202
825022500.0 0.010666330673089176 1.4984106451651518
840022000.0 -2.8523266066110433 2.5709031004796405
855021500.0 0.6408337807709175 0.003919917481322882
870021000.0 1.3560421194694838 0.6539890987692962
885020500.0 1.6713050667552678 2.5560200166633575
900020000.0 1.4276394225490454 0.7834387867631178
915019500.0 -0.3910638948379592 -3.0277688794418554
930019000.0 -0.044119606537336604 -1.3414943023661887
945018500.0 -2.250707612185309 2.093426513514116
960018000.0 -3.2987283451805274 0.6149645710217099
975017500.0 0.0724292466969848 -1.8524502185039677
990017000.0 -1.489822019130107 0.538504147435352
1005016500.0 -1.1896825426071238 0.7198546766008859
1020016000.0 4.469604918179123 0.4678073053884496
1035015500.0 0.24585906148374534 2.0243318962767725
1050015000.0 0.591508062848789 -1.4562294791438626
1065014500.0 0.26926835630980883 -0.9670173398729425
1080014000.0 -0.26764422486367995 -0.24485663964441015
1095013500.0 -0.9769370940861969 0.3994401125368559
1110013000.0 -0.3305915641386751 1.025506254210173
1125012500.0 3.7796867088800568 -4.163585913834394
1140012000.0 -0.0663978863947176 -2.1485542371941557
1155011500.0 2.116548147050952 2.763247209178416
1170011000.0 0.45433107918337734 -0.9706853051774252
1185010500.0 -0.4657232642543746 1.0148562721956753
1200010000.0 0.4038218535465566 -0.46162562137042523
1215009500.0 0.5377675377355876 -0.3548787365983188
1230009000.0 -0.19809349787342223 -1.039487113711408
1245008500.0 -0.07340637600808803 -0.8191896718167602
1260008000.0 -2.3580085755813904 -1.487264764994207
1275007500.0 -2.412250156917995 -7.247380764416385
1290007000.0 1.0206490946402627 3.163201118071092
1305006500.0 3.6209115527470077 -0.20162945922042164
1320006000.0 -0.17960003530199212 0.1458685312551421
1335005500.0 3.3378148339418687 -2.926149498830642
1350005000.0 1.1928822940834642 1.8983871581972045
1365004500.0 0.7812610168943277 0.5889244139685484
1380004000.0 1.4042477391207058 0.18998541146478926
1395003500.0 -0.35685057027962896 -0.543583701699152
1410003000.0 0.11596076657184216 0.759999876680822
1425002500.0 1.6097250638303762 1.7073340893544182
1440002000.0 0.7439990962712205 -0.31500998774345895
1455001500.0 0.6685844599006853 2.7157557210645615
1470001000.0 -0.4959470027316669 -0.3144536083821916
1485000500.0 0.7410141189723269 -0.15369819829854084
1500000000.0 2.3812775075056343 1.316892921543639
