! Created with skrf 1.8.0 (http://scikit-rf.org).
# Hz S RI R 50.0 
!freq ReS11 ImS11
50000.0 0.9220548983683965 -1.8514806736258311
15049500.0 -2.8671101495830578 2.3137150687758767
30049000.0 -1.8082548909358682 0.5122647640897428
45048500.0 0.6122700749604102 -0.016636920589111936
60048000.0 -1.4347343768576784 1.1442491407646325
75047500.0 -1.885658728756048 0.6500770221470284
90047000.0 -0.4337841567049202 0.7059363806689702
105046500.0 1.2023066373908078 -0.2968354105420856
120046000.0 1.1861805128177607 0.5858471782099289
135045500.0 -1.3861322449746152 -4.866175121690044
150045000.0 2.1549960964917654 8.307460458645924
165044500.0 1.4915845215577965 1.9582314782326027
180044000.0 -1.600562222656981 -1.16305240894235
195043500.0 -1.622918426761568 0.8317712574684433
210043000.0 1.2537266955814947 -1.3435022060402124
225042500.0 3.5702464217029273 8.602049749868458
240042000.0 -1.6000855949324824 -0.8675510476970153
255041500.0 -0.9395729044548183 -0.8145489553809975
270041000.0 3.34346713973898 1.3755288035090691
285040500.0 -1.4842137141578229 0.6161220613697796
300040000.0 -2.240824835795235 -0.12549777891061947
315039500.0 1.0517527696483435 -0.33397100162474447
330039000.0 -0.8088392391528637 1.6251678229191109
345038500.0 1.6388833370407918 -0.8596159631380251
360038000.0 -0.8908330490280915 1.6062548403922892
375037500.0 -0.13178969812345423 0.046641667846087
390037000.0 0.4668852012220759 1.965885106534289
405036500.0 4.421782823150208 0.9962804441642583
420036000.0 0.7077669370476807 -1.460767702884915
435035500.0 2.2971459107061865 0.2631049996885455
450035000.0 -0.8926266719253199 -2.181860442903462
465034500.0 0.44289214861853515 0.9861421326505261
480034000.0 -0.7211134545653014 0.5098303962123977
495033500.0 0.8513964885833335 0.13038000219854415
510033000.0 -1.3520731983440153 1.5060892130543795
525032500.0 0.47121937747822845 -0.7472328249515219
540032000.0 -0.4780127782646694 -1.9756330577837578
555031500.0 1.3567806923912586 -0.7738280546240959
570031000.0 -0.9849310412583975 -0.3650219595222538
585030500.0 -0.1283226985856439 -0.4466853081268716
600030000.0 -1.2232815467665508 -0.4045124456414297
615029500.0 -1.4425631362619096 -0.35940183789160723
630029000.0 0.018866606564599975 0.6085589357774663
645028500.0 -1.281587880349795 -1.6342802520355495
660028000.0 0.12177895173961267 1.244266871418875
675027500.0 -0.7934548625402894 -5.804470207461543
690027000.0 0.26031976436596616 0.011932075534647995
705026500.0 -5.584271284319133 1.4417714762342422
720026000.0 -0.21489046430357361 2.428988604490075
735025500.0 0.5008729550665135 -1.393463866806936
750025000.0 1.3869597394563127 -0.32649868499911155
765024500.0 -1.541930261312337 0.31307420267530545
780024000.0 0.897179979235453 -0.2800457880173772
795023500.0 3.8998035484013673 -2.5696043813261045
810023000.0 0.19529310428130123 1.8848990150402498
825022500.0 0.9763883046807396 0.18344996922609613
840022000.0 0.21490324031469935 -1.2750047342600304
855021500.0 2.455196608770731 -0.6762154952710083
870021000.0 -0.9611960618798469 0.6765609566703552
885020500.0 -0.46171086996636435 -0.41060193558438596
900020000.0 0.1241574874909494 1.6371263045386912
915019500.0 -0.09759028444175019 0.8089916364055064
930019000.0 0.36094725181973375 -0.21446279425674766
945018500.0 -0.30680822677844083 0.3374187671306165
960018000.0 -0.6697968304948565 2.329992879087626
975017500.0 2.9850964477490587 0.9067720374864167
990017000.0 -0.5175548984128534 1.9145052348509026
1005016500.0 4.662964430513017 -4.087848823261454
1020016000.0 -1.1679273911709869 -0.683256861153198
1035015500.0 -0.6841096264807017 2.0877960354440868
1050015000.0 -0.8591964935659644 -0.42985008375400263
1065014500.0 -1.6068480861203533 -3.9433238398954464
1080014000.0 0.2367674666643817 1.1913509589650642
1095013500.0 -3.3635166725451406 0.7621347030481344
1110013000.0 -0.24705048068587915 2.078158287531168
1125012500.0 -1.265410294318708 0.9975614144490248
1140012000.0 -2.7998379376632614 -0.7457471752951647
1155011500.0 -0.38692522913575106 0.6052174853839261
1170011000.0 7.801777046248784 -7.023859832061919
1185010500.0 -1.0675067328103287 3.611497810844041
1200010000.0 -2.198295929242982 -0.8098486714157893
1215009500.0 -1.0546578265825053 0.7305191855624996
1230009000.0 -1.0541456510607192 1.7904617525458395
1245008500.0 3.270474821982189 1.5574479612903172
1260008000.0 1.135084738981296 0.23006951642055185
1275007500.0 0.6910235160581886 -0.03966769728739615
1290007000.0 -6.49116580451189 -1.0265639119261005
1305006500.0 -1.0374344023324336 1.4089724642840222
1320006000.0 0.14016307158616292 1.0443518719791045
1335005500.0 -1.1337243812910687 1.5686042690871294
1350005000.0 1.0694164955939596 0.4325988381740638
1365004500.0 -2.2715064076325273 1.2225703871824316
1380004000.0 0.5237399684647653 2.0988469198805473
1395003500.0 -1.8718366715221502 -0.20978789688012114
1410003000.0 0.9967638525802295 -0.10128412392407804
1425002500.0 0.5422249024675764 0.22000009154772396
1440002000.0 -1.6403015000994559 -0.7386939438807683
1455001500.0 -3.9924495821805395 -1.9435712269967336
1470001000.0 -1.0248353675530641 0.25517017104637985
1485000500.0 1.5911683176548703 -3.096843402334061
1500000000.0 -1.099786722599351 -1.1164872020608854
