! Created with skrf 1.8.0 (http://scikit-rf.org).
# Hz S RI R 50.0 
!freq ReS11 ImS11
50000.0 -12.057008026923327 -10.963007379520242
15049500.0 -1.076053760833527 1.2997102252479935
30049000.0 -2.5201634847180827 4.499176986429173
45048500.0 -2.40450503221235 -0.5021532888110566
60048000.0 -0.9014961985198658 -1.9175990109639454
75047500.0 -2.04382676060032 -0.6853114498298963
90047000.0 0.9050728708508448 1.3640556019065353
105046500.0 0.13423609022863217 -0.009257685153628984
120046000.0 -0.009660668489086163 0.9470719811778421
135045500.0 -0.08876341589212026 -0.6979151384758524
150045000.0 1.7676350768376428 -0.5745521906508524
165044500.0 1.9128810158080503 0.062058237804093225
180044000.0 1.54259899299615 -1.9367736645805218
195043500.0 0.10589398092149617 0.045900917546787025
210043000.0 -2.255857206193081 -2.9381899022386184
225042500.0 0.6153080355530564 -0.8611128383241201
240042000.0 0.42609028810680016 -0.25403606795372774
255041500.0 -0.7965794510205421 -0.16569539420254434
270041000.0 -1.310809806670534 1.1870218399252301
285040500.0 -0.04265139663659682 1.2942384726571967
300040000.0 1.129078664121675 -2.6876926288775915
315039500.0 1.1938200229446025 -0.5544240447328163
330039000.0 -0.14274064750900722 1.0614375689568087
345038500.0 0.597636935725277 0.14545787182020473
360038000.0 1.4986254959082144 -1.10189725380837
375037500.0 -0.10476143658446826 0.2653802193645273
390037000.0 1.075761969715263 0.8360605241943494
405036500.0 2.283848134817362 2.404452984972163
420036000.0 -0.40141068289446985 0.2836051925633852
435035500.0 2.806123736258223 1.539849343440184
450035000.0 2.9638747228935522 -2.7872768847525533
465034500.0 0.6807115904248492 -0.2680605365641054
480034000.0 0.09769489271883759 -0.876021146109716
495033500.0 0.8620532131662269 -0.14234958706018377
510033000.0 1.920656025952885 3.5490565692668197
525032500.0 6.431794830016453 -2.972966662410587
540032000.0 -0.29205466601086827 1.303538402350569
555031500.0 -0.14918280954492327 -1.088973909847848
570031000.0 4.29575645148212 -4.363331194078612
585030500.0 -0.4834505436434858 2.0400574049270688
600030000.0 -0.30849540477783577 0.012334743112565917
615029500.0 0.663310454502679 1.0330281390902585
630029000.0 -0.7388225792068482 0.41849453828140104
645028500.0 -2.980216554756423 -5.201938503080029
660028000.0 0.8066409106359136 0.5690768954830917
675027500.0 -0.18391428346154062 -1.1084127073455643
690027000.0 -2.5041042532373425 -1.4240166597881976
705026500.0 1.3184182329191265 0.10015157483731911
720026000.0 -0.7890154159922523 2.305349759143581
735025500.0 -0.6938161229342116 -0.8565913975579679
750025000.0 4.915635210016105 2.3015576396949906
765024500.0 -0.09392226664872741 1.8474001308673942
780024000.0 -1.8997436886179733 3.679884085594075
795023500.0 0.9045151992977667 1.571303083794586
810023000.0 -0.1796382114122162 -0.6398875860302505
825022500.0 1.6809624238104217 1.6392921063106705
840022000.0 -0.7062880417690791 2.671535574425916
855021500.0 1.155525996331291 2.5127483273290565
870021000.0 -0.626324082601699 -1.7281341774500258
885020500.0 -2.1472999132214072 -3.026843683389042
900020000.0 -0.6558138162330667 -0.9960418431558623
915019500.0 12.262785002984671 -0.2276995305118072
930019000.0 10.575064447297096 -0.9004630549446017
945018500.0 -2.225322566142174 1.409812153649331
960018000.0 0.1392172365932396 0.3675137406464076
975017500.0 -1.3172191575042878 0.16280680432924513
990017000.0 1.7567229857293467 1.9037892382235466
1005016500.0 2.9623432310855344 -0.10529587273755592
1020016000.0 1.4522646836108597 1.0944641929517458
1035015500.0 1.5184001676265213 0.5154192489434197
1050015000.0 1.6500560022659294 -0.6740771943649746
1065014500.0 -3.8452592323357377 -0.03499294490975054
1080014000.0 -0.7720003119730532 -0.019769447799957353
1095013500.0 1.0771514673041784 -0.7754500513909864
1110013000.0 -2.8537725611367373 -2.4438136615882966
1125012500.0 0.24848804820587309 2.047655761150716
1140012000.0 -0.8992640139514584 -0.2831353737591023
1155011500.0 4.307491215387684 11.127752884693423
1170011000.0 1.6003761533468668 0.3638454042310988
1185010500.0 -0.720422518868896 -0.5595560116063837
1200010000.0 3.3268002290166363 -1.7085352593810237
1215009500.0 0.6892892037579121 0.912898898981784
1230009000.0 0.038545286249077174 0.7138301449827965
1245008500.0 1.9763755804725591 0.4766045422321366
1260008000.0 -2.154375336681772 0.2883676660579088
1275007500.0 -1.2707750673282783 2.3211738972890843
1290007000.0 0.39493813095986285 -0.5190999909758673
1305006500.0 1.6975418257554409 4.895186019053162
1320006000.0 0.5041197387809138 1.0235065275216189
1335005500.0 12.949138374298201 -2.85573658310154
1350005000.0 0.3181052934651455 -0.3685406596471963
1365004500.0 -1.6450311091059067 1.252777013116343
1380004000.0 -2.293559083808952 1.4713357108173195
1395003500.0 -1.6823811142459324 -1.9470174721134197
1410003000.0 2.8046113853197343 0.2067995255527992
1425002500.0 0.06690475792851246 -0.44345772386094334
1440002000.0 1.3898677540543225 -1.4899610018024823
1455001500.0 -2.8277619094022803 9.111705894523656
1470001000.0 0.8437968140984178 0.3656297495537036
1485000500.0 -1.1881761639515425 -1.519651465093996
1500000000.0 -3.2664837405813123 0.680220442752597
