! Created with skrf 1.8.0 (http://scikit-rf.org).
# Hz S RI R 50.0 
!freq ReS11 ImS11
50000.0 -2.9428289583507907 0.3303962411194835
15049500.0 -1.0553173633468222 0.13027694078030072
30049000.0 -1.1162129955087974 0.026965354455618144
45048500.0 -1.050928416532836 -0.08823656315504709
60048000.0 -0.25793519038223756 0.4466085723567494
75047500.0 -8.598551762062005 -11.074859713938373
90047000.0 0.19935045662343356 0.9962130782360836
105046500.0 -0.3179970584653057 -1.0976158782044616
120046000.0 -2.0211007283586993 1.172214092252695
135045500.0 -0.2856406737128497 -0.9482167016329428
150045000.0 -1.831050409598361 3.0889705887956502
165044500.0 0.8869437824721031 -0.4411834599464881
180044000.0 -0.5002158125594147 -0.35871867549015457
195043500.0 -1.8966722669302492 1.800210000967435
210043000.0 13.204690669813798 -0.5132071689402988
225042500.0 -0.11071941698681893 1.3960459442238995
240042000.0 2.7741448166959137 -3.0778193851020634
255041500.0 -1.3077861671487236 -0.8784841196618565
270041000.0 0.7364328634330493 1.9537926362261129
285040500.0 1.2973201619117678 -0.2907479917551642
300040000.0 -1.3580050485452873 -0.30880729271044505
315039500.0 0.3259788556702512 1.5745194043083395
330039000.0 -2.779622434107391 -1.3277304393083653
345038500.0 1.1145916006359853 -0.3798588041656555
360038000.0 1.4812991403069755 -1.5570461428766287
375037500.0 -1.6430910627297202 6.121147800580862
390037000.0 0.03873085867004169 -1.4043041283377626
405036500.0 1.1811291657101997 -1.167908320160326
420036000.0 0.580615825027787 0.4201943287815389
435035500.0 -7.701849046134292 1.6108506100932531
450035000.0 0.7490287685530156 1.01333975680177
465034500.0 0.6775999535406151 2.2171860033025768
480034000.0 -0.7080056475412724 -0.2096166270797412
495033500.0 -0.05770128158956854 -2.496377355930747
510033000.0 -1.4474986972865966 1.4565360453000604
525032500.0 0.6098697418427377 0.9587261401591625
540032000.0 0.7279945990297471 -0.04748346136478685
555031500.0 1.0869380688542962 -1.0334029785943246
570031000.0 -0.6194988787542353 0.2821838464544476
585030500.0 0.2652815456237746 0.4287287051163566
600030000.0 -1.7782588821876415 0.7165431115642134
615029500.0 -3.1356222423839557 1.6575604807490556
630029000.0 0.8253904083209871 -0.4010756639036339
645028500.0 -7.118353078478891 5.550612039481852
660028000.0 -0.41983749812866306 -0.9918208981466302
675027500.0 -2.055334685259498 -0.8174773385496279
690027000.0 -2.9414908127180195 2.197764925825372
705026500.0 2.300603359718938 3.6068889579950203
720026000.0 3.276701742192835 1.0693640948481309
735025500.0 1.6127034574421857 -0.8126201725292621
750025000.0 -0.3885992937399431 -1.134279585138756
765024500.0 0.30197662828407407 -0.6356825588832267
780024000.0 -14.13818174756996 5.936246742147952
795023500.0 0.07197134959020882 -0.18707076762581443
810023000.0 2.6571958314988384 1.0737483036769926
825022500.0 -1.7148277091772712 0.16305623439463526
840022000.0 0.34919672665398893 -0.6748608696771606
855021500.0 -0.507983964003233 -0.0839177892451391
870021000.0 -0.17236998185347835 2.167042378732306
885020500.0 0.3668816199233997 -0.10156764074346401
900020000.0 -0.2525933093592526 -0.4500899230402501
915019500.0 1.0504024215105445 -0.9669502115491094
930019000.0 -1.840524017112425 0.11737338104973163
945018500.0 1.4605730489297315 -0.04051909283946668
960018000.0 -0.32308731851622335 -1.282067689217962
975017500.0 1.542424570314825 -0.8513256209519552
990017000.0 0.5914655817558545 0.3343614109637071
1005016500.0 -1.3698648155856405 1.0769423703339047
1020016000.0 0.4395235026634007 -0.6815756701866982
1035015500.0 -1.4766206960564532 -0.19850135639368047
1050015000.0 -0.5339759095118686 -0.49924143188969494
1065014500.0 0.41958319744821604 -2.1577960186065277
1080014000.0 6.851957536063343 -6.288383502728574
1095013500.0 0.4945991647547012 -0.8071549183345702
1110013000.0 -1.0793313095904276 1.0175510333644915
1125012500.0 -0.7091177452995482 -0.23141470175729312
1140012000.0 -1.0683623874164543 -0.45798434821018613
1155011500.0 -1.683948463583431 -2.513465886099368
1170011000.0 3.9657866760323306 -6.3046888475732255
1185010500.0 0.8033874902429169 -0.002479367547631817
1200010000.0 -0.008898627560985342 -1.292881157783425
1215009500.0 -1.320066089673877 -1.045407530664686
1230009000.0 -2.8657698344612177 -1.852659059472292
1245008500.0 0.3838739647492582 0.4037312917268104
1260008000.0 -0.18245898442514108 -1.6991760866298098
1275007500.0 -0.26906595113446174 0.3577469753696677
1290007000.0 -2.0417643658966864 0.6541064286881788
1305006500.0 -0.9467771576869367 -0.0171722330676792
1320006000.0 0.7702146398794151 -1.6508421033648468
1335005500.0 0.5930897624772956 -0.9174746659438822
1350005000.0 -0.7200028703263962 4.320804748569597
1365004500.0 3.3413742200013155 -1.1586258912207115
1380004000.0 4.857421553144118 0.213552256484456
1395003500.0 -1.7114405603738196 0.2340176285046212
1410003000.0 -1.3602016719493448 -1.252889330943492
1425002500.0 0.2966885159710767 3.418127881634658
1440002000.0 -0.7860789181263662 -0.21595955222316743
1455001500.0 0.6565719923977924 3.1891789071540337
1470001000.0 -5.033650615210404 -0.9698844141062418
1485000500.0 4.489782026635235 5.943120556355562
1500000000.0 3.0663355527628746 -3.226883178867595
