! Created with skrf 1.8.0 (http://scikit-rf.org).
# Hz S RI R 50.0 
!freq ReS11 ImS11
50000.0 0.13899921062448425 0.46090896363155126
15049500.0 -2.593045653062175 -3.9056301152012045
30049000.0 -1.6799024261408233 -1.392286157141102
45048500.0 3.3064918992297847 1.8670892191360065
60048000.0 0.5421621124515477 0.25897485939240306
75047500.0 1.4412199922812245 0.8396259248189889
90047000.0 0.7833717678331578 -0.5054033280951868
105046500.0 -3.217017166465704 6.892061560217367
120046000.0 0.8243695493100821 0.048048525332212474
135045500.0 2.923155347920273 -1.3109362050307423
150045000.0 -2.633620590709902 1.842164001111561
165044500.0 9.450324163870578 -0.5879251017230939
180044000.0 0.07199782703614668 -0.29065178356847726
195043500.0 -0.4975510943575467 0.7668575621034683
210043000.0 1.3048000084959774 1.2087211937194418
225042500.0 -2.016177783451527 0.2514166240440766
240042000.0 -0.23496147657802846 0.6109176345931916
255041500.0 1.3061332353059094 1.625741388678374
270041000.0 -0.9719918171684642 -1.5867484208797378
285040500.0 0.8079211497645269 1.163332421155035
300040000.0 -15.717139195952738 3.945773848684141
315039500.0 -4.7008361287996845 -0.9813194889815988
330039000.0 0.32032094494541064 0.7594116868572396
345038500.0 -1.2316393546376887 -3.9016842417870317
360038000.0 -0.9019275370163975 -0.6218047675389001
375037500.0 1.6544067417843036 0.27478858253751837
390037000.0 -1.5030015044762883 -3.07228272538935
405036500.0 3.971454355243009 -7.493802188131111
420036000.0 0.11416530629421374 0.7712581936060295
435035500.0 -3.9912809597784458 0.8146738339401524
450035000.0 -1.3309649845980733 -1.4117830678930878
465034500.0 -3.3445812956243244 -9.318987814181508
480034000.0 -0.04738538251019114 -0.9455284188370625
495033500.0 1.909732774624127 -2.9420064320486765
510033000.0 -1.9003867887771888 -0.31867996711634744
525032500.0 -2.480954217151908 -1.4098693283873291
540032000.0 3.5831947872530705 -0.30108428621863526
555031500.0 -1.552509082824565 -1.9043478964870386
570031000.0 0.4481307999212644 1.9364565886821996
585030500.0 0.9901200968558125 -0.022453359605128186
600030000.0 0.4663633357779269 -0.7058387024064738
615029500.0 -0.3015876597433324 -0.24404971207867404
630029000.0 -3.1978855044603938 -0.2847190509784149
645028500.0 -1.63647464559424 0.1606988720684878
660028000.0 3.256231890753549 -1.1925111702813393
675027500.0 3.228525697027596 -0.7016945063344749
690027000.0 -4.335160771331433 1.8292492152324433
705026500.0 2.6811683983332553 3.2641284174122234
720026000.0 4.347461661962064 7.108081433718105
735025500.0 3.9428978635896144 4.845081657862806
750025000.0 -0.16948897506147023 0.7051447968817668
765024500.0 -0.12786330919071334 -0.759621398520796
780024000.0 1.2360745386207947 0.9031459435947814
795023500.0 -0.11548320026628404 0.06431415937593009
810023000.0 -0.739115161119697 0.376894977206891
825022500.0 -0.9267031476553759 -0.5092455355282738
840022000.0 0.23800387932245795 -1.7297660692510626
855021500.0 2.164180597681592 -1.13872884549619
870021000.0 -0.0935967704475012 0.4614284931553516
885020500.0 -0.9190513969409196 0.6435748587180252
900020000.0 -0.14855297229603384 1.0210411040466096
915019500.0 2.2760434068430655 -3.970614597909202
930019000.0 1.2641437016014583 0.9551624335369522
945018500.0 0.6754168620475473 1.8558816389634734
960018000.0 0.8158869913932022 0.31734576847893564
975017500.0 -9.50199278755307 -5.310013748578708
990017000.0 -0.30640617117691327 0.3717410891235843
1005016500.0 -0.14426893990878037 -1.144481892617884
1020016000.0 1.1459679657687742 -0.09471079541323452
1035015500.0 0.20687058765464061 0.34739837401916523
1050015000.0 -7.080553236278423 -2.8389829208892188
1065014500.0 -1.282806793715814 -1.2894128616813796
1080014000.0 -0.5075067005488979 -8.368185953480006
1095013500.0 0.36225282914771895 -0.6039828394316732
1110013000.0 0.43191259992679154 -0.9684462559527909
1125012500.0 -1.7499702501482346 -0.6236728914431998
1140012000.0 0.3830693745423404 -0.5476096263379113
1155011500.0 1.553806251485826 0.1489768644224636
1170011000.0 0.6291157857283253 2.391512729691275
1185010500.0 0.9695532702189263 -0.4885354889067627
1200010000.0 -2.56588051218599 -3.154381547185417
1215009500.0 -1.253623196539415 -1.2821380361014612
1230009000.0 -1.703990584658561 3.7730382509910485
1245008500.0 -1.633525044183398 -0.20214605582141548
1260008000.0 -0.6315761832162528 -1.6503129594452695
1275007500.0 0.39695588983489705 -0.5076184991135999
1290007000.0 0.12366389837435882 -1.9114741123448222
1305006500.0 -1.0633371787382064 -1.7112653338614958
1320006000.0 0.4561439594459882 0.8373785917009606
1335005500.0 -1.8165825651379905 -0.165299525946117
1350005000.0 -0.26722919822021945 -0.8405589647098541
1365004500.0 0.5161819320084774 0.5657742418118297
1380004000.0 0.4797198489980862 -0.8740109067700523
1395003500.0 1.9782876305004449 0.0906736056429302
1410003000.0 1.3824993350477253 -0.32772608306822076
1425002500.0 0.4779788548685115 4.065853701097852
1440002000.0 -0.4806576756973996 0.6206129678601452
1455001500.0 1.0921606960947137 3.4760673688211625
1470001000.0 -0.9035103463065919 1.65684238028608
1485000500.0 1.776960760571616 1.1627023148134406
1500000000.0 -0.461087288557029 -10.110066217334754
