! Created with skrf 1.8.0 (http://scikit-rf.org).
# Hz S RI R 50.0 
!freq ReS11 ImS11
50000.0 0.007175935 -0.004390429
15049500.0 0.019205528 0.004445288
30049000.0 0.01829403 0.006773462
45048500.0 0.015900512 0.00904877
60048000.0 0.012694656 0.011354314
75047500.0 0.009030942 0.014055042
90047000.0 0.005838434 0.015793878
105046500.0 0.003576849 0.017381438
120046000.0 0.002736704 0.017824066
135045500.0 0.00363929 0.01657878
150045000.0 0.005763309 0.013675734
165044500.0 0.009148888 0.008600394
180044000.0 0.01337903 0.001397023
195043500.0 0.017961354 -0.007871269
210043000.0 0.022363876 -0.018612086
225042500.0 0.025772526 -0.03022957
240042000.0 0.028170566 -0.041651432
255041500.0 0.028990454 -0.052276864
270041000.0 0.027991846 -0.061232136
285040500.0 0.025419952 -0.067695232
300040000.0 0.0214956 -0.070817168
315039500.0 0.016350632 -0.070981488
330039000.0 0.010245484 -0.06758016
345038500.0 0.003283925 -0.059611028
360038000.0 -0.004486981 -0.048339372
375037500.0 -0.010531552 -0.034395716
390037000.0 -0.017361946 -0.019493144
405036500.0 -0.019525624 -0.002397378
420036000.0 -0.020464936 0.014919888
435035500.0 -0.020772664 0.030694996
450035000.0 -0.020009168 0.044303416
465034500.0 -0.015844386 0.054863628
480034000.0 -0.013205634 0.061821552
495033500.0 -0.008576064 0.065212152
510033000.0 -0.003557264 0.062443776
525032500.0 0.000118364 0.054849488
540032000.0 0.004128853 0.04218514
555031500.0 0.005703948 0.026507594
570031000.0 0.00698273 0.007865239
585030500.0 0.005436752 -0.01512499
600030000.0 0.000176113 -0.03703986
615029500.0 -0.005338466 -0.059865684
630029000.0 -0.012441228 -0.08400952
645028500.0 -0.021872284 -0.103876992
660028000.0 -0.032186418 -0.120089448
675027500.0 -0.043885308 -0.131831584
690027000.0 -0.055808368 -0.138944624
705026500.0 -0.06734452 -0.13912504
720026000.0 -0.07649508 -0.136367024
735025500.0 -0.087038824 -0.125685392
750025000.0 -0.092249464 -0.108604816
765024500.0 -0.098695832 -0.090226872
780024000.0 -0.10352772 -0.070773128
795023500.0 -0.10178468 -0.043434664
810023000.0 -0.097691536 -0.01824284
825022500.0 -0.092866792 0.00616674
840022000.0 -0.085970648 0.028109672
855021500.0 -0.077203808 0.048398492
870021000.0 -0.06862624 0.062859236
885020500.0 -0.060451064 0.071940392
900020000.0 -0.046893936 0.068894568
915019500.0 -0.038671648 0.068216752
930019000.0 -0.0350164 0.068787632
945018500.0 -0.0348728 0.049172124
960018000.0 -0.03946018 0.032082428
975017500.0 -0.041241172 0.011223348
990017000.0 -0.047004992 -0.011434028
1005016500.0 -0.061321684 -0.023606924
1020016000.0 -0.070510504 -0.053606872
1035015500.0 -0.098095096 -0.069679008
1050015000.0 -0.11614072 -0.08750956
1065014500.0 -0.13172792 -0.111836528
1080014000.0 -0.153267792 -0.110617664
1095013500.0 -0.164051632 -0.119574376
1110013000.0 -0.183529024 -0.11605328
1125012500.0 -0.20057928 -0.106179472
1140012000.0 -0.216561744 -0.094008176
1155011500.0 -0.230344768 -0.087259696
1170011000.0 -0.222804128 -0.0591996
1185010500.0 -0.22215488 -0.051778296
1200010000.0 -0.20202248 -0.028120736
1215009500.0 -0.20691888 0.001200085
1230009000.0 -0.175910864 0.025566878
1245008500.0 -0.163954672 0.048310104
1260008000.0 -0.138797616 0.068211912
1275007500.0 -0.123187056 0.079899664
1290007000.0 -0.095816776 0.103470944
1305006500.0 -0.097771104 0.107280552
1320006000.0 -0.087660048 0.100658512
1335005500.0 -0.071189264 0.107431704
1350005000.0 -0.085011848 0.103676896
1365004500.0 -0.067017884 0.112163472
1380004000.0 -0.077067352 0.097552904
1395003500.0 -0.093261928 0.067969624
1410003000.0 -0.131156016 0.095000536
1425002500.0 -0.149748944 0.0565005
1440002000.0 -0.228179056 0.002886508
1455001500.0 -0.278373888 0.017158592
1470001000.0 -0.307741568 -0.115988104
1485000500.0 -0.32506992 -0.150737632
1500000000.0 -0.31749008 -0.226822256
