! Created with skrf 1.8.0 (http://scikit-rf.org).
# Hz S RI R 50.0 
!freq ReS11 ImS11
50000.0 0.999366208 0.001425637
15049500.0 0.977889024 0.220232272
30049000.0 0.908346176 0.428279936
45048500.0 0.794749568 0.616606848
60048000.0 0.645713536 0.77395232
75047500.0 0.466172352 0.897414016
90047000.0 0.25253904 0.983030656
105046500.0 0.033160914 1.015000702
120046000.0 -0.189039936 0.99961856
135045500.0 -0.4049352 0.935463296
150045000.0 -0.60224032 0.825280512
165044500.0 -0.770766464 0.672631424
180044000.0 -0.900850816 0.48570368
195043500.0 -0.988851456 0.273661984
210043000.0 -1.026377082 0.044660708
225042500.0 -1.01148069 -0.18930136
240042000.0 -0.941707584 -0.414576128
255041500.0 -0.821642048 -0.618809152
270041000.0 -0.657897728 -0.790026432
285040500.0 -0.4595144 -0.91997856
300040000.0 -0.240930192 -0.990729984
315039500.0 -0.005512567 -1.018360734
330039000.0 0.226 -0.993571328
345038500.0 0.44793936 -0.919986688
360038000.0 0.645219328 -0.79767552
375037500.0 0.80871264 -0.639130624
390037000.0 0.93856 -0.44788064
405036500.0 1.015350342 -0.239406576
420036000.0 1.056916 -0.016244556
435035500.0 1.049038888 0.219327424
450035000.0 0.980549824 0.448609248
465034500.0 0.867078976 0.662758528
480034000.0 0.705373952 0.837449984
495033500.0 0.513014784 0.97012448
510033000.0 0.30239344 1.056301952
525032500.0 0.0751466 1.092430472
540032000.0 -0.147926912 1.083167432
555031500.0 -0.362056768 1.02735436
570031000.0 -0.55921312 0.927422976
585030500.0 -0.7337392 0.78890816
600030000.0 -0.87869984 0.640918528
615029500.0 -0.989829568 0.438414112
630029000.0 -1.050174832 0.21788608
645028500.0 -1.07377052 -0.015668716
660028000.0 -1.034927248 -0.255552448
675027500.0 -0.94799808 -0.477576576
690027000.0 -0.809897728 -0.683650432
705026500.0 -0.618426112 -0.852176064
720026000.0 -0.3888344 -0.977222656
735025500.0 -0.134135784 -1.048621772
750025000.0 0.141066144 -1.057254076
765024500.0 0.406082592 -0.9989552
780024000.0 0.627160512 -0.870160896
795023500.0 0.871324096 -0.67776672
810023000.0 1.021322012 -0.424673856
825022500.0 1.098726392 -0.160341888
840022000.0 1.1047622 0.100907568
855021500.0 1.04662168 0.361184608
870021000.0 0.933999168 0.578930048
885020500.0 0.779215936 0.75786048
900020000.0 0.624329536 0.924257088
915019500.0 0.431898912 1.026970028
930019000.0 0.229640848 1.090044144
945018500.0 0.027771178 1.111842512
960018000.0 -0.175621024 1.090038536
975017500.0 -0.349729376 1.052515744
990017000.0 -0.52839984 0.960928896
1005016500.0 -0.684127744 0.854338432
1020016000.0 -0.82378592 0.718928064
1035015500.0 -0.94770272 0.566845056
1050015000.0 -1.049333332 0.420623712
1065014500.0 -1.096544264 0.199492688
1080014000.0 -1.125305768 -0.023083794
1095013500.0 -1.1063354 -0.239731056
1110013000.0 -1.037264704 -0.464869088
1125012500.0 -0.953805952 -0.695666752
1140012000.0 -0.770866176 -0.899404864
1155011500.0 -0.559456704 -1.048499344
1170011000.0 -0.32537584 -1.223619824
1185010500.0 0.05329946 -1.324642176
1200010000.0 0.455849728 -1.313021792
1215009500.0 0.8561952 -1.171004768
1230009000.0 1.223293312 -0.850648896
1245008500.0 1.42459952 -0.368191616
1260008000.0 1.444267744 0.147270048
1275007500.0 1.220569616 0.46527728
1290007000.0 0.99507616 0.721246272
1305006500.0 0.764565632 0.838606912
1320006000.0 0.5706496 0.931731264
1335005500.0 0.432220224 0.949046784
1350005000.0 0.287332192 0.982901504
1365004500.0 0.216884144 1.06886256
1380004000.0 0.059201048 1.06409812
1395003500.0 -0.041946856 1.111728072
1410003000.0 -0.17231456 1.218502048
1425002500.0 -0.40696976 1.31325616
1440002000.0 -0.7657584 1.408516768
1455001500.0 -1.359805344 1.342783328
1470001000.0 -1.873456128 0.634412864
1485000500.0 -1.713107712 -0.065001816
1500000000.0 -1.393835424 -0.40570464
