! Created with skrf 1.8.0 (http://scikit-rf.org).
# Hz S RI R 50.0 
!freq ReS11 ImS11
50000.0 -0.00021043292329499697 -0.0026990474147699567
15049500.0 -0.0001345131529575575 -0.00015386154344540877
30049000.0 0.0005632561481386912 0.00010190413269291036
45048500.0 0.00039568958727523236 0.0006824604073979504
60048000.0 -6.518761053978107e-05 0.00044146408194945826
75047500.0 -0.00045512994487350667 -0.002278119906620017
90047000.0 0.00070819402260531 -0.0009393854547705027
105046500.0 0.006673622142512899 0.001674349195090761
120046000.0 0.0004323133960298211 0.0002780490751510867
135045500.0 0.06416972129895754 -0.07773537332313699
150045000.0 0.0002406054423490407 -0.0006332141301869723
165044500.0 -0.0003919102964833617 0.00027673338702347147
180044000.0 0.00045849779633633876 -0.0004521822262908948
195043500.0 0.0002971014390422201 -0.0008527360299931896
210043000.0 0.0005249037150782494 0.00014371435911317534
225042500.0 -0.00011430941572436324 0.0005446085931625171
240042000.0 0.0002064757760189623 -6.283127112336787e-05
255041500.0 -0.00029556613382491223 -0.00036952317752689804
270041000.0 -0.0023709883226380917 0.0007098864950876564
285040500.0 0.00016646181368973158 -0.0010331424812997645
300040000.0 -0.008656977050200331 0.010733760237942726
315039500.0 -0.0014948313360726394 -0.0008417993838941155
330039000.0 -0.0006329779358163742 0.0006041093785062447
345038500.0 0.0001233864059981633 0.0016921422664121842
360038000.0 0.0010089269770150939 -0.0006724304355284264
375037500.0 -0.00027881605902162107 -0.0003938680722872967
390037000.0 0.006451561307051303 0.0003655485028771169
405036500.0 -0.0018930292932866613 0.0028129983310300213
420036000.0 -0.00041690461221601313 -0.002253896342522109
435035500.0 -0.0027826334571201565 0.0008591252466777342
450035000.0 -0.12170914210640872 0.2676216192834461
465034500.0 -0.009141265347730203 -0.007553176539741254
480034000.0 0.0008804954730052169 0.003310230495521849
495033500.0 -0.000944246070137903 0.0010708552166110584
510033000.0 0.0009600115403250373 0.0014178944052881497
525032500.0 -0.0025218707375743708 0.0013359578105865896
540032000.0 0.0013502914163931062 0.0035271610371922636
555031500.0 -0.0028526253676265435 -0.001540551084038975
570031000.0 -0.004187309157271836 0.0022685703165568833
585030500.0 -0.0006257434827399034 0.002140525824788559
600030000.0 0.002471734127940514 0.0005279028364344928
615029500.0 -0.004111341013036768 0.0032984265438447346
630029000.0 -0.0026953846680140992 0.012308976761619987
645028500.0 -0.004371065555408126 -0.0012780224401795174
660028000.0 0.0002069228038859892 -0.0016659968831070667
675027500.0 0.010831935909034043 0.0014588063758837347
690027000.0 0.01174377642327016 0.03194716106630678
705026500.0 0.0003117803960825086 0.0014016714044074465
720026000.0 0.0005798936995106727 -0.001169403590468264
735025500.0 0.0013844397103460915 0.002669698008040275
750025000.0 0.02006941302125581 -0.01687478112131087
765024500.0 -0.0007888057719649272 -0.003198572372924696
780024000.0 0.04993958842861084 -0.19520011139169605
795023500.0 -0.012343644986152917 -0.0026680863878120044
810023000.0 0.011984270586151865 0.01662974840988005
825022500.0 -0.009699900722579547 0.004563455085978357
840022000.0 0.023101958530983423 0.02033989335932941
855021500.0 0.0009540902545724105 -0.009753553144616156
870021000.0 -0.019007872064522466 0.0024424121132753103
885020500.0 -0.009225858855753697 -0.0005479097285406754
900020000.0 0.0022697312553766344 0.003849453357271123
915019500.0 0.011224897998800241 -0.005470205636711054
930019000.0 -0.029789177646466367 -0.013392947269392256
945018500.0 -0.012087247600137775 0.00041166023934470063
960018000.0 0.012109569885518244 0.01390228841143582
975017500.0 0.03611308053042857 -0.00588798088436936
990017000.0 0.0015700106874413106 -0.0011416108308108337
1005016500.0 0.0005854273132405424 -1.6008578536065937e-05
1020016000.0 0.009970885151840839 0.006775193343531781
1035015500.0 -0.0008807516000509579 -0.0021410572842455937
1050015000.0 0.053370596332668815 0.027015162556354815
1065014500.0 -0.005080642600749831 0.00015900135007007718
1080014000.0 -0.011684671671179217 0.015841846155058226
1095013500.0 0.0011955335362932521 -0.004097786958184811
1110013000.0 0.039193667859410454 0.025890421491562926
1125012500.0 0.005066387228945868 -0.0006471993415061424
1140012000.0 -0.011268359836154275 -0.0013612512484895661
1155011500.0 0.5825768836709132 0.2560750294317889
1170011000.0 -0.049277706868099756 -0.13358625032817834
1185010500.0 -0.012697918482541424 -0.13400394485290681
1200010000.0 0.004673398439144619 -0.0104362194039536
1215009500.0 -0.02084575992594583 -0.002470241544085655
1230009000.0 0.02224256817976412 0.01423133942739137
1245008500.0 -0.012609240588069913 0.027598772318628305
1260008000.0 0.07559762718922834 -0.04253233813547561
1275007500.0 -0.020874929654216685 -0.006483472514054291
1290007000.0 0.0027413017611452057 -0.0010013186787141486
1305006500.0 0.1337478711695974 0.025750806042559058
1320006000.0 0.018623755201425545 -0.01831550268711566
1335005500.0 -0.019925667269512285 -0.030895106383506846
1350005000.0 0.10091002023205754 -0.028794056275465215
1365004500.0 0.11474829340010868 0.11383106735603721
1380004000.0 -0.0011934520222708143 -0.012379181054870885
1395003500.0 0.03815952885342039 0.03076112204737665
1410003000.0 0.023581910767487925 -0.016273807986619523
1425002500.0 -0.060469646295102875 0.2473580721711247
1440002000.0 -0.02454145291738756 0.0007538234366447526
1455001500.0 -0.1313090406696601 -0.008743108098523602
1470001000.0 0.044937895886734996 0.01858808365605047
1485000500.0 -0.009870995435428421 -0.122538307541953
1500000000.0 0.02109951944763725 -0.026648852079846533
