! Created with skrf 1.8.0 (http://scikit-rf.org).
# Hz S RI R 50.0 
!freq ReS11 ImS11
50000.0 3.014792964734032 -0.8240425301791936
15049500.0 -0.35488094617942006 0.168053223810074
30049000.0 -0.02003885000834974 1.439802657889468
45048500.0 -0.041930129432484003 -0.9925477614565066
60048000.0 1.5331067997417176 1.024578065053274
75047500.0 0.9889930782852977 2.9999622849845315
90047000.0 -2.3728838890138135 0.1309547066145245
105046500.0 12.125735567041406 -6.066553574883533
120046000.0 -0.5384952052396209 -1.734237239196465
135045500.0 15.910461763213185 54.08479765965494
150045000.0 -0.22652918996106633 1.0414408272950106
165044500.0 -0.48014117548912044 -1.0125147243147534
180044000.0 0.5612432914269656 -1.276354750115924
195043500.0 -1.1682275647188156 1.4812433984908302
210043000.0 1.5656508997696783 0.7265121326851371
225042500.0 1.1376056211200896 -1.1548771496616839
240042000.0 -0.5159968626181849 0.32676565648345673
255041500.0 -0.1613972246140358 0.2365131219168743
270041000.0 3.4742894819364896 -4.2088898679147535
285040500.0 -0.5431547292467428 -0.9963933115916698
300040000.0 2.5291394915362977 -5.622568972478776
315039500.0 -0.03481169733677884 0.05729574197877176
330039000.0 -0.7483511747597267 -0.015297617494453498
345038500.0 -1.7720517744524318 -0.31634042851983973
360038000.0 -0.501349557323456 0.5819003727853874
375037500.0 0.7961055284840519 -0.30546124918147166
390037000.0 0.1564777376926151 -0.4335245970301732
405036500.0 0.4156683592293774 -1.1559576188444094
420036000.0 1.927590930246816 -0.23853249894358894
435035500.0 -1.3737412473586192 -0.7624305348794127
450035000.0 -8.554592459438616 -21.12051276522799
465034500.0 0.43774776082200406 -5.902056316823154
480034000.0 0.35036366373895306 -1.0821223082702347
495033500.0 1.335622752983713 -0.36542407776332403
510033000.0 0.3964501204543374 -0.0678774940674614
525032500.0 1.1560421517918882 -0.5981069935536254
540032000.0 0.43715501337597884 -1.5389778135436192
555031500.0 -0.8000005668507684 0.9373929380328311
570031000.0 -0.6785934399398249 -2.042811201296093
585030500.0 1.239089858472726 -0.2674030101996642
600030000.0 0.2565379510928727 0.29969151699215424
615029500.0 -0.39974450817919127 -1.4584812018967876
630029000.0 -0.6622740055443996 2.4324527092491697
645028500.0 -1.0048558559382175 0.9269665391805622
660028000.0 -0.520780520620142 0.24471573080250303
675027500.0 0.10672177422545205 -1.746817585218908
690027000.0 -1.2743484087418266 -4.800443192556762
705026500.0 1.2427858119724982 -0.18056425938659476
720026000.0 1.1135571916981426 -0.2004814048897128
735025500.0 -0.8487440514812842 0.5925786694622827
750025000.0 1.4959263378805068 -2.8724956425537167
765024500.0 -0.37612103632393507 -0.06882850433296053
780024000.0 -1.5131110953794475 2.9569436616410347
795023500.0 -2.7119730524822554 -1.0421945766641783
810023000.0 2.198267151136257 -0.7868868581120922
825022500.0 0.9818508306806163 1.9246241587745248
840022000.0 -3.4083985215127894 0.19786011469698797
855021500.0 -3.0939504182097908 -2.636729352279598
870021000.0 -2.2245578676969195 -1.6302368606559676
885020500.0 -0.1312431110421252 -0.6857561267399207
900020000.0 1.2910536139887538 -0.42788093637863733
915019500.0 2.0361683162739874 1.5823521276199763
930019000.0 1.0012266093030846 5.484773423712426
945018500.0 1.0755432997401917 1.0557229768542353
960018000.0 -1.3980936172853327 -1.5788994765322806
975017500.0 0.3290443812952661 -2.127427921478431
990017000.0 -0.009432864110504478 0.6877719683600102
1005016500.0 0.5725591999634754 0.007013310241829565
1020016000.0 0.10144202847989783 -0.27886280299629773
1035015500.0 0.8523250980193834 -0.15921124496022682
1050015000.0 1.4785180490567247 -1.2738069254224726
1065014500.0 0.689988023674447 0.18876195887572253
1080014000.0 2.06579784690665 1.5011400081852853
1095013500.0 0.24776411339255633 0.5636926817320056
1110013000.0 3.625106629403569 -0.3357847384109546
1125012500.0 -1.008351299515371 -0.4327339108705598
1140012000.0 0.5064806469124998 -0.589073915080515
1155011500.0 2.654133314303857 -7.410647403228724
1170011000.0 1.6196290392761388 2.312261505759856
1185010500.0 2.35490833565263 -3.510198047829915
1200010000.0 1.2841296973753056 -0.3479590261269197
1215009500.0 0.4016048075203929 -0.8008877276975304
1230009000.0 0.30713695863636714 0.983826394943371
1245008500.0 -1.5164010270730066 1.8023792447375742
1260008000.0 0.15123632165780299 -1.7553466573211758
1275007500.0 2.1980356620977974 -0.08768315021316335
1290007000.0 0.7620210981893347 -0.1724187218279254
1305006500.0 -5.734517824658967 3.2786167915252644
1320006000.0 -1.6864070192303267 -1.0944697406495103
1335005500.0 1.3801708705789681 -1.6090069179264668
1350005000.0 6.020136459372473 3.619805205378762
1365004500.0 2.3687693458640586 -0.8458148047565297
1380004000.0 0.6409166083760394 -0.6208321084237254
1395003500.0 1.2965352973706732 2.0135742328197628
1410003000.0 -0.35038386591084375 -0.7231691708716884
1425002500.0 -16.994509641640164 1.698098066988787
1440002000.0 0.08428554978030084 0.12444449456310896
1455001500.0 -0.6143233192142982 1.7303730663346895
1470001000.0 -1.0515821261707925 0.9126161464563735
1485000500.0 0.27098541298094575 -2.2480716042509634
1500000000.0 1.4657303766348808 0.37707919077982827
