! Created with skrf 1.8.0 (http://scikit-rf.org).
# Hz S RI R 50.0 
!freq ReS11 ImS11 ReS21 ImS21 ReS12 ImS12 ReS22 ImS22
50000.0 0.0 0.0 8.4103e-05 -2.1898e-05 0.0 0.0 0.0 0.0
15049500.0 0.0 0.0 3.1187e-05 5.127e-05 0.0 0.0 0.0 0.0
30049000.0 0.0 0.0 1.7892e-05 6.072e-06 0.0 0.0 0.0 0.0
45048500.0 0.0 0.0 3.9975e-05 4.8057e-05 0.0 0.0 0.0 0.0
60048000.0 0.0 0.0 3.3286e-05 1.9567e-05 0.0 0.0 0.0 0.0
75047500.0 0.0 0.0 3.7129e-05 7.1282e-05 0.0 0.0 0.0 0.0
90047000.0 0.0 0.0 2.3599e-05 1.7037e-05 0.0 0.0 0.0 0.0
105046500.0 0.0 0.0 -4.4465e-05 3.5918e-05 0.0 0.0 0.0 0.0
120046000.0 0.0 0.0 -7.1924e-05 -7.544e-06 0.0 0.0 0.0 0.0
135045500.0 0.0 0.0 -2.2273e-05 7.6061e-05 0.0 0.0 0.0 0.0
150045000.0 0.0 0.0 -2.9082e-05 0.000102363 0.0 0.0 0.0 0.0
165044500.0 0.0 0.0 5.0539e-05 9.0638e-05 0.0 0.0 0.0 0.0
180044000.0 0.0 0.0 6.405e-06 0.000100802 0.0 0.0 0.0 0.0
195043500.0 0.0 0.0 -7.448e-06 6.4413e-05 0.0 0.0 0.0 0.0
210043000.0 0.0 0.0 -5.1656e-05 8.0181e-05 0.0 0.0 0.0 0.0
225042500.0 0.0 0.0 -3.8385e-05 5.1602e-05 0.0 0.0 0.0 0.0
240042000.0 0.0 0.0 -8.5589e-05 6.9882e-05 0.0 0.0 0.0 0.0
255041500.0 0.0 0.0 -8.2127e-05 6.9697e-05 0.0 0.0 0.0 0.0
270041000.0 0.0 0.0 -5.6525e-05 1.1471e-05 0.0 0.0 0.0 0.0
285040500.0 0.0 0.0 -0.000109055 6.0338e-05 0.0 0.0 0.0 0.0
300040000.0 0.0 0.0 0.000773916 0.000318377 0.0 0.0 0.0 0.0
315039500.0 0.0 0.0 -0.000145698 0.000307808 0.0 0.0 0.0 0.0
330039000.0 0.0 0.0 0.000495094 5.4701e-05 0.0 0.0 0.0 0.0
345038500.0 0.0 0.0 -0.000525082 -0.000427607 0.0 0.0 0.0 0.0
360038000.0 0.0 0.0 -0.0004472 0.000150391 0.0 0.0 0.0 0.0
375037500.0 0.0 0.0 -0.000119117 0.000304891 0.0 0.0 0.0 0.0
390037000.0 0.0 0.0 2.9234e-05 -0.00089734 0.0 0.0 0.0 0.0
405036500.0 0.0 0.0 -0.000115002 -0.000778308 0.0 0.0 0.0 0.0
420036000.0 0.0 0.0 -0.000231481 -6.1099e-05 0.0 0.0 0.0 0.0
435035500.0 0.0 0.0 0.000735891 -0.000425325 0.0 0.0 0.0 0.0
450035000.0 0.0 0.0 1.1604e-05 -0.000259333 0.0 0.0 0.0 0.0
465034500.0 0.0 0.0 3.155e-05 -0.000978986 0.0 0.0 0.0 0.0
480034000.0 0.0 0.0 7.7866e-05 -0.00051336 0.0 0.0 0.0 0.0
495033500.0 0.0 0.0 0.000568805 -0.000102072 0.0 0.0 0.0 0.0
510033000.0 0.0 0.0 -0.000274669 -0.000640296 0.0 0.0 0.0 0.0
525032500.0 0.0 0.0 -0.000230219 -0.000546374 0.0 0.0 0.0 0.0
540032000.0 0.0 0.0 0.00037641 -0.000675347 0.0 0.0 0.0 0.0
555031500.0 0.0 0.0 0.000256892 -0.000522025 0.0 0.0 0.0 0.0
570031000.0 0.0 0.0 0.001168276 -0.000160891 0.0 0.0 0.0 0.0
585030500.0 0.0 0.0 0.000385264 -0.000852117 0.0 0.0 0.0 0.0
600030000.0 0.0 0.0 0.000872145 -0.000684056 0.0 0.0 0.0 0.0
615029500.0 0.0 0.0 0.000374492 -0.000534359 0.0 0.0 0.0 0.0
630029000.0 0.0 0.0 0.000480361 -0.000468335 0.0 0.0 0.0 0.0
645028500.0 0.0 0.0 0.000828759 0.00032348 0.0 0.0 0.0 0.0
660028000.0 0.0 0.0 0.001212207 -0.000389429 0.0 0.0 0.0 0.0
675027500.0 0.0 0.0 0.00071316 0.000455031 0.0 0.0 0.0 0.0
690027000.0 0.0 0.0 0.001121211 -0.000177239 0.0 0.0 0.0 0.0
705026500.0 0.0 0.0 0.001129592 0.000877036 0.0 0.0 0.0 0.0
720026000.0 0.0 0.0 0.000648203 6.2846e-05 0.0 0.0 0.0 0.0
735025500.0 0.0 0.0 2.3467e-05 0.000818424 0.0 0.0 0.0 0.0
750025000.0 0.0 0.0 -0.000231919 0.000664051 0.0 0.0 0.0 0.0
765024500.0 0.0 0.0 0.000496791 0.001410239 0.0 0.0 0.0 0.0
780024000.0 0.0 0.0 -0.000349146 0.000379501 0.0 0.0 0.0 0.0
795023500.0 0.0 0.0 -0.000941106 -0.000116649 0.0 0.0 0.0 0.0
810023000.0 0.0 0.0 -0.000134966 0.000832174 0.0 0.0 0.0 0.0
825022500.0 0.0 0.0 -0.000404601 0.000322851 0.0 0.0 0.0 0.0
840022000.0 0.0 0.0 -0.000872673 -0.000208693 0.0 0.0 0.0 0.0
855021500.0 0.0 0.0 -0.00065124 0.000541779 0.0 0.0 0.0 0.0
870021000.0 0.0 0.0 -0.00127699 -0.000499825 0.0 0.0 0.0 0.0
885020500.0 0.0 0.0 -0.000473439 -0.000380642 0.0 0.0 0.0 0.0
900020000.0 0.0 0.0 -0.00246232 0.002135059 0.0 0.0 0.0 0.0
915019500.0 0.0 0.0 0.002683257 -0.001168156 0.0 0.0 0.0 0.0
930019000.0 0.0 0.0 -0.000473783 -0.002189052 0.0 0.0 0.0 0.0
945018500.0 0.0 0.0 0.001143706 -0.001677068 0.0 0.0 0.0 0.0
960018000.0 0.0 0.0 -7.5674e-05 -8.155e-06 0.0 0.0 0.0 0.0
975017500.0 0.0 0.0 0.001608833 -0.002022808 0.0 0.0 0.0 0.0
990017000.0 0.0 0.0 0.003123491 -0.000313258 0.0 0.0 0.0 0.0
1005016500.0 0.0 0.0 -5.6723e-05 0.002427485 0.0 0.0 0.0 0.0
1020016000.0 0.0 0.0 0.00080227 -0.001499156 0.0 0.0 0.0 0.0
1035015500.0 0.0 0.0 0.003415089 0.000889937 0.0 0.0 0.0 0.0
1050015000.0 0.0 0.0 0.002699923 0.001757948 0.0 0.0 0.0 0.0
1065014500.0 0.0 0.0 0.00501405 0.001431191 0.0 0.0 0.0 0.0
1080014000.0 0.0 0.0 0.003237804 -0.003472301 0.0 0.0 0.0 0.0
1095013500.0 0.0 0.0 -0.001849499 -0.003807765 0.0 0.0 0.0 0.0
1110013000.0 0.0 0.0 0.002721533 0.004484748 0.0 0.0 0.0 0.0
1125012500.0 0.0 0.0 0.001267331 -0.003694865 0.0 0.0 0.0 0.0
1140012000.0 0.0 0.0 -0.00153913 -0.003477101 0.0 0.0 0.0 0.0
1155011500.0 0.0 0.0 0.00033257 -0.002344991 0.0 0.0 0.0 0.0
1170011000.0 0.0 0.0 0.002460729 -0.003159519 0.0 0.0 0.0 0.0
1185010500.0 0.0 0.0 0.002536278 -0.003420726 0.0 0.0 0.0 0.0
1200010000.0 0.0 0.0 0.000998063 0.000781621 0.0 0.0 0.0 0.0
1215009500.0 0.0 0.0 -0.004244861 -0.00253453 0.0 0.0 0.0 0.0
1230009000.0 0.0 0.0 -0.004530961 0.0018441 0.0 0.0 0.0 0.0
1245008500.0 0.0 0.0 -0.002054448 -0.002509408 0.0 0.0 0.0 0.0
1260008000.0 0.0 0.0 0.004865888 0.002259453 0.0 0.0 0.0 0.0
1275007500.0 0.0 0.0 0.005415485 0.005808595 0.0 0.0 0.0 0.0
1290007000.0 0.0 0.0 0.000963769 0.000814267 0.0 0.0 0.0 0.0
1305006500.0 0.0 0.0 0.007763036 -0.003970806 0.0 0.0 0.0 0.0
1320006000.0 0.0 0.0 -0.003682664 0.001445527 0.0 0.0 0.0 0.0
1335005500.0 0.0 0.0 0.004972333 0.001237348 0.0 0.0 0.0 0.0
1350005000.0 0.0 0.0 -0.002507971 -0.004245228 0.0 0.0 0.0 0.0
1365004500.0 0.0 0.0 -0.002642178 0.008269068 0.0 0.0 0.0 0.0
1380004000.0 0.0 0.0 -0.006570079 1.829e-05 0.0 0.0 0.0 0.0
1395003500.0 0.0 0.0 0.000375637 -0.000182613 0.0 0.0 0.0 0.0
1410003000.0 0.0 0.0 0.005651607 0.012528808 0.0 0.0 0.0 0.0
1425002500.0 0.0 0.0 0.00067378 0.004741227 0.0 0.0 0.0 0.0
1440002000.0 0.0 0.0 0.002253879 -0.00018726 0.0 0.0 0.0 0.0
1455001500.0 0.0 0.0 0.005167821 0.004089066 0.0 0.0 0.0 0.0
1470001000.0 0.0 0.0 0.00204212 -0.007855352 0.0 0.0 0.0 0.0
1485000500.0 0.0 0.0 -0.023377472 0.003441559 0.0 0.0 0.0 0.0
1500000000.0 0.0 0.0 -0.006724557 0.006039495 0.0 0.0 0.0 0.0
