! Created with skrf 1.8.0 (http://scikit-rf.org).
# Hz S RI R 50.0 
!freq ReS11 ImS11
50000.0 0.99908352 0.00209113
15049500.0 0.976172992 0.219762592
30049000.0 0.906879808 0.427826304
45048500.0 0.79387264 0.61552064
60048000.0 0.644632192 0.772596608
75047500.0 0.46580848 0.896109312
90047000.0 0.252016032 0.980949376
105046500.0 0.03252462 1.013470174
120046000.0 -0.188266736 0.998106176
135045500.0 -0.404464224 0.934488704
150045000.0 -0.601203392 0.82390976
165044500.0 -0.769558656 0.671299776
180044000.0 -0.899509568 0.484599264
195043500.0 -0.986595264 0.273170784
210043000.0 -1.024475098 0.045226664
225042500.0 -1.008556366 -0.18872536
240042000.0 -0.939722816 -0.413508768
255041500.0 -0.819986688 -0.617189248
270041000.0 -0.657239488 -0.788117632
285040500.0 -0.458755584 -0.918382912
300040000.0 -0.239028 -0.98808416
315039500.0 -0.005716219 -1.016919732
330039000.0 0.228334624 -0.990960512
345038500.0 0.445955488 -0.915633344
360038000.0 0.64349216 -0.795675136
375037500.0 0.807062144 -0.635964544
390037000.0 0.934721344 -0.451275104
405036500.0 1.013597966 -0.240498784
420036000.0 1.053959368 -0.017094492
435035500.0 1.044560552 0.218317264
450035000.0 0.97390688 0.4529536
465034500.0 0.861498816 0.658499392
480034000.0 0.706238272 0.836348544
495033500.0 0.51286656 0.967049344
510033000.0 0.303638176 1.05114448
525032500.0 0.076238224 1.088283536
540032000.0 -0.142938864 1.079556224
555031500.0 -0.361193856 1.022903324
570031000.0 -0.553593536 0.924594752
585030500.0 -0.724451712 0.787731648
600030000.0 -0.870995072 0.638596288
615029500.0 -0.985881408 0.437532928
630029000.0 -1.050042392 0.213510816
645028500.0 -1.0632267 -0.016539894
660028000.0 -1.028468252 -0.251227856
675027500.0 -0.94258944 -0.479056544
690027000.0 -0.79555616 -0.68318208
705026500.0 -0.613146752 -0.8545104
720026000.0 -0.384719008 -0.979578496
735025500.0 -0.13101144 -1.045695424
750025000.0 0.136460736 -1.055779816
765024500.0 0.407462304 -0.991822656
780024000.0 0.677830272 -0.878911168
795023500.0 0.86930816 -0.669409664
810023000.0 1.01227677 -0.426860576
825022500.0 1.093380688 -0.15640872
840022000.0 1.106133584 0.118605264
855021500.0 1.042651176 0.366982592
870021000.0 0.927245824 0.587905856
885020500.0 0.772815296 0.759167104
900020000.0 0.621689088 0.929367168
915019500.0 0.424400608 1.022144794
930019000.0 0.224900544 1.090694784
945018500.0 0.01900383 1.103297472
960018000.0 -0.17339264 1.08695936
975017500.0 -0.36457216 1.038868548
990017000.0 -0.539862912 0.95415392
1005016500.0 -0.694586176 0.846151488
1020016000.0 -0.83847648 0.722875584
1035015500.0 -0.949727808 0.566723136
1050015000.0 -1.023726224 0.359046976
1065014500.0 -1.113227728 0.17689408
1080014000.0 -1.132395504 -0.054407812
1095013500.0 -1.11280584 -0.25522792
1110013000.0 -1.05319774 -0.49346416
1125012500.0 -0.957469696 -0.724275456
1140012000.0 -0.783652352 -0.916748864
1155011500.0 -0.581582784 -1.135653856
1170011000.0 -0.255551936 -1.28226304
1185010500.0 0.035627844 -1.337701568
1200010000.0 0.433124576 -1.34334576
1215009500.0 0.856437696 -1.17847312
1230009000.0 1.245834 -0.838554112
1245008500.0 1.462115872 -0.380704864
1260008000.0 1.440806976 0.080449592
1275007500.0 1.24559104 0.509277216
1290007000.0 1.024019956 0.727737216
1305006500.0 0.761756288 0.88633344
1320006000.0 0.602920832 0.924595072
1335005500.0 0.423351072 0.972411392
1350005000.0 0.301437888 0.977581376
1365004500.0 0.14935344 0.992887872
1380004000.0 0.07463468 1.072119472
1395003500.0 -0.0465875 1.123327848
1410003000.0 -0.169034752 1.19359648
1425002500.0 -0.415142368 1.332316288
1440002000.0 -0.801847296 1.402284992
1455001500.0 -1.389619584 1.307604672
1470001000.0 -1.917309504 0.663220416
1485000500.0 -1.769048448 -0.094551504
1500000000.0 -1.353281504 -0.365340896
