! Created with skrf 1.8.0 (http://scikit-rf.org).
# Hz S RI R 50.0 
!freq ReS11 ImS11
50000.0 -0.99173984 -0.000597936
15049500.0 -0.988753664 -0.011022434
30049000.0 -0.987512 -0.023159104
45048500.0 -0.986664576 -0.0366531
60048000.0 -0.985905792 -0.050767404
75047500.0 -0.985728384 -0.06528554
90047000.0 -0.984038464 -0.081272784
105046500.0 -0.983151616 -0.096302648
120046000.0 -0.982649728 -0.112477384
135045500.0 -0.981600832 -0.128474624
150045000.0 -0.9802208 -0.14561512
165044500.0 -0.978557504 -0.162108912
180044000.0 -0.9773536 -0.178589152
195043500.0 -0.975588032 -0.19471368
210043000.0 -0.972073408 -0.211146464
225042500.0 -0.967077568 -0.22710216
240042000.0 -0.962346112 -0.241296928
255041500.0 -0.957654144 -0.254998928
270041000.0 -0.952433856 -0.26758352
285040500.0 -0.946731712 -0.278724384
300040000.0 -0.944167552 -0.28884976
315039500.0 -0.935658752 -0.29569072
330039000.0 -0.92820896 -0.304431072
345038500.0 -0.922886976 -0.312047264
360038000.0 -0.917559104 -0.3215464
375037500.0 -0.911896512 -0.328244832
390037000.0 -0.904345216 -0.333856896
405036500.0 -0.897566144 -0.344709056
420036000.0 -0.892322112 -0.353936672
435035500.0 -0.886683072 -0.365091776
450035000.0 -0.880083712 -0.379845568
465034500.0 -0.86948224 -0.388003392
480034000.0 -0.863488512 -0.401058336
495033500.0 -0.854099584 -0.413138624
510033000.0 -0.84717056 -0.427824032
525032500.0 -0.84380576 -0.441707552
540032000.0 -0.838441216 -0.457877024
555031500.0 -0.833480128 -0.476041888
570031000.0 -0.829498304 -0.491966944
585030500.0 -0.823227648 -0.510046848
600030000.0 -0.814875008 -0.535667008
615029500.0 -0.80451488 -0.556182144
630029000.0 -0.790667072 -0.57651392
645028500.0 -0.77998688 -0.58992
660028000.0 -0.764283584 -0.608625216
675027500.0 -0.753517312 -0.619292864
690027000.0 -0.742941248 -0.633218944
705026500.0 -0.727963072 -0.641772992
720026000.0 -0.719224704 -0.649831232
735025500.0 -0.70557856 -0.655884416
750025000.0 -0.693412736 -0.659473856
765024500.0 -0.685129024 -0.663921536
780024000.0 -0.671735616 -0.660963328
795023500.0 -0.667587072 -0.6680704
810023000.0 -0.658625856 -0.669054464
825022500.0 -0.650765312 -0.670457792
840022000.0 -0.648707648 -0.668724928
855021500.0 -0.639904128 -0.668033024
870021000.0 -0.633749824 -0.670055936
885020500.0 -0.634762496 -0.665847488
900020000.0 -0.64969696 -0.66129024
915019500.0 -0.642240384 -0.677643456
930019000.0 -0.637863424 -0.690747648
945018500.0 -0.625301888 -0.717332928
960018000.0 -0.616631104 -0.724539968
975017500.0 -0.588658304 -0.747173504
990017000.0 -0.582066304 -0.756518336
1005016500.0 -0.556244736 -0.774402496
1020016000.0 -0.531384832 -0.777875776
1035015500.0 -0.517971264 -0.787402496
1050015000.0 -0.527927392 -0.765662336
1065014500.0 -0.498963584 -0.816893376
1080014000.0 -0.492101472 -0.84148832
1095013500.0 -0.475977856 -0.855187008
1110013000.0 -0.47055632 -0.88370496
1125012500.0 -0.47326048 -0.917514176
1140012000.0 -0.439694784 -0.926060928
1155011500.0 -0.395893728 -0.996304128
1170011000.0 -0.42901904 -0.935556544
1185010500.0 -0.38674464 -0.996027904
1200010000.0 -0.354084064 -0.98143328
1215009500.0 -0.318993728 -0.99764928
1230009000.0 -0.294120864 -0.969796032
1245008500.0 -0.266239728 -0.962980736
1260008000.0 -0.256058784 -0.982305792
1275007500.0 -0.239025088 -0.938753088
1290007000.0 -0.242375232 -0.909273856
1305006500.0 -0.23613136 -0.904089408
1320006000.0 -0.226771168 -0.922680384
1335005500.0 -0.234485248 -0.919809344
1350005000.0 -0.228599552 -0.953686848
1365004500.0 -0.25710032 -0.987456704
1380004000.0 -0.211359312 -1.056735992
1395003500.0 -0.109559824 -1.212674864
1410003000.0 -0.019091584 -1.235551472
1425002500.0 0.109431688 -1.255990384
1440002000.0 0.283131392 -1.224593168
1455001500.0 0.422398016 -1.113046768
1470001000.0 0.526149504 -0.992916928
1485000500.0 0.628822976 -0.857398272
1500000000.0 0.735585792 -0.586625664
