! Created with skrf 1.8.0 (http://scikit-rf.org).
# Hz S RI R 50.0 
!freq ReS11 ImS11
50000.0 0.99997344 0.002092072
15049500.0 0.97708096 0.219798352
30049000.0 0.907940032 0.427885984
45048500.0 0.794525312 0.616237888
60048000.0 0.645301056 0.773132288
75047500.0 0.466402272 0.896661632
90047000.0 0.252805856 0.982118656
105046500.0 0.033140558 1.013964892
120046000.0 -0.188449952 0.999348416
135045500.0 -0.403468096 0.9351344
150045000.0 -0.600874304 0.825380352
165044500.0 -0.769347456 0.6727104
180044000.0 -0.899810944 0.485787968
195043500.0 -0.986870336 0.274013504
210043000.0 -1.025229574 0.046382912
225042500.0 -1.010668756 -0.1870284
240042000.0 -0.940718272 -0.412656896
255041500.0 -0.820830528 -0.615878336
270041000.0 -0.657694272 -0.787150592
285040500.0 -0.45942368 -0.917672896
300040000.0 -0.242483008 -0.988576896
315039500.0 -0.006389117 -1.016030432
330039000.0 0.225613712 -0.99273888
345038500.0 0.444164352 -0.91732672
360038000.0 0.644166016 -0.796368512
375037500.0 0.804895744 -0.637413504
390037000.0 0.933897472 -0.445502016
405036500.0 1.012833238 -0.241705584
420036000.0 1.054773688 -0.017152536
435035500.0 1.04562974 0.215413552
450035000.0 0.985891712 0.443385344
465034500.0 0.867012288 0.658170496
480034000.0 0.707357696 0.833445568
495033500.0 0.516562176 0.965570496
510033000.0 0.302009984 1.05324018
525032500.0 0.079477512 1.089976784
540032000.0 -0.144731936 1.07992208
555031500.0 -0.359776736 1.02051258
570031000.0 -0.552079104 0.92535008
585030500.0 -0.722571904 0.78421888
600030000.0 -0.869509376 0.638929792
615029500.0 -0.980010688 0.439365248
630029000.0 -1.048697828 0.220748496
645028500.0 -1.0670743 -0.016831792
660028000.0 -1.028134704 -0.251377168
675027500.0 -0.939909184 -0.472434752
690027000.0 -0.80265344 -0.679699264
705026500.0 -0.612891456 -0.852773504
720026000.0 -0.387443616 -0.970702016
735025500.0 -0.131728144 -1.043862104
750025000.0 0.139565296 -1.047654508
765024500.0 0.406016256 -0.98925056
780024000.0 0.64833184 -0.893294464
795023500.0 0.8685424 -0.66785824
810023000.0 1.017596126 -0.431792768
825022500.0 1.093437192 -0.162231712
840022000.0 1.102865936 0.117348336
855021500.0 1.042357684 0.37107024
870021000.0 0.922832768 0.586334784
885020500.0 0.766142208 0.762403328
900020000.0 0.618752896 0.93163168
915019500.0 0.425777952 1.03076768
930019000.0 0.219647616 1.092913272
945018500.0 0.017205342 1.105978488
960018000.0 -0.173938512 1.09227824
975017500.0 -0.358778944 1.040896892
990017000.0 -0.538699776 0.963946176
1005016500.0 -0.688549632 0.855656576
1020016000.0 -0.824553152 0.738920896
1035015500.0 -0.96080704 0.566957056
1050015000.0 -1.08188152 0.377684512
1065014500.0 -1.1115098 0.190297872
1080014000.0 -1.137970928 -0.0445629
1095013500.0 -1.12497044 -0.261179472
1110013000.0 -1.0556643 -0.48528224
1125012500.0 -0.960661952 -0.70901888
1140012000.0 -0.786734528 -0.921034176
1155011500.0 -0.56234624 -1.057941436
1170011000.0 -0.310504672 -1.307845952
1185010500.0 0.039385912 -1.355142944
1200010000.0 0.43038672 -1.345429536
1215009500.0 0.888283072 -1.21797728
1230009000.0 1.262073632 -0.873213504
1245008500.0 1.48041536 -0.356446848
1260008000.0 1.464118112 0.093576792
1275007500.0 1.262117024 0.482137472
1290007000.0 1.041854976 0.735599424
1305006500.0 0.78175136 0.873991488
1320006000.0 0.595603904 0.934511424
1335005500.0 0.430402304 0.963505152
1350005000.0 0.314612448 0.9995424
1365004500.0 0.141516752 1.023658156
1380004000.0 0.063372208 1.076252464
1395003500.0 -0.047526072 1.134132624
1410003000.0 -0.189485232 1.209440832
1425002500.0 -0.395845824 1.314836256
1440002000.0 -0.786112704 1.40663696
1455001500.0 -1.320052384 1.310891136
1470001000.0 -1.834270592 0.647672
1485000500.0 -1.742357952 -0.078042496
1500000000.0 -1.397810592 -0.399937824
