! Created with skrf 1.8.0 (http://scikit-rf.org).
# Hz S RI R 50.0 
!freq ReS11 ImS11
50000.0 0.012240776 0.000125336
15049500.0 0.012412876 0.002127917
30049000.0 0.012711828 0.004098839
45048500.0 0.013187966 0.005998661
60048000.0 0.013649838 0.007940873
75047500.0 0.013920754 0.01010534
90047000.0 0.01455101 0.011916334
105046500.0 0.014996018 0.01402779
120046000.0 0.01542523 0.016145088
135045500.0 0.015722318 0.018430326
150045000.0 0.015957718 0.020577132
165044500.0 0.016146614 0.02290515
180044000.0 0.016218894 0.025274202
195043500.0 0.016092698 0.027752686
210043000.0 0.015896226 0.030161182
225042500.0 0.01544637 0.03263259
240042000.0 0.01490596 0.035160476
255041500.0 0.014333224 0.037503836
270041000.0 0.01379819 0.03973932
285040500.0 0.012931892 0.041621968
300040000.0 0.012310512 0.043633196
315039500.0 0.011197038 0.0452868
330039000.0 0.009788034 0.047587004
345038500.0 0.008909016 0.049560956
360038000.0 0.007624843 0.051148868
375037500.0 0.007675264 0.052706784
390037000.0 0.005567144 0.055193948
405036500.0 0.004725888 0.057374772
420036000.0 0.004856051 0.059015236
435035500.0 0.003748002 0.0605153
450035000.0 0.001428848 0.06279546
465034500.0 0.002268422 0.064625444
480034000.0 8.9712e-05 0.066592984
495033500.0 -0.001171078 0.068360952
510033000.0 -0.001742964 0.071123968
525032500.0 -0.003297133 0.073082376
540032000.0 -0.004928888 0.075692224
555031500.0 -0.007310181 0.076883048
570031000.0 -0.008817552 0.079214256
585030500.0 -0.011156724 0.08117944
600030000.0 -0.013159148 0.084876608
615029500.0 -0.016175884 0.088032128
630029000.0 -0.020176738 0.087612816
645028500.0 -0.023158332 0.088699016
660028000.0 -0.02633009 0.090210768
675027500.0 -0.029635256 0.090125136
690027000.0 -0.033471734 0.091613736
705026500.0 -0.036575964 0.092379224
720026000.0 -0.040086008 0.09190036
735025500.0 -0.043278372 0.090389504
750025000.0 -0.045303636 0.088702328
765024500.0 -0.047325972 0.088094936
780024000.0 -0.047951828 0.085684208
795023500.0 -0.053191336 0.085954104
810023000.0 -0.052774412 0.084557608
825022500.0 -0.0535167 0.082482064
840022000.0 -0.054502012 0.083249168
855021500.0 -0.054818884 0.08094256
870021000.0 -0.054584204 0.08236736
885020500.0 -0.052524996 0.0805478
900020000.0 -0.0533364 0.084194104
915019500.0 -0.048868904 0.081655944
930019000.0 -0.047147976 0.089423368
945018500.0 -0.05026506 0.087800784
960018000.0 -0.049622696 0.0905784
975017500.0 -0.052852036 0.092982864
990017000.0 -0.053485332 0.096330128
1005016500.0 -0.055726176 0.096384488
1020016000.0 -0.054877516 0.09636024
1035015500.0 -0.062779344 0.097096152
1050015000.0 -0.059311192 0.102013808
1065014500.0 -0.065332956 0.097651856
1080014000.0 -0.069533648 0.099691816
1095013500.0 -0.074798488 0.106264528
1110013000.0 -0.085828408 0.106893352
1125012500.0 -0.088348032 0.11095584
1140012000.0 -0.08607532 0.118197288
1155011500.0 -0.0988388 0.106539432
1170011000.0 -0.100664912 0.104252048
1185010500.0 -0.108970312 0.103198872
1200010000.0 -0.099581968 0.10722352
1215009500.0 -0.12028632 0.101550368
1230009000.0 -0.122125176 0.092582536
1245008500.0 -0.129952608 0.082855168
1260008000.0 -0.104025792 0.073438328
1275007500.0 -0.116592264 0.06981928
1290007000.0 -0.11383624 0.063438924
1305006500.0 -0.114475552 0.061817788
1320006000.0 -0.089287304 0.05916862
1335005500.0 -0.108926864 0.072173584
1350005000.0 -0.080984288 0.063843368
1365004500.0 -0.094808648 0.086923008
1380004000.0 -0.113317392 0.091160792
1395003500.0 -0.092589384 0.081066824
1410003000.0 -0.109310968 0.108944616
1425002500.0 -0.129887912 0.11167648
1440002000.0 -0.124384216 0.108074784
1455001500.0 -0.149618144 0.135168752
1470001000.0 -0.163915696 0.12554672
1485000500.0 -0.197392 0.114130856
1500000000.0 -0.205548832 0.051757328
