! Created with skrf 1.8.0 (http://scikit-rf.org).
# Hz S RI R 50.0 
!freq ReS11 ImS11
50000.0 0.015541992 1.1948e-05
15049500.0 0.015757288 0.003604862
30049000.0 0.015678902 0.006849402
45048500.0 0.015274148 0.009889318
60048000.0 0.014756052 0.012627136
75047500.0 0.01384009 0.015455162
90047000.0 0.013009346 0.017550706
105046500.0 0.012094566 0.019347042
120046000.0 0.01126145 0.021050538
135045500.0 0.010548826 0.02253743
150045000.0 0.009952868 0.023606822
165044500.0 0.009503354 0.0247795
180044000.0 0.009317062 0.02570195
195043500.0 0.009478308 0.026774252
210043000.0 0.009728066 0.027935292
225042500.0 0.01018665 0.029323268
240042000.0 0.010726622 0.030868114
255041500.0 0.011538816 0.032747268
270041000.0 0.01236021 0.034717796
285040500.0 0.012946676 0.037169644
300040000.0 0.013372182 0.040463632
315039500.0 0.013745092 0.042258668
330039000.0 0.013955638 0.046590432
345038500.0 0.013864174 0.050111224
360038000.0 0.012438782 0.053172776
375037500.0 0.01124469 0.057800344
390037000.0 0.010117376 0.061430684
405036500.0 0.007687134 0.064576252
420036000.0 0.00484778 0.067800048
435035500.0 0.002023069 0.070859424
450035000.0 -0.002064272 0.074075904
465034500.0 -0.00448818 0.075524896
480034000.0 -0.009471408 0.077241648
495033500.0 -0.0127708 0.077590528
510033000.0 -0.017007036 0.07761108
525032500.0 -0.018869284 0.078501984
540032000.0 -0.02194136 0.077274032
555031500.0 -0.023976172 0.075951416
570031000.0 -0.027772756 0.075855
585030500.0 -0.027980936 0.073828768
600030000.0 -0.029382578 0.075385368
615029500.0 -0.029837844 0.07458304
630029000.0 -0.0308021 0.07302164
645028500.0 -0.030760272 0.072848568
660028000.0 -0.029690116 0.073569016
675027500.0 -0.029874892 0.074309688
690027000.0 -0.029077232 0.076519768
705026500.0 -0.030572258 0.07759284
720026000.0 -0.029161412 0.079601584
735025500.0 -0.02951501 0.082088232
750025000.0 -0.031935602 0.08500172
765024500.0 -0.033299476 0.087249184
780024000.0 -0.036662748 0.093613432
795023500.0 -0.039748516 0.09403596
810023000.0 -0.043214644 0.096982576
825022500.0 -0.047387364 0.100550128
840022000.0 -0.052329744 0.100476016
855021500.0 -0.057841332 0.101249192
870021000.0 -0.060180664 0.101209664
885020500.0 -0.06538514 0.101564312
900020000.0 -0.06462814 0.104517328
915019500.0 -0.072421264 0.101639072
930019000.0 -0.078260728 0.10503852
945018500.0 -0.081334608 0.0959746
960018000.0 -0.08329916 0.096198552
975017500.0 -0.081427824 0.092787904
990017000.0 -0.087059672 0.087057448
1005016500.0 -0.08605272 0.07917032
1020016000.0 -0.089955376 0.081292416
1035015500.0 -0.090073496 0.080105048
1050015000.0 -0.079056752 0.070636824
1065014500.0 -0.077621584 0.072101664
1080014000.0 -0.083241912 0.068918504
1095013500.0 -0.085282456 0.06740308
1110013000.0 -0.067662584 0.06572982
1125012500.0 -0.075624656 0.078390096
1140012000.0 -0.077862264 0.08349344
1155011500.0 -0.07618452 0.08187808
1170011000.0 -0.076464552 0.075763712
1185010500.0 -0.08609488 0.068620728
1200010000.0 -0.070400992 0.086355512
1215009500.0 -0.089784208 0.088673232
1230009000.0 -0.094231216 0.079803704
1245008500.0 -0.095337976 0.09283692
1260008000.0 -0.093495448 0.087630664
1275007500.0 -0.112236824 0.082206384
1290007000.0 -0.1112568 0.083257456
1305006500.0 -0.115386496 0.075947496
1320006000.0 -0.10676832 0.072872712
1335005500.0 -0.105312816 0.082954856
1350005000.0 -0.107916896 0.075730168
1365004500.0 -0.10672432 0.08114096
1380004000.0 -0.12709564 0.088972712
1395003500.0 -0.134503056 0.093829056
1410003000.0 -0.134096416 0.104356936
1425002500.0 -0.158332976 0.122572088
1440002000.0 -0.161042896 0.095954808
1455001500.0 -0.180429536 0.09256316
1470001000.0 -0.222924144 0.111077016
1485000500.0 -0.223883104 0.036042292
1500000000.0 -0.201143728 -0.016463924
