! Created with skrf 1.8.0 (http://scikit-rf.org).
# Hz S RI R 50.0 
!freq ReS11 ImS11
50000.0 0.9924629544185677 0.0011335976000491706
15049500.0 0.9929846824574005 0.01891351619442856
30049000.0 0.9929741508359844 0.03670828539599415
45048500.0 0.9924641354612741 0.05502881323665299
60048000.0 0.9921496891241056 0.07278980076921428
75047500.0 0.9911957508276715 0.09085686483823317
90047000.0 0.9889582932193918 0.10958992453699752
105046500.0 0.9874388621244362 0.12674189806953928
120046000.0 0.9855878790772975 0.14446631820572908
135045500.0 0.9829207388813973 0.16196599364932082
150045000.0 0.9810652582779055 0.17998037335906433
165044500.0 0.9779209270825162 0.1970536691731748
180044000.0 0.9752823604902328 0.21474415504099092
195043500.0 0.9718230131406752 0.23179413334251012
210043000.0 0.9677874917107105 0.249231594754928
225042500.0 0.9635583458783863 0.26658658519687134
240042000.0 0.9590176610445275 0.2840561609795891
255041500.0 0.9544071274304551 0.30090286039396197
270041000.0 0.9479042352653484 0.31744435113781044
285040500.0 0.9439496593694495 0.33471433656609884
300040000.0 0.939350962175591 0.35172141798629
315039500.0 0.9336684628474462 0.3667108026825514
330039000.0 0.9279553550979324 0.3840579195096292
345038500.0 0.9199541433631546 0.3984599616500675
360038000.0 0.9156393786526336 0.4147228641356089
375037500.0 0.9072083226898514 0.43027707764105194
390037000.0 0.9017738488062325 0.44620996744672026
405036500.0 0.8923100632261128 0.46236730142841753
420036000.0 0.8854185673042391 0.4802475140337589
435035500.0 0.875620464853919 0.4975820555555
450035000.0 0.8640323236186834 0.5187559394524608
465034500.0 0.8563152446669992 0.5302065371424336
480034000.0 0.8463781989794381 0.5440965394308929
495033500.0 0.8355255032217 0.5589167846788736
510033000.0 0.8245462402404631 0.5731059646544044
525032500.0 0.8145592357864454 0.5864055432191403
540032000.0 0.8061959352230588 0.601234045607808
555031500.0 0.7952824861256301 0.6155001820825995
570031000.0 0.7869468230880399 0.6298593159628965
585030500.0 0.7754882214040082 0.6417835336656621
600030000.0 0.7649462409268635 0.6671659287810042
615029500.0 0.7511578588358191 0.6808535670156238
630029000.0 0.7361933255360793 0.6946732130890597
645028500.0 0.7246461187834572 0.7054631933275582
660028000.0 0.709558401588193 0.7195036946238405
675027500.0 0.6969644059821847 0.7310191261890824
690027000.0 0.6810940770234372 0.7445486989254232
705026500.0 0.6658200715600345 0.7549617805574693
720026000.0 0.6498025574298699 0.7663114795920138
735025500.0 0.6325461429004914 0.7771920625608096
750025000.0 0.6128397393552815 0.7869196607210088
765024500.0 0.5974936861263124 0.797579469405239
780024000.0 0.5834367548659352 0.8007197511585123
795023500.0 0.5639332030400726 0.812536694207015
810023000.0 0.5506259584111615 0.8194952862592779
825022500.0 0.5333574077642116 0.8251980248187454
840022000.0 0.5192087022677594 0.8306662303412866
855021500.0 0.5106627363888236 0.8300655582825293
870021000.0 0.5003149377593321 0.8326514814101414
885020500.0 0.4906326868083915 0.8388483902971909
900020000.0 0.5004977739806921 0.8458991960184657
915019500.0 0.49273569144526824 0.8586989556901772
930019000.0 0.4815181155563247 0.8680014797728881
945018500.0 0.4623770776297356 0.8767970630631087
960018000.0 0.44561272341536623 0.8871646217575352
975017500.0 0.4258259288887574 0.8930316644569869
990017000.0 0.4132463650949272 0.8968239618113111
1005016500.0 0.4038873688458045 0.8951349540611039
1020016000.0 0.3853985236748064 0.8929154449521657
1035015500.0 0.38464234391753543 0.8958901559480604
1050015000.0 0.37951838841021174 0.9220984257019428
1065014500.0 0.3821186727966286 0.9233771222894794
1080014000.0 0.37343877406345466 0.938843748327707
1095013500.0 0.36663672453879553 0.9642239175025163
1110013000.0 0.3606674976986135 0.9943329946452737
1125012500.0 0.3299681828066265 1.0399852581092979
1140012000.0 0.3025654427453332 1.0503221826035836
1155011500.0 0.24175057159536645 1.0449909906825974
1170011000.0 0.22329686539263244 1.0979419764355813
1185010500.0 0.18947366787635164 1.1015701756407825
1200010000.0 0.13048850733848708 1.0972142589945937
1215009500.0 0.09149018175909847 1.0763179256304007
1230009000.0 0.04795638609625796 1.0568866954635723
1245008500.0 0.013275639034721972 1.0219389182010483
1260008000.0 -0.010976093610253809 1.0037327737495236
1275007500.0 -0.00738440308408451 0.9605578974642087
1290007000.0 0.0011851445439711762 0.9538341487197206
1305006500.0 0.02013003022767483 0.9206028340785963
1320006000.0 0.034624611377264414 0.93780149387433
1335005500.0 0.06387455378791725 0.9448810649112892
1350005000.0 0.09055141613191078 0.976645894413047
1365004500.0 0.10222493876918455 1.0755638239773269
1380004000.0 0.1252746378561302 1.0872462781293661
1395003500.0 0.14029207353639284 1.1749278359758841
1410003000.0 0.12638047606632816 1.2463898178753827
1425002500.0 0.044666031506787746 1.42378469982217
1440002000.0 -0.14704141441330743 1.49686634307673
1455001500.0 -0.41195026991844136 1.6191199426901248
1470001000.0 -0.7110223954659547 1.567559109254124
1485000500.0 -1.038728847238015 1.2508409722673473
1500000000.0 -1.1142191606311334 0.8246045846482957
