! Created with skrf 1.8.0 (http://scikit-rf.org).
# Hz S RI R 50.0 
!freq ReS11 ImS11
50000.0 -0.0014002238229948187 -0.0018502231843858525
15049500.0 0.00014006449959321962 -0.001512703054137023
30049000.0 -0.0004354565019213865 -0.00039498343808440193
45048500.0 -0.0017143001432711553 -0.0006318891297854784
60048000.0 -0.0002139479817424505 0.0005218032118401368
75047500.0 0.0011033330545862214 -2.1296190307926133e-06
90047000.0 0.0005127542961632935 -1.1796827610664941e-06
105046500.0 -0.0001681652157944518 0.0004084214787903328
120046000.0 -0.00048556625650802987 0.00032573671651882536
135045500.0 -0.0009395386187860646 -0.0008833121043964669
150045000.0 0.0007968403056217634 -0.0015279926216985396
165044500.0 -0.0004681388105494215 1.6969436927190723e-05
180044000.0 6.219659534540931e-05 -0.0001508193955458065
195043500.0 -4.6744034571451284e-05 -0.0006629869211276057
210043000.0 0.0007717281859912987 3.816156525931293e-05
225042500.0 -0.00020727756267160225 0.0002609555936631434
240042000.0 8.90298906596235e-05 -0.0003671218644812405
255041500.0 6.768538392967311e-05 -0.0003878870697347803
270041000.0 -0.0007222085563153598 -0.0006800306697518274
285040500.0 0.0005291528892951129 -0.0003605256402466814
300040000.0 -0.004592221176996452 -0.013415269788211608
315039500.0 0.00028871202748853754 0.00151588969060863
330039000.0 0.0024547026121085423 -0.0021673722852756793
345038500.0 0.0003394372373346509 0.0006028601608671324
360038000.0 0.0026824488432277372 -0.0010557790411894067
375037500.0 -0.004427934242750353 -0.0002931731359134883
390037000.0 -0.0018781414900536362 -0.009991999505802178
405036500.0 -0.000851085089940787 -0.002146640366078194
420036000.0 -9.776771079705025e-05 0.0009468362368030679
435035500.0 0.003552678328359157 -0.0013504041967095416
450035000.0 -0.1023293936909122 0.018759196818691672
465034500.0 -5.7160372585342775e-05 0.002819308402512503
480034000.0 0.0012429099549294254 -9.658388038652951e-05
495033500.0 0.0002927213583351163 -0.0026199605240052
510033000.0 -0.005712893660426579 -0.0010151234738956204
525032500.0 0.000488614635145647 0.0021968804615887
540032000.0 0.0041138349748136484 -0.0013983244534467407
555031500.0 0.0002690800281727291 0.002477664692821949
570031000.0 0.0008340035808709375 -0.0003963227774357193
585030500.0 -0.005648664514067662 0.0034640460081112757
600030000.0 0.002319328004243454 1.7601191266165652e-05
615029500.0 0.0010946723140956396 -0.0009463048184519914
630029000.0 -0.0006132595057769186 0.0018994876433754834
645028500.0 -0.015313971455875895 0.00043779856936967357
660028000.0 0.002857632561089412 0.0014995307939672812
675027500.0 -0.0014083803885758697 -0.0009737037093007831
690027000.0 0.003436692592714109 -0.014860402882332287
705026500.0 0.0015155825760002524 0.0038881372792622894
720026000.0 0.0034833942428275652 -0.003225979788703681
735025500.0 -0.0018090210478758036 0.0013444415195865986
750025000.0 0.002908193955614827 0.00048356287111150583
765024500.0 0.007456550845455825 -0.002543908321028643
780024000.0 -0.005518733791115077 0.08545134430178171
795023500.0 -0.0001917154271019885 -0.000866219219060114
810023000.0 -0.003285033429593075 0.0010034118330129445
825022500.0 -0.000252147779359492 -0.0007010549730811475
840022000.0 0.002588831819123593 0.008921690918337012
855021500.0 -0.005058844495117194 0.001038768307202694
870021000.0 -0.002069599615525904 0.0010621035115437722
885020500.0 -0.029771630154872667 0.055404255451097936
900020000.0 0.005822693826286318 0.0034080558623258775
915019500.0 -0.00712774792366216 0.002686387801044552
930019000.0 0.01652855511151676 0.02616333880701272
945018500.0 0.0076162586836631095 -0.007122690922746211
960018000.0 -0.014133284990374228 -0.015831307893876975
975017500.0 -0.022782423398778253 0.007583686691447571
990017000.0 -0.019917858097730216 0.00041671139594251375
1005016500.0 0.011380519226242568 -0.003936166650665761
1020016000.0 -0.008007450321505521 0.02321609725960706
1035015500.0 0.00638997860384979 0.004208638692895456
1050015000.0 0.0020592574970895883 0.013008666701084106
1065014500.0 0.0015380000128584637 0.004463311418526059
1080014000.0 -0.005779844993418811 0.00045586660091727354
1095013500.0 0.017109827802355676 -0.033353623399749906
1110013000.0 -0.0024234702707471123 0.008869574555569313
1125012500.0 0.019476827853443623 0.044256994979231495
1140012000.0 0.023662949879778773 0.0012874112063871255
1155011500.0 -0.053642381635875466 -0.04125680495166159
1170011000.0 -0.044530598892338055 -0.005586087038145547
1185010500.0 -0.011327162392422112 0.03488240497473555
1200010000.0 0.008345003274663608 -0.001436057813817511
1215009500.0 0.03186512838051873 0.031599083979509
1230009000.0 0.17176487546038996 -0.30052944031569173
1245008500.0 0.011292379005698057 0.007667621239540756
1260008000.0 0.054051319971742826 0.01837309871904576
1275007500.0 -0.015208930172632185 0.002008327414683965
1290007000.0 0.01409921740841542 0.02890425914823424
1305006500.0 0.01055129817759708 -0.0008796727938965013
1320006000.0 -0.012683133150095349 -0.021072585877493957
1335005500.0 -0.011234372383526913 -0.004553766872701189
1350005000.0 -0.042802279855716566 0.008243365840703449
1365004500.0 0.0027834303540906066 0.002389144029508382
1380004000.0 -0.012992026803702797 -0.09222551729838754
1395003500.0 -0.8684795239468268 1.3835745188760622
1410003000.0 -0.09802463356329935 0.02056058819594226
1425002500.0 -0.08399877514120752 -0.0901016277665127
1440002000.0 0.0026529763555340645 -0.04084116639199775
1455001500.0 0.0015190893573943562 0.013856205289314735
1470001000.0 0.07579880342403773 0.07929286926803226
1485000500.0 -0.02731950733412343 -0.01081419219397906
1500000000.0 0.014762539428781916 0.018986955389214848
