! Created with skrf 1.8.0 (http://scikit-rf.org).
# Hz S RI R 50.0 
!freq ReS11 ImS11
50000.0 -0.000686867970909765 0.0005265226080553846
15049500.0 -0.00010280371842047075 0.00011499624526224047
30049000.0 -0.00046590082414024254 0.00068220169129582
45048500.0 0.0001235620242059995 -0.00013376160722230882
60048000.0 -8.058976749971206e-05 -3.2565884898065065e-05
75047500.0 -2.993530195619145e-05 9.887446742992908e-05
90047000.0 -0.00015657533414767296 -0.0002275186393762379
105046500.0 -2.5258541509312984e-05 6.786030652185827e-05
120046000.0 1.9969438481651085e-05 5.910608868898873e-05
135045500.0 7.017460647217711e-06 0.0001945876039021216
150045000.0 5.526673449607434e-05 2.1386198449452002e-05
165044500.0 8.06499043088064e-05 -5.908080466983675e-05
180044000.0 -8.263360265681843e-05 -6.033643005236443e-06
195043500.0 -0.0005813218544309576 0.000376966316955062
210043000.0 2.7452340655985754e-05 0.00010393489932675892
225042500.0 4.151643050567105e-05 -0.00011212387583444925
240042000.0 -2.6307070719878112e-05 6.162622288312322e-05
255041500.0 0.00014727032688636354 6.0372883598206034e-05
270041000.0 -0.0004212978751788069 0.00010311063719252694
285040500.0 1.3263821730510412e-05 2.932915255634693e-05
300040000.0 -0.0031625704699590504 0.0030654602084536848
315039500.0 -0.0006053054028570772 0.001545470511033492
330039000.0 0.002102555478350767 -0.00012813623040161252
345038500.0 -0.0007516251718512093 0.00030135300304893385
360038000.0 -0.0015761594923052475 -0.00016057857981203465
375037500.0 -6.52869740023112e-05 0.00012069421319508188
390037000.0 0.00010408416976300746 -0.00042573678891967006
405036500.0 -0.0001346718952632757 0.001208580933201454
420036000.0 0.001114801703601961 -0.003295878215703291
435035500.0 0.00028403310750421603 0.00020824603909399647
450035000.0 0.0004947284349949746 0.0010786284045275177
465034500.0 -0.005192731866532504 -0.005445083926716078
480034000.0 -0.006913382980698233 0.0031459273818871245
495033500.0 0.0013344327232656956 -0.0019243459880996677
510033000.0 0.0006442479427445975 0.0006641067980936621
525032500.0 0.002637303232761172 0.0022973464330051123
540032000.0 -0.00016896454983140896 -0.00031365493397398026
555031500.0 0.000999659920775363 -1.0002410435293726e-05
570031000.0 0.0015378600316172826 -0.0016731909123340921
585030500.0 0.005788153015420809 0.0007767968724320412
600030000.0 -0.0015764782872754331 -0.00010850581927743598
615029500.0 0.00041961475320373393 -0.002508897055118689
630029000.0 0.0004888524251922093 -0.0002237662084540491
645028500.0 0.003657179705824612 0.00915234076671029
660028000.0 0.00033607193400368544 -0.00037444514043829136
675027500.0 0.001767254039573426 0.0026211558924954864
690027000.0 0.005398328033486121 0.0004671084974592712
705026500.0 2.5804408011589598e-05 1.4209285191023326e-05
720026000.0 -0.00027745221097748307 0.00462016437154904
735025500.0 -0.000822343238217046 0.004442613078585827
750025000.0 -0.011406188166901136 -0.0026656785567448233
765024500.0 -0.004020979048964566 -0.001154731114959041
780024000.0 0.003620884206628543 0.003736768022799016
795023500.0 0.0005696547478238918 0.000542029173256912
810023000.0 -0.0033724708802023223 0.0013530780020297758
825022500.0 0.00027401015457168736 -0.0001828079322822852
840022000.0 -0.0004581881854965457 -0.002560498142065981
855021500.0 -0.0011262942315818304 -0.00026021973377438425
870021000.0 -0.01026692061994214 -0.0023465722842771603
885020500.0 -0.00024909803079998204 0.000532084670424524
900020000.0 0.008555349285539316 -0.0017500095656746157
915019500.0 0.0054067053986941995 -0.003232869728638442
930019000.0 0.0019365027539977773 -0.023117095987698007
945018500.0 -0.002405408138004079 -0.0028136662603977774
960018000.0 -0.0056080198424488005 0.0025463782244010886
975017500.0 -0.0032115123292209046 0.0006869647241658115
990017000.0 -0.00856557423872269 0.0017010318288884208
1005016500.0 -0.003450613932119609 -0.0004275982794267534
1020016000.0 0.0060030946310769195 0.006205547679262673
1035015500.0 -0.002286913364291403 0.0026776138009731976
1050015000.0 0.00987198939487882 -0.004400872087344479
1065014500.0 0.0019203988377036409 -0.005775337916488634
1080014000.0 0.008546736788476754 -0.003779779993989588
1095013500.0 0.001620131366387968 -0.005416229727474749
1110013000.0 -0.0012022343161750715 0.01559233934757726
1125012500.0 0.008711665858265515 -0.0035050706911358884
1140012000.0 -0.002300631160100021 0.003566154473112851
1155011500.0 -0.05812310888474369 0.030436900330330734
1170011000.0 -0.028765508420620933 -0.016125089257189886
1185010500.0 0.020186222427546134 0.023749344540214733
1200010000.0 0.0028032910639702903 0.015863419708989124
1215009500.0 -0.013241021348736665 -0.037668952238826235
1230009000.0 -0.0006450760220345984 0.02376427227821076
1245008500.0 -0.03844112629395851 0.10525113048851426
1260008000.0 0.008526854489428954 0.0037298820571933463
1275007500.0 -0.016347308066599894 -0.010170826475400487
1290007000.0 -0.0017869337349340278 -0.014674171435913331
1305006500.0 0.010448753237357439 0.0014516760617539052
1320006000.0 -0.016973568465659436 0.013615291284915483
1335005500.0 0.011497720226450184 0.052156847914884716
1350005000.0 -0.03729088668474411 0.05961616302526452
1365004500.0 0.03556419158696749 0.024123865577581526
1380004000.0 0.033664592649598216 -0.01373532832578245
1395003500.0 0.08131890348438903 0.056580036563015766
1410003000.0 -0.007696482314951196 0.040836271687187634
1425002500.0 -0.022237030853486613 0.03344674145827355
1440002000.0 0.09272159085151956 -0.21563509165788863
1455001500.0 0.04923994568507363 0.03570643524857928
1470001000.0 2.7307766938253923e-06 0.05081220295969856
1485000500.0 -0.019099089520573983 0.011383166275216234
1500000000.0 -0.01219084012262682 -0.003784460466781959
