! Created with skrf 1.8.0 (http://scikit-rf.org).
# Hz S RI R 50.0 
!freq ReS11 ImS11
50000.0 -0.01001692786428779 0.0002383379656492046
15049500.0 -0.007948352258456809 0.0020176115441650623
30049000.0 -0.007635177801980133 0.0032325946979272747
45048500.0 -0.0073106928715620766 0.0044595491613409356
60048000.0 -0.0068340678275455626 0.005431109500031487
75047500.0 -0.00690695759803441 0.006521712989584373
90047000.0 -0.006287968774964755 0.007423325359481934
105046500.0 -0.0059882607168182875 0.00801408152696673
120046000.0 -0.006524433871064007 0.009076934757899485
135045500.0 -0.006396669063747744 0.009460376293283699
150045000.0 -0.006438612355500437 0.011085614180848743
165044500.0 -0.006693297576583143 0.011856097303117681
180044000.0 -0.007655820414443135 0.013513250159917943
195043500.0 -0.008702734531194271 0.014760050166081834
210043000.0 -0.008720975726689405 0.01569296460601035
225042500.0 -0.009199452126717921 0.016683512424862212
240042000.0 -0.009034281263017986 0.018436955259640016
255041500.0 -0.009621191253879353 0.020493216455284017
270041000.0 -0.008921681106511233 0.022960861365310246
285040500.0 -0.009413478676332288 0.026105313762882675
300040000.0 -0.006825828969956631 0.028317000007612163
315039500.0 -0.007169144095087104 0.03327457201421619
330039000.0 -0.006580837389558443 0.03595425985232818
345038500.0 -0.006050792784215406 0.03718987354119626
360038000.0 -0.003813611522029569 0.04032979933071823
375037500.0 -0.0029063519988865552 0.041370277522138586
390037000.0 0.0005973238959735052 0.043648233064258066
405036500.0 0.0007974506668261116 0.044947154308279724
420036000.0 0.0031733100448191266 0.045604173467871774
435035500.0 0.003658259432398419 0.04650762236590617
450035000.0 0.008648198648334392 0.047803176101624274
465034500.0 0.007792638369111753 0.04814290188807014
480034000.0 0.012979770209392031 0.04634473534753139
495033500.0 0.014044256060953794 0.04682340852804152
510033000.0 0.018626225833116315 0.04598809238593073
525032500.0 0.01560328367548078 0.04486595087794085
540032000.0 0.01683233290186648 0.045915023761045566
555031500.0 0.015355798678325516 0.04709271468040354
570031000.0 0.018105959538073896 0.045043322309601466
585030500.0 0.015800924096146328 0.04697034908885797
600030000.0 0.013981555810025716 0.043806388407096566
615029500.0 0.0133737852900376 0.04315599513415225
630029000.0 0.013817467265848156 0.04033570947548607
645028500.0 0.01168375230374581 0.040599724734751375
660028000.0 0.010343603361312627 0.04119818860144702
675027500.0 0.008283195963855365 0.04401501477294627
690027000.0 0.006019711559487389 0.04435619156995782
705026500.0 0.005586322859198956 0.048366442571268646
720026000.0 0.00193123811413375 0.055406276585640374
735025500.0 -0.00020900832271676935 0.06258788844948152
750025000.0 -0.0008650763035161066 0.06711492222759059
765024500.0 -0.004488687996903089 0.07564585329782755
780024000.0 -0.008649732952085097 0.08292612979674299
795023500.0 -0.011452940586157784 0.08666604731217795
810023000.0 -0.013438780840748739 0.08776247183762609
825022500.0 -0.016461291736778495 0.09264013799546389
840022000.0 -0.016898542940168914 0.09452759977949372
855021500.0 -0.014448148023202625 0.09724911649275937
870021000.0 -0.019253899902827623 0.0973256312273278
885020500.0 -0.022488340242669897 0.09462015449422115
900020000.0 -0.01640712352212454 0.11004574437446443
915019500.0 -0.0102398970461091 0.1047379647327993
930019000.0 -0.016893595672215784 0.1013506226412039
945018500.0 -0.01638428533671052 0.09387938374252282
960018000.0 -0.018503323913981646 0.09193678150562161
975017500.0 -0.020767009048059604 0.09035550954097023
990017000.0 -0.018425824818316835 0.08103263755579208
1005016500.0 -0.015128063433746734 0.07556081243818884
1020016000.0 -0.013638792591400557 0.05424027955803486
1035015500.0 -0.01177643778222876 0.048981586043262464
1050015000.0 -0.021099446830585324 0.06561864290662296
1065014500.0 0.003063460888264545 0.0378705720000101
1080014000.0 0.02186071103947204 0.031184861677710406
1095013500.0 0.020751650629566035 0.01303110275889807
1110013000.0 0.021197093787560142 0.054290763785531396
1125012500.0 0.018636437867434425 0.05098423907711225
1140012000.0 0.01393247473346222 0.059519455274380385
1155011500.0 0.027875975215609645 0.04990899785186459
1170011000.0 0.02529090919706276 0.1092992314316657
1185010500.0 0.012907988671685178 0.10511711638097844
1200010000.0 -0.02191844977083572 0.14206763110426754
1215009500.0 -0.03600489817369822 0.1334316179670335
1230009000.0 -0.053448333013642046 0.12998641069200256
1245008500.0 -0.07801717682744583 0.1445652693593509
1260008000.0 -0.0819675332516944 0.1257255174514375
1275007500.0 -0.09860060650646964 0.13534518826330583
1290007000.0 -0.10535303340067782 0.12471441803182334
1305006500.0 -0.11211747816752374 0.09186180860173343
1320006000.0 -0.11670178691761532 0.09973481509202371
1335005500.0 -0.12424764157136058 0.06858530710355176
1350005000.0 -0.12696629319896996 0.03617591951272565
1365004500.0 -0.13273746857125132 -0.011718340041619998
1380004000.0 -0.11722417964940196 -0.04854224929070509
1395003500.0 -0.11220700296136686 -0.07823887371108018
1410003000.0 -0.09900931921650469 -0.1596829291515568
1425002500.0 -0.06269388890456325 -0.2436240268153207
1440002000.0 0.04840502306266154 -0.25664285611012977
1455001500.0 0.14338721362048823 -0.26460420608767804
1470001000.0 0.26179600745883147 -0.16123379138420327
1485000500.0 0.26406879458199517 -0.0815718745085934
1500000000.0 0.21026664194359648 -0.031001577349680582
