! Created with skrf 1.8.0 (http://scikit-rf.org).
# Hz S RI R 50.0 
!freq ReS11 ImS11
50000.0 1.310008767152121 2.846116647583303
15049500.0 0.7546655849748384 2.444648981179587
30049000.0 -0.9837624311756339 1.732858536996121
45048500.0 -4.211697665443514 5.0675498867530955
60048000.0 -2.4763349373237116 -0.8169253817999264
75047500.0 -2.6684605526022667 1.0658676968461134
90047000.0 1.1903793751958784 0.8934620892517067
105046500.0 0.2277460320451364 0.7295647509025173
120046000.0 -1.7324277398601122 -0.9042425003704311
135045500.0 -1.749485215767074 1.404882658558053
150045000.0 -0.4831338841524049 4.150138558913542
165044500.0 -0.5053631891252544 -0.8392502553075873
180044000.0 1.2101417310012625 0.23438984385147685
195043500.0 -1.561548842452028 1.3940411233336618
210043000.0 -0.2910490829224187 -1.4383298785156045
225042500.0 -0.8708056691500388 0.8379263507389237
240042000.0 0.2514872130312091 0.8012420975849637
255041500.0 0.3001360739496061 0.826377240916039
270041000.0 -0.26182760918402825 0.08909564439032625
285040500.0 0.8408128987913617 1.247379135055879
300040000.0 2.5209953758886523 1.6994158066142468
315039500.0 -0.5719337597417393 1.1613554614016073
330039000.0 2.3814020470595123 -0.2033140330028472
345038500.0 0.6337387998025219 -0.49617704706392873
360038000.0 -0.22593952788298208 2.6326564974005606
375037500.0 4.711500109149034 0.6552253932060775
390037000.0 2.350086176166171 2.587410528120878
405036500.0 -2.3235773306332517 -2.3596833794438457
420036000.0 1.7900633812933964 -0.7702931115497238
435035500.0 -1.4700109459283035 -4.02272598894459
450035000.0 -6.481980865331718 -13.236294594427374
465034500.0 0.034982810855554686 1.0509006152621954
480034000.0 -0.6125053509867906 -0.03792880891695416
495033500.0 0.5067436836677907 -1.0264194856334792
510033000.0 -2.3917220552840854 -0.09138399967635914
525032500.0 1.003134858591824 -1.0681141663470803
540032000.0 -1.902050261307344 -1.279078838358302
555031500.0 1.6742457393140484 1.411687922913719
570031000.0 -0.4429725673286138 -0.8714971822506281
585030500.0 2.333115580072084 -4.488984212650625
600030000.0 1.3762301175723324 -0.6541078785560452
615029500.0 -0.16613025300890802 0.41534862749081203
630029000.0 -0.3785861760797444 0.9207027161683237
645028500.0 2.189351482072714 2.4081250769980516
660028000.0 -0.24750566030901824 0.6559104403065251
675027500.0 -1.2285751142457333 0.021395586038968913
690027000.0 -1.2344863250295934 3.324224440071778
705026500.0 1.3507750237184768 2.1092109142918734
720026000.0 -1.8439795475064409 0.4034140455139966
735025500.0 -0.8679252178564509 0.4526247767182559
750025000.0 -0.1235191050381191 -0.17872537503794075
765024500.0 -0.345465165118205 -3.5499701243807955
780024000.0 2.170254447574533 4.9464964049155915
795023500.0 -1.0030315573059927 -0.3840101592372337
810023000.0 -1.7803516691993098 0.5584568967183333
825022500.0 0.5817019547762037 0.08648843848750767
840022000.0 -0.5336252342113305 -1.714499414775306
855021500.0 -0.40618917114523834 1.281243106202115
870021000.0 0.6334631221544699 0.23221875349186444
885020500.0 6.91187063516518 -0.3816746370651561
900020000.0 -0.019233576945502113 -1.0105791825246935
915019500.0 -2.453013898845074 0.049842173265759245
930019000.0 3.2211211497618657 -4.7528756274366515
945018500.0 0.3612573764344376 1.2507166329111532
960018000.0 -1.4589772887740402 2.455923094971444
975017500.0 -3.107731670501616 0.12348590724374325
990017000.0 3.1498979993763103 1.4779118766330255
1005016500.0 0.10054462807835356 0.6010407186428224
1020016000.0 -2.2618653582216837 0.9782665264574643
1035015500.0 -0.5259295251674961 0.12268131366170447
1050015000.0 0.5266613580451379 -0.7190273330943668
1065014500.0 -0.7885559897077323 0.7232132378685897
1080014000.0 -0.48539281123095385 -1.0666069588274991
1095013500.0 2.4824255517822515 -0.5866567661357208
1110013000.0 0.22313044474319935 -0.48267751785654417
1125012500.0 0.8236544763716788 -2.6419596133891847
1140012000.0 -0.9691603530054088 1.3633027328210956
1155011500.0 0.3618314480552576 -0.8182653124784554
1170011000.0 1.5382306291081518 1.0121891382776023
1185010500.0 -1.814176759006777 -0.37248179219714755
1200010000.0 -1.3372164920139769 -0.3067972658658278
1215009500.0 1.3219588720167725 1.991324049142315
1230009000.0 -20.505756978256823 -1.0921058564341317
1245008500.0 0.18505425279233143 0.5086358408172369
1260008000.0 0.6330020714962008 1.2604666340177215
1275007500.0 -0.3281183043695992 -0.5808866451983133
1290007000.0 1.1080605165366566 0.9770094682918155
1305006500.0 0.5123785500625974 0.25329127873830354
1320006000.0 2.4721915566307118 -0.3740925937127284
1335005500.0 -0.3324152311130363 0.6526788916493922
1350005000.0 -0.884043410377521 3.7968534220092653
1365004500.0 0.9427139376209497 0.009555983800357036
1380004000.0 -1.6871416979709104 1.2706982544233765
1395003500.0 -17.173737253975993 -7.2439665847713
1410003000.0 -0.728978996672837 -1.1147456831051912
1425002500.0 2.409959229919039 -1.4145919646951206
1440002000.0 -0.6289510338125164 0.019244576513857626
1455001500.0 0.5991117027326345 -0.09180087878741865
1470001000.0 -0.8206066415447094 3.985950860323448
1485000500.0 -0.05948626736971919 -1.043055806838257
1500000000.0 1.3535317352949991 -0.05328915651631289
