! Created with skrf 1.8.0 (http://scikit-rf.org).
# Hz S RI R 50.0 
!freq ReS11 ImS11
50000.0 -7.54367358944949 12.102188307516077
15049500.0 -0.4982547901423051 -2.295152662770186
30049000.0 0.011028125530892354 -8.777477762751811
45048500.0 2.0708420473649913 -0.09552842819555306
60048000.0 0.689114691837277 -0.45844606009264843
75047500.0 -0.08945592952355001 -0.21562790019740782
90047000.0 1.5903016469751134 -1.2635751359356924
105046500.0 1.0192317531758832 0.4546845489564651
120046000.0 0.5588300788334309 0.385398252611419
135045500.0 0.4168012684692822 -0.9319887691624579
150045000.0 0.28362119679781084 -0.45391558472414156
165044500.0 0.41221104654787466 -1.95855178169749
180044000.0 -0.2282008238273449 1.460789222327114
195043500.0 -4.719992018258912 -9.80372866263439
210043000.0 1.1605822355566566 1.4069668240052207
225042500.0 -0.2666214509284251 2.2733461201845895
240042000.0 1.6862146062896288 -0.11893752015535174
255041500.0 1.074128873946558 -1.8166075384550007
270041000.0 -0.5185241317611623 2.587925417585733
285040500.0 1.1325384111876746 0.07192524412865672
300040000.0 -4.250753437261986 -0.3327612262477251
315039500.0 0.619710668984378 1.5611107927292984
330039000.0 -2.6114947013402765 -0.23410372921067787
345038500.0 1.2663029342056125 1.1080949117236432
360038000.0 0.15804261219115004 -1.8633913199930192
375037500.0 -0.8463769951801114 -0.08688891563860013
390037000.0 0.4230997108279146 0.10209597962663583
405036500.0 1.071414406091321 -1.3877070034344623
420036000.0 -1.6089192866225372 -5.050508678797242
435035500.0 -0.41475664028174064 0.019036863691844708
450035000.0 0.12226270022326888 1.2897286984523177
465034500.0 -9.047605469673952 -0.25248123849769
480034000.0 6.9897399917733045 -4.917237965696608
495033500.0 -1.8923719900845781 1.226358228966361
510033000.0 -1.6739374377257872 -0.38166973360663364
525032500.0 5.085307230142093 0.8916617220240527
540032000.0 -2.205736086996965 -0.061671033762383774
555031500.0 1.6080182333389017 -0.7582626272648995
570031000.0 5.832801388558475 -1.6472591187740309
585030500.0 1.1170743221772674 5.575320814534618
600030000.0 0.027554574733411996 1.6448476108430194
615029500.0 3.4498736244447774 -0.1838168680319092
630029000.0 -1.4448748082966636 -0.46448475376575515
645028500.0 -4.209561999118615 4.304428120607633
660028000.0 -1.227746162096526 0.058051594822475544
675027500.0 0.9061146899541895 -1.0850342984837273
690027000.0 -2.1661018634051334 1.7121609480299125
705026500.0 1.0307968467137483 0.010979648227564429
720026000.0 2.210062858722806 0.7201131652838846
735025500.0 1.8353836569604909 -1.5273004255743023
750025000.0 4.178677333950739 -3.1211850592234427
765024500.0 -1.3796435188736025 -2.090054873078117
780024000.0 -0.8672506466734131 0.5873947717493994
795023500.0 0.4680535873075904 -1.3375539288684084
810023000.0 -2.644075476291529 1.7442924706937966
825022500.0 0.8062539965944562 0.012100381744982704
840022000.0 -1.8326076248439513 1.501524784440487
855021500.0 0.15551996842196636 -1.1845988459617338
870021000.0 -8.180019073522049 0.286175398664247
885020500.0 -0.772567344997948 -0.30552658003904215
900020000.0 0.36542174042541253 -2.191692100688734
915019500.0 -0.9009584408391592 1.7385668240424275
930019000.0 2.494725885393053 -2.2285146012620762
945018500.0 0.24585723838433823 1.2020413554745162
960018000.0 1.1869617600074118 1.8342473124986747
975017500.0 -0.7599714542534264 0.3684903463289755
990017000.0 0.7493401833957715 -1.2235193742988084
1005016500.0 -0.6956663737623566 -0.6052638889507403
1020016000.0 1.9546857589524531 -0.802798558298835
1035015500.0 -1.073543881582557 0.759624204445591
1050015000.0 -0.35561739149227306 2.0634322609439595
1065014500.0 -0.18643457665403568 -0.7985127770009175
1080014000.0 -0.6081460737376644 0.7261441903440812
1095013500.0 -0.3950937384593548 -0.86064835474047
1110013000.0 -0.003515749469916573 1.1954019906938071
1125012500.0 -1.2625471982935554 1.0397591258319805
1140012000.0 -0.3846870921750999 -0.05163786493552287
1155011500.0 4.333024810312424 2.402831225076736
1170011000.0 -1.098760890385335 1.6458486709830444
1185010500.0 -0.4150928713180675 1.8342166125875055
1200010000.0 -1.6065025156200394 0.9033037100743426
1215009500.0 2.715602476478679 -0.8777955114668451
1230009000.0 1.289421081544452 -1.022656521117264
1245008500.0 -6.1907687936799665 -0.2454808458376765
1260008000.0 1.5294441917875063 -0.6687580014436276
1275007500.0 -1.4430399601048736 -0.775942898985989
1290007000.0 -0.8079223844785863 0.8748982371725278
1305006500.0 -0.49183624665742776 -0.3122239817119034
1320006000.0 0.32492370304464624 0.2548147089017353
1335005500.0 -3.1675826047061135 -0.5982383020421056
1350005000.0 -0.23899829664334896 2.2312734658288167
1365004500.0 -0.44758140186466 2.1461704633787515
1380004000.0 -0.7387815216780976 0.8323278450193324
1395003500.0 3.4464918250994026 1.1004290423143415
1410003000.0 0.15273822696598133 1.3435090510867211
1425002500.0 -2.027306788243425 0.96939173714637
1440002000.0 5.331633317215468 -0.2426134628296247
1455001500.0 -1.8725088007934239 0.32483683907795863
1470001000.0 -0.4318969553995424 -1.4617382693387722
1485000500.0 0.3175301205444174 1.4721870529457977
1500000000.0 -1.768517860664833 -0.5316827348236215
