! Created with skrf 1.8.0 (http://scikit-rf.org).
# Hz S RI R 50.0 
!freq ReS11 ImS11
50000.0 -0.991195968 -0.000630909
15049500.0 -0.988632768 -0.010723904
30049000.0 -0.98739136 -0.023341926
45048500.0 -0.986460736 -0.036845932
60048000.0 -0.985872896 -0.050722436
75047500.0 -0.985876672 -0.064966292
90047000.0 -0.984408768 -0.080786128
105046500.0 -0.98354016 -0.09660576
120046000.0 -0.982680256 -0.112448248
135045500.0 -0.981206272 -0.129321456
150045000.0 -0.980764928 -0.14549064
165044500.0 -0.978554688 -0.16201416
180044000.0 -0.977299904 -0.17822168
195043500.0 -0.9754624 -0.194891024
210043000.0 -0.972042944 -0.21118352
225042500.0 -0.966893312 -0.227410368
240042000.0 -0.962492096 -0.241480352
255041500.0 -0.957031424 -0.25534704
270041000.0 -0.951920768 -0.266748432
285040500.0 -0.946320384 -0.2783984
300040000.0 -0.938696576 -0.286027136
315039500.0 -0.933586688 -0.295269504
330039000.0 -0.928810112 -0.302776704
345038500.0 -0.923359936 -0.312983424
360038000.0 -0.918096384 -0.319310304
375037500.0 -0.910306048 -0.327791296
390037000.0 -0.900359808 -0.333469408
405036500.0 -0.898163968 -0.345395456
420036000.0 -0.892127424 -0.353897856
435035500.0 -0.885772096 -0.365365536
450035000.0 -0.874482304 -0.376613792
465034500.0 -0.870685056 -0.39086736
480034000.0 -0.862662272 -0.398706592
495033500.0 -0.856341568 -0.412037792
510033000.0 -0.849253568 -0.42716048
525032500.0 -0.843897984 -0.441359904
540032000.0 -0.836819712 -0.459081792
555031500.0 -0.834575552 -0.47460224
570031000.0 -0.83040096 -0.492114528
585030500.0 -0.823372992 -0.507271936
600030000.0 -0.813561408 -0.53610544
615029500.0 -0.804905856 -0.555291648
630029000.0 -0.791155008 -0.575601984
645028500.0 -0.778251072 -0.593896
660028000.0 -0.768683456 -0.606130752
675027500.0 -0.752047232 -0.619915904
690027000.0 -0.7404432 -0.632562048
705026500.0 -0.73348192 -0.642097024
720026000.0 -0.72123104 -0.647877952
735025500.0 -0.706367616 -0.658392448
750025000.0 -0.69143616 -0.65889824
765024500.0 -0.683844544 -0.664027712
780024000.0 -0.683378752 -0.665780096
795023500.0 -0.668745792 -0.669354624
810023000.0 -0.659383488 -0.671324096
825022500.0 -0.652432448 -0.671067328
840022000.0 -0.645046208 -0.671794624
855021500.0 -0.641427904 -0.670952064
870021000.0 -0.634527104 -0.671854208
885020500.0 -0.628976128 -0.67264256
900020000.0 -0.653633792 -0.660927744
915019500.0 -0.646472192 -0.667086272
930019000.0 -0.629959808 -0.694198336
945018500.0 -0.63143968 -0.712461184
960018000.0 -0.611929344 -0.73139648
975017500.0 -0.594993728 -0.739980224
990017000.0 -0.571585024 -0.755100736
1005016500.0 -0.559347328 -0.7676112
1020016000.0 -0.546373248 -0.782188032
1035015500.0 -0.521973312 -0.786654848
1050015000.0 -0.455871744 -0.810084096
1065014500.0 -0.491109728 -0.833785664
1080014000.0 -0.501398624 -0.834721728
1095013500.0 -0.485498496 -0.851194688
1110013000.0 -0.476568352 -0.893750016
1125012500.0 -0.476638368 -0.916853888
1140012000.0 -0.436104416 -0.914386176
1155011500.0 -0.390830528 -0.992289024
1170011000.0 -0.407699904 -0.970856768
1185010500.0 -0.397460992 -0.98325792
1200010000.0 -0.370960832 -1.000743628
1215009500.0 -0.325267232 -0.971890048
1230009000.0 -0.294714272 -0.97573504
1245008500.0 -0.272892864 -0.949204224
1260008000.0 -0.27178784 -0.965791872
1275007500.0 -0.254486976 -0.928555968
1290007000.0 -0.26628176 -0.917429568
1305006500.0 -0.20870608 -0.903384384
1320006000.0 -0.237583136 -0.927617472
1335005500.0 -0.21735848 -0.900180736
1350005000.0 -0.214633584 -0.978030336
1365004500.0 -0.166924 -1.020398498
1380004000.0 -0.168249824 -1.078586104
1395003500.0 -0.120491448 -1.173205488
1410003000.0 -0.028876694 -1.208080656
1425002500.0 0.103177848 -1.213751072
1440002000.0 0.273505376 -1.164200656
1455001500.0 0.475376928 -1.112198952
1470001000.0 0.517183232 -0.956413184
1485000500.0 0.660354048 -0.84342144
1500000000.0 0.722051456 -0.613427072
