! Created with skrf 1.8.0 (http://scikit-rf.org).
# Hz S RI R 50.0 
!freq ReS11 ImS11
50000.0 0.00013055349364067 -5.567511048891752e-05
15049500.0 0.00029464903816145757 0.0002570070586747293
30049000.0 0.0005871198722548216 0.0025609853288834942
45048500.0 5.472026144220431e-05 -0.00017333896026676946
60048000.0 -2.2492876512369156e-05 -0.0004419771293938852
75047500.0 -0.00048270373382115875 4.048941140753707e-05
90047000.0 -0.007261869864163136 -0.000508977061818494
105046500.0 -8.640696094636161e-05 -0.00016735437233938508
120046000.0 -6.198047929573163e-05 4.6454621793713516e-05
135045500.0 0.002534353957809705 -0.0004371266143834006
150045000.0 0.0006419434251883232 0.001010012743545667
165044500.0 0.0005302933898877472 0.0005221168520961483
180044000.0 -0.0011847938047968192 0.0009228238686195802
195043500.0 -0.00011860583725619423 -2.1346525258657514e-05
210043000.0 -0.0002784421569072186 -0.0009938801841791098
225042500.0 -0.0011971615859925487 -0.0014227324510062134
240042000.0 -0.00013696323544841186 -0.000667655015819758
255041500.0 -0.0005418741940031822 0.0002504095005932582
270041000.0 -0.00040880619801043964 0.0001881571936776613
285040500.0 -0.008031642635511128 0.00422514297062312
300040000.0 0.012845598783139522 0.03963415777188891
315039500.0 -0.0008473078833997147 0.002149475563760487
330039000.0 0.0006736230336635875 0.0017956196492605067
345038500.0 -0.0013519024307762895 -0.0006511197835727807
360038000.0 0.0028781828745927606 0.005752965676537238
375037500.0 0.00038320644677078923 -0.001483656110230332
390037000.0 -0.0006592600578425884 0.004504331783820216
405036500.0 0.0008782868408820884 0.0006891233517640802
420036000.0 3.850264443233271e-05 -0.0005360787524990273
435035500.0 0.00010499405448831923 -0.0009766477793698364
450035000.0 -0.003618966791265302 -0.01601333914577155
465034500.0 0.007493900762893145 -0.0038469783067297085
480034000.0 0.021106731526068793 0.0016264917079761737
495033500.0 0.0012920813648589326 0.00037487996771635323
510033000.0 0.0011907841945839664 -2.6566094428613193e-05
525032500.0 -0.0016987651496780836 0.0020575294056181825
540032000.0 -0.006052279886421462 0.011643269843829887
555031500.0 -0.0014783963616642078 -0.005025184729410137
570031000.0 -0.00037551473315197947 -0.0004808805067980947
585030500.0 0.005659091490807603 0.0015883098244873239
600030000.0 -0.011413879585833566 0.003056762181413329
615029500.0 0.013868658772688879 -0.0014220204523640754
630029000.0 -0.0027384443945176603 -0.0017427606666496282
645028500.0 0.007619736975888718 -0.0020370359451697593
660028000.0 0.009561826492404531 0.0013841831076663676
675027500.0 0.0015872637750400436 0.002337704646158149
690027000.0 -0.0029660813104023993 0.0033559378666091046
705026500.0 -0.0016082671766132945 -0.019692645731299366
720026000.0 -0.0016986379010518059 0.005801039681634316
735025500.0 -0.014366608475245254 0.017931030597846974
750025000.0 -0.013058751894264812 0.0035948024450876298
765024500.0 -0.002056825151257478 -0.0029997518326629435
780024000.0 -0.0060292961933606105 0.042286290646642966
795023500.0 -0.03900799195807367 0.0447533047404499
810023000.0 0.004126345998036082 0.0019386683802453727
825022500.0 -0.015398472231588373 -0.0035218761155105926
840022000.0 0.011265449574743108 -0.003478307041713544
855021500.0 -0.0013619799431996073 0.003601847346917363
870021000.0 0.00045115417324041626 -0.001961906393465606
885020500.0 -0.0022528106144738104 0.0030490818467913882
900020000.0 -0.0042509072390453755 -0.00798267372421014
915019500.0 -0.008456506685055274 -0.1639815155132765
930019000.0 -0.026483563157223684 0.03922012788161488
945018500.0 0.0006623025924630314 0.0004572373012875454
960018000.0 -0.0025004959693993825 -0.0019764084556154375
975017500.0 -0.011696642530947356 0.004238696234846721
990017000.0 0.015277879996647275 -0.02214158804452407
1005016500.0 -0.0020735104537743026 -0.0016236281876441144
1020016000.0 0.00863168016916193 -0.005799553007758447
1035015500.0 0.0036317413197875844 0.011087523601241898
1050015000.0 0.011248598388166579 -0.004174611472667968
1065014500.0 0.050927616736325676 0.04620414943716356
1080014000.0 0.005983837186199859 0.01261155499055534
1095013500.0 0.13076510540401393 0.0018121689980989796
1110013000.0 -0.032438276100730086 0.004667559162801187
1125012500.0 -0.015799515858367245 -0.00402846467489043
1140012000.0 0.0025207045090737275 -0.026096724459976864
1155011500.0 0.05619683257463993 0.059911215933840786
1170011000.0 -0.0036883370226652233 -0.01877165478025033
1185010500.0 0.025676353527778563 0.011247189775399697
1200010000.0 -5.671634134621497e-05 0.0322213949125442
1215009500.0 0.011838923125438718 -0.015438183726369856
1230009000.0 0.03059819591808422 -0.021623179067664283
1245008500.0 0.014976424851843067 0.017654221129331953
1260008000.0 0.004842553083401696 -0.0057269921059968296
1275007500.0 -0.008017197952052062 -0.0014937498732376902
1290007000.0 0.09566806161096025 -0.00806951991382887
1305006500.0 -0.012139650446149475 0.006986265484394893
1320006000.0 0.030049135041070596 -0.08842969405572584
1335005500.0 -0.03360850652090752 0.029781852417638963
1350005000.0 0.045712248789014025 0.0044532425749896805
1365004500.0 0.014025940653463855 -0.08405372016558392
1380004000.0 -0.037570267134061294 -0.1324497312690291
1395003500.0 -0.02145557919447524 -0.05039802317746361
1410003000.0 0.015075636294195748 0.06954759718134862
1425002500.0 0.03102397733940824 -0.006629235275158406
1440002000.0 -0.037741958239131686 0.02509163146928333
1455001500.0 -0.012180396572367089 0.06043594488040132
1470001000.0 0.02796045533090909 0.005889513653508331
1485000500.0 -0.06593076070096332 -0.00048303941230162654
1500000000.0 0.08577674878998147 -0.021800672735463104
