! Created with skrf 1.8.0 (http://scikit-rf.org).
# Hz S RI R 50.0 
!freq ReS11 ImS11
50000.0 1.2708189970270516 -0.11216956417696107
15049500.0 -0.6224314707008907 -0.8064485360714007
30049000.0 5.732697576547578 4.629874569601581
45048500.0 1.0588022028613522 -0.34428310499460696
60048000.0 1.128089675549939 -1.3921269629233484
75047500.0 2.4715625038292868 -0.37475008775239005
90047000.0 10.149066791872167 11.312924052126428
105046500.0 -0.3624058009784451 -0.9273984925776747
120046000.0 0.8412199475043342 -0.009499727422270782
135045500.0 2.588425507911896 -0.262027872377671
150045000.0 -1.9909391018228517 -1.7633692853580514
165044500.0 1.4782666204330335 2.7235761198828428
180044000.0 3.717199792392134 -0.972767107972231
195043500.0 -0.036031224441822995 -0.1483400685149221
210043000.0 0.4903914561148654 1.8636873875463482
225042500.0 -0.9699875858900417 -2.177003384517698
240042000.0 -0.2276554841335945 0.5156131491900476
255041500.0 0.0660270646737275 -0.16174647660958402
270041000.0 1.303234535449371 0.5298938610905132
285040500.0 -6.020781897787169 3.8092838256262507
300040000.0 4.15379043398854 7.735335439080325
315039500.0 -0.7249419514532374 0.6173756817224904
330039000.0 0.4201881900962323 -0.5421703203461793
345038500.0 1.4888533508897495 -0.9644309142963897
360038000.0 0.6268009930912924 -2.4262405521711607
375037500.0 -0.14896715205728034 -0.5636849113827667
390037000.0 1.0759002115993155 0.8550789813057276
405036500.0 0.22748162525184007 0.4632154173660886
420036000.0 0.8074772227841088 0.47369228792468493
435035500.0 -1.339440297260671 -0.39951160594662843
450035000.0 -1.4458865969218828 -1.789571866661878
465034500.0 1.4699608287356583 2.1648117953414214
480034000.0 1.6808402770958881 -5.767174953641753
495033500.0 0.6320160438893764 -0.5743978442397083
510033000.0 -0.6047180617468436 -0.4129534221536675
525032500.0 2.034915306918181 -0.3827323280138807
540032000.0 -2.5214961957653963 5.4774001025548404
555031500.0 0.44140760062725276 2.6395723793951005
570031000.0 -0.516280258592871 0.235487487372215
585030500.0 1.7529830393299695 -0.7975177364765615
600030000.0 -3.9466414608903544 2.4560245667443197
615029500.0 -4.674770425974548 -3.547385639271242
630029000.0 0.05106536553327039 -1.0702412632762945
645028500.0 0.9683487853078949 1.6142016463995046
660028000.0 -2.471560844704116 -0.14874531924798445
675027500.0 -0.5012795429771808 0.24302904381912982
690027000.0 -0.2932939177265231 -0.3489199787710484
705026500.0 -2.697908781944688 4.016977183931009
720026000.0 0.2681723962476315 -1.5090492389428478
735025500.0 -5.278067372699208 -1.4921973090578398
750025000.0 -2.067456115065042 1.3948339536382772
765024500.0 0.29989374459220447 -0.8850657348645732
780024000.0 0.4504355682537843 -2.1659209777721213
795023500.0 -29.72952566188491 -11.47100243406455
810023000.0 -0.26796232902957773 1.3123970248198973
825022500.0 0.574797917651008 -7.689160682086938
840022000.0 0.6138179348143781 3.350664185327705
855021500.0 0.17009207110681868 -0.5383207340482913
870021000.0 -0.1639380395378397 0.2187658219912775
885020500.0 0.3082372062206377 0.4119974116009634
900020000.0 0.17232613224365462 1.6900253264383276
915019500.0 -10.960277317529666 6.428582302034243
930019000.0 -6.97180796414325 6.902477081415634
945018500.0 1.0994058440503744 -0.10617548098132634
960018000.0 0.13159221319026812 -0.009795038097573391
975017500.0 0.10932474578715487 1.0528002243508006
990017000.0 -0.031316699466123483 -2.5473900221443064
1005016500.0 -0.9861832499144053 0.237530572435263
1020016000.0 -0.5082822229249684 0.7639972617851339
1035015500.0 -0.2643527764214342 -0.37039491749502834
1050015000.0 1.2602124756690403 -0.011730949368172889
1065014500.0 -2.351542205721343 4.342265969000781
1080014000.0 -0.712078465811083 -0.4270295155197634
1095013500.0 0.7330533880668126 -6.628965985362017
1110013000.0 -2.0714099147295952 -1.8600201007521857
1125012500.0 0.26317769383675427 0.4723387988129222
1140012000.0 -1.5071042566600892 -1.1221065715909917
1155011500.0 0.875348045461729 0.7741222084186179
1170011000.0 -0.4259556485425115 -0.013164234409545443
1185010500.0 -1.7252040246755331 -1.2009023161600976
1200010000.0 -1.4793596496393828 -0.6310857282648632
1215009500.0 0.42552114782249106 -0.6314788840422492
1230009000.0 0.9554846788391036 -1.2524532354669011
1245008500.0 -1.2319173771290775 -1.2174681025053176
1260008000.0 0.6414263166585388 0.09779340646026927
1275007500.0 -0.6199912524234723 0.20806621790389757
1290007000.0 -2.334551688770236 1.1002959178226925
1305006500.0 -1.342433405566408 0.1878266182939468
1320006000.0 2.195411502893542 2.0082291413360163
1335005500.0 -0.09594493729770254 2.5089555480490766
1350005000.0 -0.11989653325958255 0.8390443833372995
1365004500.0 0.02686964331238328 -0.8303196005868422
1380004000.0 -0.3279293572942641 -2.4808132991345033
1395003500.0 -2.1701714539100827 -1.3246486585248152
1410003000.0 0.07105482433639256 -0.7832823760014495
1425002500.0 0.6241351358803836 1.0661673128577844
1440002000.0 -0.47898429916387497 0.15846154948830649
1455001500.0 -1.091483591223652 0.7787280262035671
1470001000.0 -0.9685105795100666 -0.6228002148316186
1485000500.0 0.316077579586522 0.5453053873762785
1500000000.0 0.1642000690163442 -0.607819117950941
