! Created with skrf 1.8.0 (http://scikit-rf.org).
# Hz S RI R 50.0 
!freq ReS11 ImS11 ReS21 ImS21 ReS12 ImS12 ReS22 ImS22
50000.0 0.0 0.0 0.000135973 3.2844e-05 0.0 0.0 0.0 0.0
15049500.0 0.0 0.0 -6.9107e-05 -2.1775e-05 0.0 0.0 0.0 0.0
30049000.0 0.0 0.0 1.3813e-05 4.1964e-05 0.0 0.0 0.0 0.0
45048500.0 0.0 0.0 8.274e-05 5.4919e-05 0.0 0.0 0.0 0.0
60048000.0 0.0 0.0 4.6239e-05 5.2e-05 0.0 0.0 0.0 0.0
75047500.0 0.0 0.0 6.4511e-05 7.0827e-05 0.0 0.0 0.0 0.0
90047000.0 0.0 0.0 -8.192e-06 5.4131e-05 0.0 0.0 0.0 0.0
105046500.0 0.0 0.0 -2.5749e-05 -1.004e-05 0.0 0.0 0.0 0.0
120046000.0 0.0 0.0 -7.831e-06 2.118e-06 0.0 0.0 0.0 0.0
135045500.0 0.0 0.0 -2.3238e-05 6.185e-05 0.0 0.0 0.0 0.0
150045000.0 0.0 0.0 -3.2101e-05 7.0415e-05 0.0 0.0 0.0 0.0
165044500.0 0.0 0.0 2.0081e-05 5.7202e-05 0.0 0.0 0.0 0.0
180044000.0 0.0 0.0 -3.961e-06 6.2169e-05 0.0 0.0 0.0 0.0
195043500.0 0.0 0.0 -4.6888e-05 3.067e-06 0.0 0.0 0.0 0.0
210043000.0 0.0 0.0 -4.6481e-05 3.7619e-05 0.0 0.0 0.0 0.0
225042500.0 0.0 0.0 -5.7428e-05 4.2006e-05 0.0 0.0 0.0 0.0
240042000.0 0.0 0.0 -6.949e-05 3.4258e-05 0.0 0.0 0.0 0.0
255041500.0 0.0 0.0 -7.5319e-05 8.2964e-05 0.0 0.0 0.0 0.0
270041000.0 0.0 0.0 -2.7491e-05 8.8016e-05 0.0 0.0 0.0 0.0
285040500.0 0.0 0.0 -6.0202e-05 2.3071e-05 0.0 0.0 0.0 0.0
300040000.0 0.0 0.0 0.000478901 0.000648842 0.0 0.0 0.0 0.0
315039500.0 0.0 0.0 7.7585e-05 0.00040144 0.0 0.0 0.0 0.0
330039000.0 0.0 0.0 -2.938e-06 0.000488014 0.0 0.0 0.0 0.0
345038500.0 0.0 0.0 -0.00058102 -0.000332926 0.0 0.0 0.0 0.0
360038000.0 0.0 0.0 -0.000720604 0.00012418 0.0 0.0 0.0 0.0
375037500.0 0.0 0.0 -0.000463286 -9.5e-06 0.0 0.0 0.0 0.0
390037000.0 0.0 0.0 -0.000311155 0.000173716 0.0 0.0 0.0 0.0
405036500.0 0.0 0.0 -0.000379895 -0.000361651 0.0 0.0 0.0 0.0
420036000.0 0.0 0.0 -0.000370223 -0.000440936 0.0 0.0 0.0 0.0
435035500.0 0.0 0.0 -0.000791592 0.000290582 0.0 0.0 0.0 0.0
450035000.0 0.0 0.0 -0.000118426 -0.000263454 0.0 0.0 0.0 0.0
465034500.0 0.0 0.0 0.000219968 -0.000191057 0.0 0.0 0.0 0.0
480034000.0 0.0 0.0 -0.000215237 -0.000604032 0.0 0.0 0.0 0.0
495033500.0 0.0 0.0 0.000399339 -0.000689519 0.0 0.0 0.0 0.0
510033000.0 0.0 0.0 -0.000133959 -0.000755716 0.0 0.0 0.0 0.0
525032500.0 0.0 0.0 0.000174713 -0.000506364 0.0 0.0 0.0 0.0
540032000.0 0.0 0.0 -0.000288414 -0.001667602 0.0 0.0 0.0 0.0
555031500.0 0.0 0.0 0.000277437 -0.000850989 0.0 0.0 0.0 0.0
570031000.0 0.0 0.0 0.00086487 -0.00061673 0.0 0.0 0.0 0.0
585030500.0 0.0 0.0 0.001137899 -0.000662068 0.0 0.0 0.0 0.0
600030000.0 0.0 0.0 0.000397959 -0.001083649 0.0 0.0 0.0 0.0
615029500.0 0.0 0.0 0.00075399 -0.000292226 0.0 0.0 0.0 0.0
630029000.0 0.0 0.0 0.000800266 -0.000350029 0.0 0.0 0.0 0.0
645028500.0 0.0 0.0 0.000903537 -6.931e-05 0.0 0.0 0.0 0.0
660028000.0 0.0 0.0 0.000903941 -0.000188846 0.0 0.0 0.0 0.0
675027500.0 0.0 0.0 0.000682215 -0.000331055 0.0 0.0 0.0 0.0
690027000.0 0.0 0.0 0.00038906 0.000417568 0.0 0.0 0.0 0.0
705026500.0 0.0 0.0 0.000570088 0.000195979 0.0 0.0 0.0 0.0
720026000.0 0.0 0.0 0.000653469 8.8114e-05 0.0 0.0 0.0 0.0
735025500.0 0.0 0.0 -0.000221807 0.001135243 0.0 0.0 0.0 0.0
750025000.0 0.0 0.0 0.000735447 0.000128025 0.0 0.0 0.0 0.0
765024500.0 0.0 0.0 0.000757217 0.000788312 0.0 0.0 0.0 0.0
780024000.0 0.0 0.0 -0.000688325 0.000611043 0.0 0.0 0.0 0.0
795023500.0 0.0 0.0 0.000497516 0.000362107 0.0 0.0 0.0 0.0
810023000.0 0.0 0.0 -0.000155932 0.00026262 0.0 0.0 0.0 0.0
825022500.0 0.0 0.0 -0.001025958 0.000530324 0.0 0.0 0.0 0.0
840022000.0 0.0 0.0 0.000101158 0.001309319 0.0 0.0 0.0 0.0
855021500.0 0.0 0.0 -0.000723013 0.000267154 0.0 0.0 0.0 0.0
870021000.0 0.0 0.0 -0.000374579 0.000295087 0.0 0.0 0.0 0.0
885020500.0 0.0 0.0 -0.000599617 -0.000136686 0.0 0.0 0.0 0.0
900020000.0 0.0 0.0 0.004401625 0.000664183 0.0 0.0 0.0 0.0
915019500.0 0.0 0.0 -0.001017156 -0.000274889 0.0 0.0 0.0 0.0
930019000.0 0.0 0.0 -0.002317873 -0.003403172 0.0 0.0 0.0 0.0
945018500.0 0.0 0.0 -0.003505148 -0.001884837 0.0 0.0 0.0 0.0
960018000.0 0.0 0.0 0.001291077 -0.001977688 0.0 0.0 0.0 0.0
975017500.0 0.0 0.0 0.00212324 0.001974671 0.0 0.0 0.0 0.0
990017000.0 0.0 0.0 0.001650049 0.003577328 0.0 0.0 0.0 0.0
1005016500.0 0.0 0.0 0.003953439 0.001165448 0.0 0.0 0.0 0.0
1020016000.0 0.0 0.0 0.002381283 0.00110575 0.0 0.0 0.0 0.0
1035015500.0 0.0 0.0 0.003276158 0.002292316 0.0 0.0 0.0 0.0
1050015000.0 0.0 0.0 0.00192935 0.000990879 0.0 0.0 0.0 0.0
1065014500.0 0.0 0.0 0.003859035 0.002644679 0.0 0.0 0.0 0.0
1080014000.0 0.0 0.0 0.000300606 0.0040646 0.0 0.0 0.0 0.0
1095013500.0 0.0 0.0 0.000452673 -0.002056587 0.0 0.0 0.0 0.0
1110013000.0 0.0 0.0 0.003951135 0.005819966 0.0 0.0 0.0 0.0
1125012500.0 0.0 0.0 0.001414372 0.002909915 0.0 0.0 0.0 0.0
1140012000.0 0.0 0.0 0.002840931 -0.002806196 0.0 0.0 0.0 0.0
1155011500.0 0.0 0.0 0.001407258 0.001753259 0.0 0.0 0.0 0.0
1170011000.0 0.0 0.0 -0.000754626 -0.001405213 0.0 0.0 0.0 0.0
1185010500.0 0.0 0.0 0.005136573 0.001169836 0.0 0.0 0.0 0.0
1200010000.0 0.0 0.0 -0.001081387 -0.004676233 0.0 0.0 0.0 0.0
1215009500.0 0.0 0.0 -0.006280373 -0.001835599 0.0 0.0 0.0 0.0
1230009000.0 0.0 0.0 -0.003095362 0.002027603 0.0 0.0 0.0 0.0
1245008500.0 0.0 0.0 -0.00374101 0.003810383 0.0 0.0 0.0 0.0
1260008000.0 0.0 0.0 0.010863778 0.000456236 0.0 0.0 0.0 0.0
1275007500.0 0.0 0.0 0.001235881 0.002028927 0.0 0.0 0.0 0.0
1290007000.0 0.0 0.0 0.000835752 -0.000677388 0.0 0.0 0.0 0.0
1305006500.0 0.0 0.0 -0.000984013 -0.002010896 0.0 0.0 0.0 0.0
1320006000.0 0.0 0.0 0.0002242 0.005027591 0.0 0.0 0.0 0.0
1335005500.0 0.0 0.0 0.00480123 0.002999307 0.0 0.0 0.0 0.0
1350005000.0 0.0 0.0 -0.008933792 0.007627068 0.0 0.0 0.0 0.0
1365004500.0 0.0 0.0 0.00030751 0.005560007 0.0 0.0 0.0 0.0
1380004000.0 0.0 0.0 0.006413621 -0.004218007 0.0 0.0 0.0 0.0
1395003500.0 0.0 0.0 0.000297563 0.009701742 0.0 0.0 0.0 0.0
1410003000.0 0.0 0.0 -0.007362635 0.001101996 0.0 0.0 0.0 0.0
1425002500.0 0.0 0.0 -0.001101865 3.1081e-05 0.0 0.0 0.0 0.0
1440002000.0 0.0 0.0 -0.0096906 0.012223564 0.0 0.0 0.0 0.0
1455001500.0 0.0 0.0 -0.005197861 -0.00555349 0.0 0.0 0.0 0.0
1470001000.0 0.0 0.0 -0.001226875 -0.002826055 0.0 0.0 0.0 0.0
1485000500.0 0.0 0.0 -0.024540544 0.011870536 0.0 0.0 0.0 0.0
1500000000.0 0.0 0.0 5.4367e-05 0.002401014 0.0 0.0 0.0 0.0
