! Created with skrf 1.8.0 (http://scikit-rf.org).
# Hz S RI R 50.0 
!freq ReS11 ImS11
50000.0 0.00722969 -0.004349762
15049500.0 0.019125906 0.004474421
30049000.0 0.01828183 0.006876968
45048500.0 0.015955024 0.00898759
60048000.0 0.01268863 0.011357542
75047500.0 0.00896637 0.014050146
90047000.0 0.00597417 0.015907804
105046500.0 0.003678862 0.017230532
120046000.0 0.002928071 0.01777124
135045500.0 0.003809179 0.016692282
150045000.0 0.005756803 0.01359749
165044500.0 0.00914791 0.00858843
180044000.0 0.013400434 0.001363703
195043500.0 0.01796882 -0.007909774
210043000.0 0.022301634 -0.018745406
225042500.0 0.025835374 -0.030203642
240042000.0 0.028259256 -0.041577124
255041500.0 0.029161158 -0.052269188
270041000.0 0.028008076 -0.061220624
285040500.0 0.025429914 -0.067806208
300040000.0 0.021714022 -0.071187096
315039500.0 0.016381676 -0.070996536
330039000.0 0.00972559 -0.0667772
345038500.0 0.002327566 -0.059675312
360038000.0 -0.004806432 -0.048584208
375037500.0 -0.010383454 -0.03457484
390037000.0 -0.016383108 -0.018345984
405036500.0 -0.01904323 -0.002486485
420036000.0 -0.020913412 0.014479562
435035500.0 -0.01977222 0.031246992
450035000.0 -0.019348524 0.043835616
465034500.0 -0.016491218 0.055608652
480034000.0 -0.012759506 0.06165636
495033500.0 -0.009376816 0.065192892
510033000.0 -0.004120358 0.062186572
525032500.0 0.000846441 0.054805396
540032000.0 0.00305611 0.042759904
555031500.0 0.006620952 0.027782004
570031000.0 0.006288741 0.007391389
585030500.0 0.005520343 -0.015518652
600030000.0 0.000986516 -0.037678816
615029500.0 -0.005515088 -0.06019882
630029000.0 -0.013023828 -0.083800248
645028500.0 -0.021234592 -0.101475912
660028000.0 -0.032326542 -0.119182304
675027500.0 -0.044407172 -0.130588544
690027000.0 -0.05430322 -0.138291552
705026500.0 -0.066068956 -0.138566448
720026000.0 -0.078125568 -0.135565744
735025500.0 -0.087085544 -0.124415152
750025000.0 -0.094728384 -0.110350176
765024500.0 -0.098121584 -0.091232264
780024000.0 -0.105306944 -0.06508006
795023500.0 -0.101074168 -0.04337758
810023000.0 -0.098018352 -0.019249154
825022500.0 -0.092759008 0.005836375
840022000.0 -0.086047104 0.02783823
855021500.0 -0.077975088 0.048346048
870021000.0 -0.068791664 0.062981436
885020500.0 -0.0601129 0.070659528
900020000.0 -0.0468167 0.075688864
915019500.0 -0.043116968 0.0739182
930019000.0 -0.037105036 0.066102012
945018500.0 -0.037728236 0.048127236
960018000.0 -0.038012456 0.0338335
975017500.0 -0.043103216 0.01636839
990017000.0 -0.046110504 -0.00993593
1005016500.0 -0.06376888 -0.03116097
1020016000.0 -0.071995776 -0.046081316
1035015500.0 -0.096020248 -0.071053912
1050015000.0 -0.101907432 -0.088012328
1065014500.0 -0.136779728 -0.0948904
1080014000.0 -0.147233088 -0.108755264
1095013500.0 -0.1687316 -0.123154952
1110013000.0 -0.184268432 -0.109981184
1125012500.0 -0.208712832 -0.105513928
1140012000.0 -0.22034616 -0.107921176
1155011500.0 -0.223922288 -0.092294744
1170011000.0 -0.21253752 -0.069147312
1185010500.0 -0.2212608 -0.053591608
1200010000.0 -0.198671808 -0.025180104
1215009500.0 -0.195147024 -0.004787595
1230009000.0 -0.187033488 0.029356744
1245008500.0 -0.164477888 0.044027344
1260008000.0 -0.143740496 0.072048624
1275007500.0 -0.128889856 0.08599632
1290007000.0 -0.108426888 0.11577632
1305006500.0 -0.090560536 0.096354872
1320006000.0 -0.07819412 0.129597768
1335005500.0 -0.06646008 0.112959568
1350005000.0 -0.061428884 0.094823544
1365004500.0 -0.060514584 0.096790224
1380004000.0 -0.076339152 0.13206896
1395003500.0 -0.107305296 0.090045992
1410003000.0 -0.111966272 0.067577256
1425002500.0 -0.17828456 0.032299496
1440002000.0 -0.22652432 0.038071284
1455001500.0 -0.233169856 -0.008440712
1470001000.0 -0.350442784 -0.077181752
1485000500.0 -0.303003104 -0.181895424
1500000000.0 -0.329830944 -0.228699312
