! Created with skrf 1.8.0 (http://scikit-rf.org).
# Hz S RI R 50.0 
!freq ReS11 ImS11 ReS21 ImS21 ReS12 ImS12 ReS22 ImS22
50000.0 0.0 0.0 6.7968e-05 8.1311e-05 0.0 0.0 0.0 0.0
15049500.0 0.0 0.0 4.844e-05 7.8991e-05 0.0 0.0 0.0 0.0
30049000.0 0.0 0.0 4.9728e-05 4.2257e-05 0.0 0.0 0.0 0.0
45048500.0 0.0 0.0 3.4565e-05 -3.222e-06 0.0 0.0 0.0 0.0
60048000.0 0.0 0.0 1.2547e-05 3.2555e-05 0.0 0.0 0.0 0.0
75047500.0 0.0 0.0 4.6436e-05 7.8143e-05 0.0 0.0 0.0 0.0
90047000.0 0.0 0.0 2.6027e-05 5.6826e-05 0.0 0.0 0.0 0.0
105046500.0 0.0 0.0 3.6234e-05 3.473e-05 0.0 0.0 0.0 0.0
120046000.0 0.0 0.0 -1.9548e-05 5.8412e-05 0.0 0.0 0.0 0.0
135045500.0 0.0 0.0 -5.6149e-05 4.7746e-05 0.0 0.0 0.0 0.0
150045000.0 0.0 0.0 2.8641e-05 8.114e-05 0.0 0.0 0.0 0.0
165044500.0 0.0 0.0 3.449e-06 9.119e-05 0.0 0.0 0.0 0.0
180044000.0 0.0 0.0 -3.5184e-05 4.9553e-05 0.0 0.0 0.0 0.0
195043500.0 0.0 0.0 -5.117e-05 7.1258e-05 0.0 0.0 0.0 0.0
210043000.0 0.0 0.0 -6.2136e-05 6.9427e-05 0.0 0.0 0.0 0.0
225042500.0 0.0 0.0 -5.5915e-05 7.2174e-05 0.0 0.0 0.0 0.0
240042000.0 0.0 0.0 -7.5015e-05 4.4106e-05 0.0 0.0 0.0 0.0
255041500.0 0.0 0.0 -9.8991e-05 4.9803e-05 0.0 0.0 0.0 0.0
270041000.0 0.0 0.0 -0.000113453 2.2816e-05 0.0 0.0 0.0 0.0
285040500.0 0.0 0.0 -9.2759e-05 7.1869e-05 0.0 0.0 0.0 0.0
300040000.0 0.0 0.0 -0.000660538 -0.000219171 0.0 0.0 0.0 0.0
315039500.0 0.0 0.0 -0.000238499 -0.000189671 0.0 0.0 0.0 0.0
330039000.0 0.0 0.0 0.000127897 0.000172742 0.0 0.0 0.0 0.0
345038500.0 0.0 0.0 0.000491184 0.000373744 0.0 0.0 0.0 0.0
360038000.0 0.0 0.0 0.000163548 -0.000392571 0.0 0.0 0.0 0.0
375037500.0 0.0 0.0 -0.000156048 3.632e-05 0.0 0.0 0.0 0.0
390037000.0 0.0 0.0 0.000306806 -0.000168764 0.0 0.0 0.0 0.0
405036500.0 0.0 0.0 0.000195198 0.000150367 0.0 0.0 0.0 0.0
420036000.0 0.0 0.0 -0.000281922 -0.000519319 0.0 0.0 0.0 0.0
435035500.0 0.0 0.0 -0.00016733 -0.000600082 0.0 0.0 0.0 0.0
450035000.0 0.0 0.0 0.000174897 -0.000542219 0.0 0.0 0.0 0.0
465034500.0 0.0 0.0 -0.000446985 -0.001238652 0.0 0.0 0.0 0.0
480034000.0 0.0 0.0 -0.000475946 -0.001344446 0.0 0.0 0.0 0.0
495033500.0 0.0 0.0 9.9764e-05 -0.000489069 0.0 0.0 0.0 0.0
510033000.0 0.0 0.0 0.000410668 -0.000128076 0.0 0.0 0.0 0.0
525032500.0 0.0 0.0 -4.2555e-05 -0.000547212 0.0 0.0 0.0 0.0
540032000.0 0.0 0.0 -0.000299605 -0.00126288 0.0 0.0 0.0 0.0
555031500.0 0.0 0.0 -9.6535e-05 -0.001024458 0.0 0.0 0.0 0.0
570031000.0 0.0 0.0 0.000578661 -0.000517515 0.0 0.0 0.0 0.0
585030500.0 0.0 0.0 0.000491281 -0.000650361 0.0 0.0 0.0 0.0
600030000.0 0.0 0.0 0.000759802 -0.000761677 0.0 0.0 0.0 0.0
615029500.0 0.0 0.0 0.000558804 0.000186872 0.0 0.0 0.0 0.0
630029000.0 0.0 0.0 0.000573946 -0.000449126 0.0 0.0 0.0 0.0
645028500.0 0.0 0.0 0.000358017 -0.000511102 0.0 0.0 0.0 0.0
660028000.0 0.0 0.0 0.000818486 -0.00060664 0.0 0.0 0.0 0.0
675027500.0 0.0 0.0 0.000651843 3.1559e-05 0.0 0.0 0.0 0.0
690027000.0 0.0 0.0 -0.000507275 -0.000150066 0.0 0.0 0.0 0.0
705026500.0 0.0 0.0 0.000304778 0.000623596 0.0 0.0 0.0 0.0
720026000.0 0.0 0.0 0.000939708 0.001369762 0.0 0.0 0.0 0.0
735025500.0 0.0 0.0 0.000931606 0.000843805 0.0 0.0 0.0 0.0
750025000.0 0.0 0.0 -0.000335254 0.001434385 0.0 0.0 0.0 0.0
765024500.0 0.0 0.0 0.001408151 0.000451769 0.0 0.0 0.0 0.0
780024000.0 0.0 0.0 0.00028146 0.001287837 0.0 0.0 0.0 0.0
795023500.0 0.0 0.0 -0.000722577 0.000846911 0.0 0.0 0.0 0.0
810023000.0 0.0 0.0 -0.000626243 0.000187715 0.0 0.0 0.0 0.0
825022500.0 0.0 0.0 -0.000963138 0.000631392 0.0 0.0 0.0 0.0
840022000.0 0.0 0.0 0.000267864 -8.1334e-05 0.0 0.0 0.0 0.0
855021500.0 0.0 0.0 -0.00085267 -0.000150958 0.0 0.0 0.0 0.0
870021000.0 0.0 0.0 -0.000261613 0.000286344 0.0 0.0 0.0 0.0
885020500.0 0.0 0.0 6.5556e-05 -2.0771e-05 0.0 0.0 0.0 0.0
900020000.0 0.0 0.0 -0.003121019 0.002127342 0.0 0.0 0.0 0.0
915019500.0 0.0 0.0 0.002545371 -0.001347367 0.0 0.0 0.0 0.0
930019000.0 0.0 0.0 0.000682462 0.000133422 0.0 0.0 0.0 0.0
945018500.0 0.0 0.0 0.000506505 -0.000486656 0.0 0.0 0.0 0.0
960018000.0 0.0 0.0 -0.001625294 -0.000782345 0.0 0.0 0.0 0.0
975017500.0 0.0 0.0 -0.00155836 0.000292178 0.0 0.0 0.0 0.0
990017000.0 0.0 0.0 0.002127736 0.00106604 0.0 0.0 0.0 0.0
1005016500.0 0.0 0.0 0.001202713 0.000423503 0.0 0.0 0.0 0.0
1020016000.0 0.0 0.0 0.003156491 0.001496335 0.0 0.0 0.0 0.0
1035015500.0 0.0 0.0 0.001408383 -0.001216433 0.0 0.0 0.0 0.0
1050015000.0 0.0 0.0 0.005741048 0.000323251 0.0 0.0 0.0 0.0
1065014500.0 0.0 0.0 0.005331849 0.000812866 0.0 0.0 0.0 0.0
1080014000.0 0.0 0.0 0.00240507 0.001643956 0.0 0.0 0.0 0.0
1095013500.0 0.0 0.0 0.000679199 -8.6411e-05 0.0 0.0 0.0 0.0
1110013000.0 0.0 0.0 0.004356651 -0.002055796 0.0 0.0 0.0 0.0
1125012500.0 0.0 0.0 0.002484958 -0.000330358 0.0 0.0 0.0 0.0
1140012000.0 0.0 0.0 -0.001301698 -0.001171623 0.0 0.0 0.0 0.0
1155011500.0 0.0 0.0 -0.002184701 0.000248425 0.0 0.0 0.0 0.0
1170011000.0 0.0 0.0 0.004827581 -0.001657611 0.0 0.0 0.0 0.0
1185010500.0 0.0 0.0 -0.00152615 -0.00182901 0.0 0.0 0.0 0.0
1200010000.0 0.0 0.0 -0.002513898 0.001793397 0.0 0.0 0.0 0.0
1215009500.0 0.0 0.0 0.002276597 -0.000910887 0.0 0.0 0.0 0.0
1230009000.0 0.0 0.0 0.005141025 -0.003311983 0.0 0.0 0.0 0.0
1245008500.0 0.0 0.0 0.001275984 -0.002835182 0.0 0.0 0.0 0.0
1260008000.0 0.0 0.0 -0.004977277 0.000723125 0.0 0.0 0.0 0.0
1275007500.0 0.0 0.0 0.004235717 -0.00255444 0.0 0.0 0.0 0.0
1290007000.0 0.0 0.0 0.003821355 0.002162592 0.0 0.0 0.0 0.0
1305006500.0 0.0 0.0 -0.006448736 0.004192695 0.0 0.0 0.0 0.0
1320006000.0 0.0 0.0 0.004367452 -0.002129512 0.0 0.0 0.0 0.0
1335005500.0 0.0 0.0 -0.002231685 -0.001504059 0.0 0.0 0.0 0.0
1350005000.0 0.0 0.0 -0.002363629 8.0036e-05 0.0 0.0 0.0 0.0
1365004500.0 0.0 0.0 0.002413022 0.002378699 0.0 0.0 0.0 0.0
1380004000.0 0.0 0.0 0.000934867 0.001277496 0.0 0.0 0.0 0.0
1395003500.0 0.0 0.0 -0.001034705 0.002747279 0.0 0.0 0.0 0.0
1410003000.0 0.0 0.0 0.002572345 -0.001598185 0.0 0.0 0.0 0.0
1425002500.0 0.0 0.0 0.006103447 -0.002798178 0.0 0.0 0.0 0.0
1440002000.0 0.0 0.0 -0.015402112 -0.005079188 0.0 0.0 0.0 0.0
1455001500.0 0.0 0.0 -0.016581608 0.004127825 0.0 0.0 0.0 0.0
1470001000.0 0.0 0.0 -0.007853603 -0.007828256 0.0 0.0 0.0 0.0
1485000500.0 0.0 0.0 -0.01201828 0.008754176 0.0 0.0 0.0 0.0
1500000000.0 0.0 0.0 -0.012209988 -0.008114402 0.0 0.0 0.0 0.0
