! Created with skrf 1.8.0 (http://scikit-rf.org).
# Hz S RI R 50.0 
!freq ReS11 ImS11
50000.0 0.016017466 -0.000176805
15049500.0 0.01644234 0.004096718
30049000.0 0.016449528 0.007656842
45048500.0 0.016247224 0.010976682
60048000.0 0.015859432 0.014100614
75047500.0 0.0151229 0.01727701
90047000.0 0.01436468 0.019670006
105046500.0 0.013538702 0.021946138
120046000.0 0.012846872 0.023944008
135045500.0 0.012151004 0.025782016
150045000.0 0.01155746 0.027320478
165044500.0 0.011179036 0.028800826
180044000.0 0.011044166 0.030191586
195043500.0 0.011053294 0.03153444
210043000.0 0.011221488 0.033069764
225042500.0 0.011420308 0.034913496
240042000.0 0.01200234 0.036850168
255041500.0 0.01255746 0.038917312
270041000.0 0.013077214 0.041213108
285040500.0 0.013501444 0.043923748
300040000.0 0.014251604 0.046662384
315039500.0 0.014168664 0.050066596
330039000.0 0.01448031 0.052975132
345038500.0 0.013520868 0.056946656
360038000.0 0.012175962 0.060692336
375037500.0 0.010679726 0.064253808
390037000.0 0.008916108 0.067652576
405036500.0 0.006928809 0.07093836
420036000.0 0.004609016 0.074549368
435035500.0 0.000743558 0.07725928
450035000.0 -0.00176566 0.081051712
465034500.0 -0.00666979 0.083558432
480034000.0 -0.01032629 0.084556152
495033500.0 -0.014395814 0.085505584
510033000.0 -0.01714243 0.084806632
525032500.0 -0.019489378 0.08564296
540032000.0 -0.023450626 0.084541152
555031500.0 -0.025410344 0.08423804
570031000.0 -0.02731723 0.084408672
585030500.0 -0.029283678 0.084466376
600030000.0 -0.029872382 0.085261736
615029500.0 -0.031799644 0.08339492
630029000.0 -0.033202514 0.084145928
645028500.0 -0.032674092 0.084369872
660028000.0 -0.033402018 0.085537672
675027500.0 -0.033562052 0.084825896
690027000.0 -0.032958162 0.087073432
705026500.0 -0.033924724 0.088882376
720026000.0 -0.035269376 0.090745408
735025500.0 -0.037126188 0.093073832
750025000.0 -0.038269792 0.095836432
765024500.0 -0.039813928 0.099122328
780024000.0 -0.045007008 0.100886848
795023500.0 -0.046477536 0.104575272
810023000.0 -0.050933556 0.107488104
825022500.0 -0.054529696 0.10768744
840022000.0 -0.059694656 0.107926168
855021500.0 -0.0632976 0.110614056
870021000.0 -0.067871912 0.110275048
885020500.0 -0.073614328 0.109877056
900020000.0 -0.075526216 0.10971076
915019500.0 -0.080381904 0.108743288
930019000.0 -0.084059424 0.10996164
945018500.0 -0.087645384 0.109732728
960018000.0 -0.08975536 0.10454504
975017500.0 -0.09418468 0.103131728
990017000.0 -0.09581788 0.100876104
1005016500.0 -0.092952672 0.093429208
1020016000.0 -0.099122184 0.089367576
1035015500.0 -0.092767976 0.089417128
1050015000.0 -0.088261816 0.078739896
1065014500.0 -0.097812592 0.086534504
1080014000.0 -0.085111704 0.081223824
1095013500.0 -0.091721936 0.084592568
1110013000.0 -0.089586168 0.072337888
1125012500.0 -0.096009864 0.090716056
1140012000.0 -0.084350272 0.090109312
1155011500.0 -0.086381464 0.087738912
1170011000.0 -0.0913944 0.090519624
1185010500.0 -0.097495256 0.099799824
1200010000.0 -0.10020588 0.098638784
1215009500.0 -0.101429768 0.083616328
1230009000.0 -0.119595544 0.093203616
1245008500.0 -0.112506352 0.092538296
1260008000.0 -0.121056016 0.086489808
1275007500.0 -0.112683336 0.096489688
1290007000.0 -0.122106272 0.0850158
1305006500.0 -0.12291384 0.08224696
1320006000.0 -0.12972392 0.08939172
1335005500.0 -0.109756712 0.090389296
1350005000.0 -0.128009096 0.098963744
1365004500.0 -0.141609088 0.1026292
1380004000.0 -0.13038276 0.079627704
1395003500.0 -0.130159216 0.095048
1410003000.0 -0.134608752 0.103878192
1425002500.0 -0.15727336 0.103176624
1440002000.0 -0.215236 0.10247164
1455001500.0 -0.20728904 0.119682344
1470001000.0 -0.234115568 0.06927416
1485000500.0 -0.247675712 0.015063462
1500000000.0 -0.224618416 -0.01863233
