! Created with skrf 1.8.0 (http://scikit-rf.org).
# Hz S RI R 50.0 
!freq ReS11 ImS11
50000.0 0.9955389554169457 0.0008617385180107421
15049500.0 0.9960454563580483 0.018815255737185323
30049000.0 0.9963082920457289 0.03704704238721326
45048500.0 0.9957037835848436 0.055283119632733344
60048000.0 0.9949466107041178 0.07341488767561423
75047500.0 0.9941571672516443 0.09171125582847603
90047000.0 0.9919452205080703 0.11059464261904332
105046500.0 0.9902575224278573 0.12821688937410855
120046000.0 0.9881207159124753 0.145842679902781
135045500.0 0.9852722766972192 0.1635130049219344
150045000.0 0.9832486863210365 0.18141257093674357
165044500.0 0.980483184043284 0.19889102302719397
180044000.0 0.9772253105758278 0.21642597416185444
195043500.0 0.973766332947791 0.2336666704279534
210043000.0 0.9698022885601488 0.2510888163281356
225042500.0 0.9650908200424173 0.26944523932069575
240042000.0 0.9604776708507256 0.2858562071882815
255041500.0 0.9553294114597132 0.3030360241729969
270041000.0 0.9502330284520513 0.3194527647665394
285040500.0 0.9443214750311726 0.33701119767449733
300040000.0 0.9424060510550452 0.352742825384003
315039500.0 0.9341242707043784 0.3689163379510063
330039000.0 0.928784522266375 0.3852201660390346
345038500.0 0.9220291245889641 0.40146005860974776
360038000.0 0.9153658258325157 0.41801234983809876
375037500.0 0.9088757936060657 0.43359950963859467
390037000.0 0.9017555194025564 0.45107349016428616
405036500.0 0.893826011425899 0.46656529935132945
420036000.0 0.885879590028105 0.48406510378638945
435035500.0 0.8762434559901865 0.5016870765471845
450035000.0 0.864543242857578 0.5191001423779296
465034500.0 0.8567418057571191 0.534525634610431
480034000.0 0.8460743862010769 0.5497295307222029
495033500.0 0.8342782067515592 0.5638103270323022
510033000.0 0.8255594728041605 0.5769668850739785
525032500.0 0.8137195612662568 0.5926505267748876
540032000.0 0.8035653322622559 0.6059232276333346
555031500.0 0.7948221924597274 0.620184633392624
570031000.0 0.785529428774683 0.634157033477766
585030500.0 0.7763356366901227 0.6490628165522615
600030000.0 0.7640347446699749 0.6735075673019142
615029500.0 0.7502916818041488 0.6865879956495123
630029000.0 0.7354064173593723 0.7005270183657997
645028500.0 0.7210731808365917 0.7121470131213233
660028000.0 0.7090466766992191 0.7243253618937251
675027500.0 0.6944179322886148 0.7356629602748449
690027000.0 0.6798936615189803 0.7472042228268958
705026500.0 0.661842126352914 0.7611499820263223
720026000.0 0.6461773744629656 0.7746381670257639
735025500.0 0.6280131650816878 0.7840571050799903
750025000.0 0.608432734732875 0.7929605385850726
765024500.0 0.5925272312974008 0.8038680242962818
780024000.0 0.5750034396606432 0.8144427143984276
795023500.0 0.5586890448067301 0.8191247510309103
810023000.0 0.5432283768417797 0.8249474732708592
825022500.0 0.5283067794962908 0.8295624877262354
840022000.0 0.5146652526748053 0.8326561381900852
855021500.0 0.5022483856019254 0.8396415179459961
870021000.0 0.4923650737646026 0.8383786488015633
885020500.0 0.4874979348165972 0.8413858753727488
900020000.0 0.4963874223685766 0.8520441636284234
915019500.0 0.4837336870960835 0.86202410796781
930019000.0 0.4699925317782665 0.8730743497573775
945018500.0 0.4558081980334463 0.8823575178870801
960018000.0 0.444060659399773 0.8932459295410423
975017500.0 0.42811075047817876 0.8987051724672671
990017000.0 0.40787043358068825 0.8998241519654042
1005016500.0 0.39637669819356663 0.8948885146679746
1020016000.0 0.3798018380832499 0.8972985567570617
1035015500.0 0.3763990960375968 0.9002993417735229
1050015000.0 0.37026788632604674 0.884412918351567
1065014500.0 0.3751078890378194 0.9293382565067587
1080014000.0 0.36636796665668875 0.9409781368698623
1095013500.0 0.3602332099198924 0.9718388295520406
1110013000.0 0.3402978431135131 0.9991222440181383
1125012500.0 0.3178766010763769 1.049552569714127
1140012000.0 0.2985455277861462 1.0693167021152001
1155011500.0 0.26657067441680987 1.0906929351762955
1170011000.0 0.1916936971651545 1.106575600029977
1185010500.0 0.1550088395073238 1.0958542565959168
1200010000.0 0.10691300737401269 1.0915903092434314
1215009500.0 0.07866390837351986 1.0821114788933366
1230009000.0 0.027517018257800452 1.0415836412150619
1245008500.0 0.0038231972011479056 1.016789413088094
1260008000.0 -0.013165000831714884 0.9869984131664703
1275007500.0 -0.005102713630516783 0.9713726884369172
1290007000.0 -0.01525650568398115 0.9494301568795787
1305006500.0 0.011779343048909884 0.9292793849960426
1320006000.0 0.045987181746774214 0.9266132569267186
1335005500.0 0.050177449737977366 0.9409315425802837
1350005000.0 0.08378817652678716 0.9798489202876957
1365004500.0 0.14892968753107 1.0586169664806033
1380004000.0 0.12510021759771608 1.0732849756466059
1395003500.0 0.15248809156470808 1.1780832109392723
1410003000.0 0.10481785301947709 1.2874823760007237
1425002500.0 0.03221752007302264 1.434397496293527
1440002000.0 -0.14314501072434327 1.5446961282567113
1455001500.0 -0.45500522305335933 1.6155296358108204
1470001000.0 -0.7720644240760935 1.5482700280352362
1485000500.0 -1.0204192511306702 1.2100511283269484
1500000000.0 -1.1925349199078632 0.8333729472927912
