! Created with skrf 1.8.0 (http://scikit-rf.org).
# Hz S RI R 50.0 
!freq ReS11 ImS11
50000.0 -0.013318952768910108 0.0005242735858795966
15049500.0 -0.011976020353788397 0.0018328625086633105
30049000.0 -0.01185562948422171 0.0029032530422091448
45048500.0 -0.011187015740778652 0.003770197440388232
60048000.0 -0.011096806357496344 0.004825278224176106
75047500.0 -0.010927557075378064 0.005552861793233871
90047000.0 -0.010457058791233424 0.006279645537319006
105046500.0 -0.010496176135028118 0.006976502039950149
120046000.0 -0.010465590095220365 0.007584763484208401
135045500.0 -0.01047440965356968 0.007857863046293562
150045000.0 -0.011105135972162934 0.009111523236251695
165044500.0 -0.010839434915086791 0.010250023703411059
180044000.0 -0.011476910044986986 0.011590719019538478
195043500.0 -0.012630489086891539 0.012797623577689807
210043000.0 -0.01272269463066303 0.013523372911977501
225042500.0 -0.013155593434853684 0.013480177702558412
240042000.0 -0.013189978384229173 0.015520441691515336
255041500.0 -0.01277321375311517 0.018173925673809585
270041000.0 -0.013267887452766886 0.020331455959279304
285040500.0 -0.012670839088641445 0.02240675447753995
300040000.0 -0.01292432824493521 0.026254446419361886
315039500.0 -0.011927982110315464 0.027535400565080893
330039000.0 -0.013175462288949997 0.030399393962076512
345038500.0 -0.009507168953485193 0.0325996575393639
360038000.0 -0.008110247109199378 0.033441278202659554
375037500.0 -0.0072801948264791805 0.03573622423081454
390037000.0 -0.006754518845478487 0.037575528230457345
405036500.0 -0.0037385841641130713 0.038561668654310856
420036000.0 -0.0031850362923888154 0.03969405055586318
435035500.0 -0.0014905127418413777 0.04062918629071273
450035000.0 0.0029829172941104585 0.04274238964443617
465034500.0 0.005188506658312237 0.03923691015215838
480034000.0 0.0076647725642765485 0.03771567137784169
495033500.0 0.008874105434692341 0.039682570189333216
510033000.0 0.010994957763631193 0.03708547603283457
525032500.0 0.010119875409763803 0.0387363284963126
540032000.0 0.011547008463691198 0.03803903898342705
555031500.0 0.010565327874641978 0.03781539152868023
570031000.0 0.010315787497720703 0.037552472392642984
585030500.0 0.00834262774789948 0.037625541500278074
600030000.0 0.0069181810036766656 0.0371119658846804
615029500.0 0.008544387723515724 0.037036394709773476
630029000.0 0.0070545666488099285 0.03357296591441464
645028500.0 0.006216106779483405 0.03236594489533623
660028000.0 0.002763885045865765 0.0343586838801056
675027500.0 0.001026817533971794 0.03758675672607091
690027000.0 0.000632702866495156 0.03757238651358269
705026500.0 -0.0005542381900224096 0.04025103683819824
720026000.0 -0.0025008854759886842 0.048929511962711385
735025500.0 -0.002557448512273233 0.05191419777292868
750025000.0 -0.005263085928348273 0.06051673090470365
765024500.0 -0.011369337639525615 0.0650604924496101
780024000.0 -0.015293123795307804 0.06711930366149126
795023500.0 -0.01606411244179163 0.07570695349041158
810023000.0 -0.020722285577897202 0.07806854646974819
825022500.0 -0.020007271458043048 0.08244908667825246
840022000.0 -0.01912288663564209 0.08565035088928179
855021500.0 -0.025341147113705994 0.08612755449681161
870021000.0 -0.029290665552847536 0.08332599618205412
885020500.0 -0.02667095312649137 0.08167510609492892
900020000.0 -0.010559484497276141 0.1006295361364485
915019500.0 -0.018253511196103737 0.09588694367150742
930019000.0 -0.02201483612499337 0.09145122375032486
945018500.0 -0.026854894590802765 0.0851634429126403
960018000.0 -0.026508651628394504 0.08079008169518712
975017500.0 -0.02921461752394507 0.07936863102891971
990017000.0 -0.03207031422940456 0.0626066735272707
1005016500.0 -0.02625640776995269 0.06201893380811076
1020016000.0 -0.02011561702030993 0.043079735800908944
1035015500.0 -0.013732573270239091 0.04226661034740885
1050015000.0 0.019771473723012585 0.023522913274196693
1065014500.0 -0.00316968148467512 0.016215793088861362
1080014000.0 0.013975653354602094 0.019936776329148607
1095013500.0 0.014738146713226673 0.010873229685387403
1110013000.0 0.016199002847343907 0.022891437226160553
1125012500.0 0.01566974080948744 0.030110080126234565
1140012000.0 0.017780259769645444 0.04688764306407969
1155011500.0 0.0094004532228437 0.10832450508977227
1170011000.0 0.011190781000710786 0.07757051352426113
1185010500.0 -0.010813200890721996 0.10368699049299453
1200010000.0 -0.030613153080454248 0.10932461411263222
1215009500.0 -0.027606144802753904 0.12572440075820446
1230009000.0 -0.05598941727693505 0.12371250818770513
1245008500.0 -0.079071028035033 0.11894160416194596
1260008000.0 -0.08868286490865683 0.12325145054272016
1275007500.0 -0.1086689356094441 0.1241908693726498
1290007000.0 -0.10191436527868819 0.10456362539677927
1305006500.0 -0.11796254676136328 0.08647909997890048
1320006000.0 -0.14155757509446357 0.058569001513677645
1335005500.0 -0.13928579065484303 0.05180164051674402
1350005000.0 -0.13761392261436853 -0.007801706534132182
1365004500.0 -0.1711023390760604 0.030863574225803072
1380004000.0 -0.12033509000486112 -0.05054511371426412
1395003500.0 -0.11765069588984545 -0.08969320017051267
1410003000.0 -0.08014024228235926 -0.15271270534690232
1425002500.0 -0.025596691122455474 -0.21015248599723535
1440002000.0 0.0303315706679228 -0.2694400979950156
1455001500.0 0.1398213958768137 -0.28287701968770107
1470001000.0 0.23903632733299823 -0.19865522533576108
1485000500.0 0.2970677519135395 -0.08163988943706918
1500000000.0 0.1878317859606794 -0.060920247799882636
