! Created with skrf 1.8.0 (http://scikit-rf.org).
# Hz S RI R 50.0 
!freq ReS11 ImS11
50000.0 -0.99129536 -0.000683313
15049500.0 -0.988828416 -0.011064704
30049000.0 -0.987590208 -0.02328423
45048500.0 -0.986593792 -0.036907348
60048000.0 -0.986412864 -0.05082454
75047500.0 -0.985666816 -0.064819076
90047000.0 -0.984122496 -0.081194504
105046500.0 -0.98347392 -0.096468128
120046000.0 -0.982807808 -0.112471584
135045500.0 -0.981960832 -0.128633488
150045000.0 -0.979679616 -0.14558296
165044500.0 -0.979097728 -0.162078896
180044000.0 -0.977501632 -0.178597264
195043500.0 -0.97534496 -0.19461184
210043000.0 -0.971715584 -0.21134184
225042500.0 -0.967929728 -0.226671264
240042000.0 -0.962638912 -0.241274496
255041500.0 -0.957497216 -0.25461552
270041000.0 -0.951949696 -0.267621008
285040500.0 -0.946922688 -0.278042752
300040000.0 -0.941692288 -0.286393856
315039500.0 -0.936045824 -0.296392672
330039000.0 -0.927877632 -0.303878176
345038500.0 -0.922178304 -0.31376864
360038000.0 -0.917325952 -0.319687488
375037500.0 -0.91069088 -0.328472928
390037000.0 -0.903102912 -0.33308
405036500.0 -0.897602816 -0.345918208
420036000.0 -0.892789952 -0.353780096
435035500.0 -0.885422016 -0.365642688
450035000.0 -0.88290656 -0.379837664
465034500.0 -0.872222336 -0.388506112
480034000.0 -0.863784384 -0.401348768
495033500.0 -0.856154112 -0.413153344
510033000.0 -0.850861248 -0.427626112
525032500.0 -0.842749376 -0.443136416
540032000.0 -0.839568256 -0.458918016
555031500.0 -0.833217472 -0.474338336
570031000.0 -0.829462784 -0.492243808
585030500.0 -0.82215776 -0.508776672
600030000.0 -0.8154208 -0.535664384
615029500.0 -0.803518784 -0.554235904
630029000.0 -0.794602304 -0.57494752
645028500.0 -0.779147008 -0.59143712
660028000.0 -0.76172576 -0.606556608
675027500.0 -0.753294336 -0.62151008
690027000.0 -0.739592 -0.637046784
705026500.0 -0.727155968 -0.641820736
720026000.0 -0.718432064 -0.648233344
735025500.0 -0.705798208 -0.658552064
750025000.0 -0.697232 -0.66243904
765024500.0 -0.686711488 -0.664391936
780024000.0 -0.66801664 -0.660250304
795023500.0 -0.666898816 -0.668659328
810023000.0 -0.66093888 -0.669904128
825022500.0 -0.651301056 -0.668334784
840022000.0 -0.645227776 -0.669575936
855021500.0 -0.637028928 -0.672025536
870021000.0 -0.636689408 -0.669564736
885020500.0 -0.628476864 -0.673536832
900020000.0 -0.64867072 -0.665097536
915019500.0 -0.638967488 -0.676282944
930019000.0 -0.63929184 -0.695495872
945018500.0 -0.624744448 -0.709060992
960018000.0 -0.615214016 -0.73245312
975017500.0 -0.595584448 -0.741171008
990017000.0 -0.571081792 -0.75308736
1005016500.0 -0.561537728 -0.759056128
1020016000.0 -0.538634688 -0.776787584
1035015500.0 -0.526701216 -0.788261568
1050015000.0 -0.52593328 -0.759798016
1065014500.0 -0.496239776 -0.817143616
1080014000.0 -0.496406848 -0.833245504
1095013500.0 -0.479777536 -0.865130048
1110013000.0 -0.468262848 -0.879890368
1125012500.0 -0.467708832 -0.933092224
1140012000.0 -0.455690528 -0.9274112
1155011500.0 -0.452850976 -0.983375808
1170011000.0 -0.393181376 -0.981889856
1185010500.0 -0.37780352 -0.99176736
1200010000.0 -0.345691328 -0.979885184
1215009500.0 -0.336318912 -0.974458496
1230009000.0 -0.291606176 -0.971912512
1245008500.0 -0.256344624 -0.972596032
1260008000.0 -0.249053312 -0.954704576
1275007500.0 -0.239876432 -0.928999744
1290007000.0 -0.217690624 -0.904628096
1305006500.0 -0.217208912 -0.882724992
1320006000.0 -0.232194144 -0.911909952
1335005500.0 -0.239279904 -0.94428128
1350005000.0 -0.194827696 -0.983381184
1365004500.0 -0.267315648 -1.055340172
1380004000.0 -0.176238784 -1.045151472
1395003500.0 -0.141966112 -1.147744896
1410003000.0 -0.011962372 -1.203241584
1425002500.0 0.123217448 -1.220564368
1440002000.0 0.341665344 -1.22726488
1455001500.0 0.437947072 -1.131510256
1470001000.0 0.501350592 -0.961044288
1485000500.0 0.651932672 -0.802826304
1500000000.0 0.763628224 -0.606294272
