! Created with skrf 1.8.0 (http://scikit-rf.org).
# Hz S RI R 50.0 
!freq ReS11 ImS11
50000.0 0.998986304 0.002609873
15049500.0 0.97780512 0.220108304
30049000.0 0.908483584 0.428573792
45048500.0 0.795275776 0.616760576
60048000.0 0.645400512 0.773725824
75047500.0 0.466931168 0.89725952
90047000.0 0.252759488 0.982760704
105046500.0 0.032761802 1.014632584
120046000.0 -0.188826464 0.999558656
135045500.0 -0.403903424 0.936934208
150045000.0 -0.601871616 0.825077312
165044500.0 -0.770859712 0.672882176
180044000.0 -0.901057216 0.485273504
195043500.0 -0.988574848 0.273457664
210043000.0 -1.026850462 0.04501464
225042500.0 -1.01100409 -0.189259168
240042000.0 -0.941568896 -0.41458768
255041500.0 -0.821824192 -0.619164416
270041000.0 -0.657526272 -0.789681472
285040500.0 -0.45974336 -0.920500224
300040000.0 -0.23876272 -0.989779776
315039500.0 -0.006907793 -1.019251466
330039000.0 0.225641008 -0.993222656
345038500.0 0.448052064 -0.91938912
360038000.0 0.645954496 -0.797838464
375037500.0 0.807399168 -0.639094592
390037000.0 0.944786432 -0.450647328
405036500.0 1.01662922 -0.23712248
420036000.0 1.056751488 -0.013857022
435035500.0 1.048081636 0.219996816
450035000.0 0.98890432 0.458151296
465034500.0 0.865664512 0.664172608
480034000.0 0.707981632 0.838201792
495033500.0 0.51589168 0.970066176
510033000.0 0.304225088 1.058445216
525032500.0 0.078267832 1.095832584
540032000.0 -0.145622384 1.083132864
555031500.0 -0.362952832 1.026031852
570031000.0 -0.559555648 0.929191296
585030500.0 -0.728127936 0.786231104
600030000.0 -0.876086144 0.642682176
615029500.0 -0.990060608 0.441011296
630029000.0 -1.054140448 0.219487984
645028500.0 -1.075323936 -0.017024418
660028000.0 -1.034622788 -0.256598944
675027500.0 -0.9448224 -0.482153568
690027000.0 -0.803516096 -0.683073344
705026500.0 -0.616488384 -0.856508224
720026000.0 -0.394490944 -0.976911168
735025500.0 -0.13387644 -1.047094584
750025000.0 0.134190248 -1.063053728
765024500.0 0.405394848 -1.001245141
780024000.0 0.673822848 -0.892930368
795023500.0 0.868054656 -0.677567552
810023000.0 1.020701766 -0.438959328
825022500.0 1.096307992 -0.165358976
840022000.0 1.10978544 0.10574692
855021500.0 1.04570186 0.359394592
870021000.0 0.929609408 0.581906816
885020500.0 0.773037312 0.7611216
900020000.0 0.628013312 0.91644672
915019500.0 0.431067296 1.033519268
930019000.0 0.232083904 1.08461344
945018500.0 0.028198322 1.100423816
960018000.0 -0.169435728 1.091763376
975017500.0 -0.347377344 1.03628254
990017000.0 -0.52681136 0.960880256
1005016500.0 -0.682757888 0.854323456
1020016000.0 -0.811529792 0.722664512
1035015500.0 -0.957689664 0.563113728
1050015000.0 -1.044541 0.376924928
1065014500.0 -1.108728048 0.19258704
1080014000.0 -1.128647808 -0.033240482
1095013500.0 -1.102703456 -0.242456912
1110013000.0 -1.05071342 -0.476451968
1125012500.0 -0.951461568 -0.696494144
1140012000.0 -0.781640576 -0.889302592
1155011500.0 -0.543256192 -1.13072896
1170011000.0 -0.266145296 -1.229058976
1185010500.0 0.021289336 -1.308669088
1200010000.0 0.431275392 -1.30638624
1215009500.0 0.841735552 -1.155780192
1230009000.0 1.224267008 -0.8287264
1245008500.0 1.416095744 -0.363314912
1260008000.0 1.441507232 0.102868192
1275007500.0 1.237507104 0.471928672
1290007000.0 1.000630975 0.713014144
1305006500.0 0.779115648 0.849514112
1320006000.0 0.574213056 0.923461632
1335005500.0 0.41680544 0.965072768
1350005000.0 0.276828192 0.9962112
1365004500.0 0.19340576 0.971191296
1380004000.0 0.043426628 1.056896688
1395003500.0 -0.059631096 1.128074888
1410003000.0 -0.163758912 1.201869008
1425002500.0 -0.411586304 1.326566816
1440002000.0 -0.792182592 1.40574896
1455001500.0 -1.39495504 1.299690848
1470001000.0 -1.85853504 0.650110656
1485000500.0 -1.763717632 -0.077022952
1500000000.0 -1.393217088 -0.348985792
