! Created with skrf 1.8.0 (http://scikit-rf.org).
# Hz S RI R 50.0 
!freq ReS11 ImS11
50000.0 1.000177026 4.3878e-05
15049500.0 0.977173376 0.220231232
30049000.0 0.907747264 0.4281872
45048500.0 0.79472032 0.616535296
60048000.0 0.645376192 0.773273152
75047500.0 0.46609344 0.896921472
90047000.0 0.252600848 0.982648512
105046500.0 0.032955248 1.01443112
120046000.0 -0.18877648 0.9991776
135045500.0 -0.40451232 0.936321408
150045000.0 -0.601316736 0.824480384
165044500.0 -0.77002464 0.672586048
180044000.0 -0.900627264 0.484912672
195043500.0 -0.987406592 0.27316672
210043000.0 -1.025095462 0.045121768
225042500.0 -1.010232092 -0.18829768
240042000.0 -0.941108096 -0.413727104
255041500.0 -0.821085696 -0.617872576
270041000.0 -0.657520512 -0.78844576
285040500.0 -0.457291776 -0.918643456
300040000.0 -0.23925864 -0.988244416
315039500.0 -0.00536747 -1.017621636
330039000.0 0.227756448 -0.993228608
345038500.0 0.44551664 -0.917085632
360038000.0 0.642839424 -0.797188608
375037500.0 0.807321664 -0.63581376
390037000.0 0.922870144 -0.4520616
405036500.0 1.015933038 -0.239614256
420036000.0 1.056230784 -0.015569134
435035500.0 1.044998884 0.217436736
450035000.0 0.9860704 0.45801824
465034500.0 0.86479648 0.66064928
480034000.0 0.704758912 0.837097216
495033500.0 0.512917824 0.969014976
510033000.0 0.3043112 1.056343792
525032500.0 0.076950472 1.089759112
540032000.0 -0.148423136 1.080861808
555031500.0 -0.35944064 1.020350576
570031000.0 -0.55599744 0.92648224
585030500.0 -0.73191648 0.7849824
600030000.0 -0.875329088 0.63891744
615029500.0 -0.983060864 0.43642352
630029000.0 -1.053371312 0.22160104
645028500.0 -1.07103312 -0.013255932
660028000.0 -1.03104496 -0.254658528
675027500.0 -0.943102208 -0.475990304
690027000.0 -0.797993024 -0.686283648
705026500.0 -0.613489472 -0.854864448
720026000.0 -0.392897024 -0.973565632
735025500.0 -0.131183208 -1.045093656
750025000.0 0.1368936 -1.057631372
765024500.0 0.408824896 -0.996911616
780024000.0 0.686866368 -0.869161216
795023500.0 0.866192192 -0.670295488
810023000.0 1.015301466 -0.432257504
825022500.0 1.096840264 -0.156803664
840022000.0 1.107211944 0.118278664
855021500.0 1.041484712 0.366649344
870021000.0 0.930241792 0.581822784
885020500.0 0.76851328 0.759929408
900020000.0 0.622731328 0.928515072
915019500.0 0.426428192 1.029866934
930019000.0 0.223336224 1.090181592
945018500.0 0.020149464 1.110498072
960018000.0 -0.176702432 1.089676024
975017500.0 -0.36755392 1.04685414
990017000.0 -0.539198976 0.952523584
1005016500.0 -0.691156736 0.852287872
1020016000.0 -0.82807552 0.714496256
1035015500.0 -0.94965184 0.56488928
1050015000.0 -1.025613428 0.40207008
1065014500.0 -1.115041736 0.18288248
1080014000.0 -1.13243556 -0.035615864
1095013500.0 -1.118738648 -0.258097472
1110013000.0 -1.050229908 -0.480350464
1125012500.0 -0.956675968 -0.711943936
1140012000.0 -0.768290688 -0.913047616
1155011500.0 -0.56853792 -1.061808348
1170011000.0 -0.291045472 -1.209095952
1185010500.0 0.044376168 -1.362605696
1200010000.0 0.417035168 -1.344306592
1215009500.0 0.857113472 -1.190911408
1230009000.0 1.226399776 -0.874891648
1245008500.0 1.45418512 -0.367061152
1260008000.0 1.441152928 0.094717232
1275007500.0 1.265021328 0.494021952
1290007000.0 1.017096282 0.724058368
1305006500.0 0.802268544 0.872239744
1320006000.0 0.599406976 0.930727552
1335005500.0 0.438272128 0.966720192
1350005000.0 0.290645248 1.005752921
1365004500.0 0.206714384 1.02928722
1380004000.0 0.074410352 1.066704512
1395003500.0 -0.045101428 1.132347224
1410003000.0 -0.168211872 1.208885792
1425002500.0 -0.414157888 1.29721104
1440002000.0 -0.761459712 1.412204384
1455001500.0 -1.386547328 1.32697904
1470001000.0 -1.859132864 0.623790016
1485000500.0 -1.762928384 -0.060556844
1500000000.0 -1.366300224 -0.418710496
