! Created with skrf 1.8.0 (http://scikit-rf.org).
# Hz S RI R 50.0 
!freq ReS11 ImS11
50000.0 -0.991409408 -0.000776777
15049500.0 -0.988910016 -0.011297214
30049000.0 -0.987758784 -0.023408842
45048500.0 -0.986616704 -0.036939228
60048000.0 -0.98608896 -0.050763232
75047500.0 -0.985580672 -0.065100396
90047000.0 -0.983822528 -0.08117676
105046500.0 -0.983695232 -0.096618384
120046000.0 -0.982244736 -0.112456576
135045500.0 -0.983035072 -0.129106568
150045000.0 -0.980693376 -0.145560576
165044500.0 -0.978928128 -0.162079552
180044000.0 -0.977342272 -0.178562368
195043500.0 -0.975636544 -0.194947152
210043000.0 -0.971597056 -0.211474304
225042500.0 -0.967791552 -0.227243744
240042000.0 -0.96255488 -0.241468544
255041500.0 -0.957134912 -0.254830864
270041000.0 -0.951394112 -0.266820992
285040500.0 -0.949570112 -0.280434304
300040000.0 -0.941437696 -0.287318304
315039500.0 -0.934664128 -0.295860672
330039000.0 -0.929388672 -0.30249536
345038500.0 -0.922451904 -0.311874272
360038000.0 -0.916577216 -0.320463968
375037500.0 -0.911337728 -0.328535456
390037000.0 -0.903648704 -0.338653248
405036500.0 -0.897902272 -0.344909984
420036000.0 -0.892612544 -0.35469808
435035500.0 -0.886556032 -0.366835744
450035000.0 -0.872904448 -0.374852896
465034500.0 -0.872168448 -0.38785216
480034000.0 -0.863531648 -0.401440192
495033500.0 -0.855739968 -0.413393568
510033000.0 -0.850967296 -0.426124224
525032500.0 -0.844366016 -0.442947872
540032000.0 -0.838795712 -0.458119232
555031500.0 -0.83288096 -0.474554784
570031000.0 -0.82926496 -0.49117872
585030500.0 -0.824127744 -0.509471424
600030000.0 -0.816111296 -0.537844928
615029500.0 -0.804966976 -0.55716768
630029000.0 -0.791081344 -0.574975616
645028500.0 -0.777647744 -0.591360256
660028000.0 -0.765204416 -0.605531776
675027500.0 -0.756040768 -0.621008768
690027000.0 -0.742093248 -0.632866496
705026500.0 -0.72833152 -0.643187968
720026000.0 -0.722280704 -0.65028128
735025500.0 -0.7029328 -0.654614912
750025000.0 -0.695403968 -0.65783008
765024500.0 -0.686371008 -0.664776768
780024000.0 -0.679180224 -0.656105216
795023500.0 -0.66673408 -0.670476672
810023000.0 -0.659497024 -0.670013504
825022500.0 -0.653151488 -0.670772736
840022000.0 -0.646976192 -0.668298368
855021500.0 -0.639255872 -0.668123584
870021000.0 -0.634069632 -0.670571712
885020500.0 -0.6297008 -0.676224896
900020000.0 -0.651158784 -0.662322432
915019500.0 -0.63896032 -0.670036608
930019000.0 -0.631506368 -0.695060224
945018500.0 -0.626217408 -0.717212352
960018000.0 -0.606076544 -0.734829056
975017500.0 -0.596169088 -0.748855168
990017000.0 -0.577691008 -0.764500288
1005016500.0 -0.55455264 -0.768471424
1020016000.0 -0.53702144 -0.780948928
1035015500.0 -0.5170712 -0.788666816
1050015000.0 -0.500726752 -0.82267648
1065014500.0 -0.4919584 -0.817501824
1080014000.0 -0.493610816 -0.833656
1095013500.0 -0.493079328 -0.872459968
1110013000.0 -0.489721664 -0.871375232
1125012500.0 -0.451205472 -0.924963264
1140012000.0 -0.450810464 -0.911833792
1155011500.0 -0.375936352 -0.909348864
1170011000.0 -0.41572912 -0.977853696
1185010500.0 -0.383818432 -0.974223104
1200010000.0 -0.354668352 -0.985379456
1215009500.0 -0.324609664 -0.986683648
1230009000.0 -0.291929888 -0.97137088
1245008500.0 -0.248291568 -0.968702464
1260008000.0 -0.28573056 -0.946789184
1275007500.0 -0.248319792 -0.923945472
1290007000.0 -0.209137136 -0.916988544
1305006500.0 -0.261648 -0.90723648
1320006000.0 -0.204952416 -0.923421888
1335005500.0 -0.23371192 -0.911604608
1350005000.0 -0.221737616 -0.955957952
1365004500.0 -0.210660928 -1.02743411
1380004000.0 -0.206214336 -1.070684912
1395003500.0 -0.140628336 -1.187409408
1410003000.0 0.002351368 -1.197839504
1425002500.0 0.113947776 -1.2196616
1440002000.0 0.272898272 -1.179183488
1455001500.0 0.438758272 -1.131165264
1470001000.0 0.582900288 -0.98248064
1485000500.0 0.616104576 -0.804457792
1500000000.0 0.762381888 -0.659365952
