! Created with skrf 1.8.0 (http://scikit-rf.org).
# Hz S RI R 50.0 
!freq ReS11 ImS11
50000.0 1.00129664 0.002007365
15049500.0 0.977572096 0.219932608
30049000.0 0.90811488 0.428209696
45048500.0 0.794188544 0.616142848
60048000.0 0.645523328 0.77329728
75047500.0 0.46622976 0.896709056
90047000.0 0.25303104 0.981975872
105046500.0 0.033175844 1.01399398
120046000.0 -0.188508816 0.998841664
135045500.0 -0.402829312 0.934945216
150045000.0 -0.601164672 0.8245264
165044500.0 -0.7699648 0.67270176
180044000.0 -0.899751872 0.485571008
195043500.0 -0.987183872 0.274188192
210043000.0 -1.025447608 0.046080868
225042500.0 -1.009785176 -0.18759624
240042000.0 -0.940535744 -0.412683008
255041500.0 -0.821371136 -0.61666944
270041000.0 -0.657199168 -0.787539072
285040500.0 -0.460198496 -0.917918976
300040000.0 -0.242570512 -0.987362944
315039500.0 -0.007368998 -1.017719388
330039000.0 0.226498336 -0.992034688
345038500.0 0.44679872 -0.916727296
360038000.0 0.64107872 -0.79653632
375037500.0 0.807917952 -0.638966528
390037000.0 0.921127552 -0.455263776
405036500.0 1.014056326 -0.241975552
420036000.0 1.054161312 -0.017014206
435035500.0 1.044760944 0.21595064
450035000.0 0.984490752 0.453741248
465034500.0 0.865946944 0.657750336
480034000.0 0.707821504 0.836486848
495033500.0 0.51287936 0.966060544
510033000.0 0.303253504 1.050843596
525032500.0 0.078770152 1.088323
540032000.0 -0.143991776 1.077184912
555031500.0 -0.359726496 1.023845314
570031000.0 -0.555921984 0.92197856
585030500.0 -0.729789376 0.786475904
600030000.0 -0.873372352 0.64027136
615029500.0 -0.979649152 0.440347712
630029000.0 -1.051184536 0.218665184
645028500.0 -1.065017104 -0.019590612
660028000.0 -1.035194756 -0.253061824
675027500.0 -0.94241472 -0.477897536
690027000.0 -0.799373376 -0.684911936
705026500.0 -0.6140432 -0.851433088
720026000.0 -0.384023296 -0.975441984
735025500.0 -0.130279648 -1.045457364
750025000.0 0.14196888 -1.048266052
765024500.0 0.410218016 -0.990827712
780024000.0 0.62790112 -0.856917824
795023500.0 0.871176128 -0.665839936
810023000.0 1.026845932 -0.425481856
825022500.0 1.095606088 -0.154275776
840022000.0 1.1010294 0.111203184
855021500.0 1.039105536 0.369746016
870021000.0 0.924839296 0.591716608
885020500.0 0.781425088 0.770313024
900020000.0 0.615799104 0.928782848
915019500.0 0.421690176 1.037082196
930019000.0 0.217142928 1.088234184
945018500.0 0.021565858 1.111752032
960018000.0 -0.182132592 1.09555864
975017500.0 -0.38100544 1.038447976
990017000.0 -0.542154176 0.963667968
1005016500.0 -0.69027648 0.851824896
1020016000.0 -0.832484224 0.714487872
1035015500.0 -0.95275008 0.557796864
1050015000.0 -1.078821304 0.403200352
1065014500.0 -1.102564336 0.181770944
1080014000.0 -1.142129056 -0.04209316
1095013500.0 -1.110232472 -0.261154384
1110013000.0 -1.056619288 -0.479788352
1125012500.0 -0.956380736 -0.711517184
1140012000.0 -0.77322752 -0.903519488
1155011500.0 -0.55703264 -1.160667424
1170011000.0 -0.285381888 -1.293605568
1185010500.0 0.037490076 -1.349441632
1200010000.0 0.462030944 -1.335706816
1215009500.0 0.85782464 -1.223483328
1230009000.0 1.282494432 -0.860630912
1245008500.0 1.435893888 -0.402818464
1260008000.0 1.43308128 0.122666192
1275007500.0 1.268784992 0.484955232
1290007000.0 1.033720376 0.739890752
1305006500.0 0.801855232 0.869396352
1320006000.0 0.584862912 0.94047136
1335005500.0 0.4286712 0.973891584
1350005000.0 0.290227712 1.023483634
1365004500.0 0.177720032 1.000856161
1380004000.0 0.046209056 1.079225776
1395003500.0 -0.052774396 1.145176416
1410003000.0 -0.189635312 1.229395392
1425002500.0 -0.428164128 1.317638144
1440002000.0 -0.779586944 1.429546368
1455001500.0 -1.376264576 1.323121792
1470001000.0 -1.921025024 0.650018048
1485000500.0 -1.735742336 -0.130834
1500000000.0 -1.419155232 -0.427658464
