! Created with skrf 1.8.0 (http://scikit-rf.org).
# Hz S RI R 50.0 
!freq ReS11 ImS11
50000.0 0.998959232 0.000826217
15049500.0 1.000409842 0.023693916
30049000.0 1.001392603 0.045156028
45048500.0 1.001218319 0.067566544
60048000.0 1.00131917 0.089202312
75047500.0 1.000177741 0.111405728
90047000.0 0.997905536 0.133635584
105046500.0 0.996884608 0.154871696
120046000.0 0.994937216 0.176747216
135045500.0 0.993409728 0.199133168
150045000.0 0.989571968 0.220819392
165044500.0 0.986472512 0.242773488
180044000.0 0.981816448 0.264918896
195043500.0 0.977297088 0.28623728
210043000.0 0.972476608 0.308008352
225042500.0 0.968077056 0.329230944
240042000.0 0.962434432 0.351180224
255041500.0 0.955912064 0.373109696
270041000.0 0.948441344 0.394104096
285040500.0 0.940558656 0.414829344
300040000.0 0.936137664 0.4351952
315039500.0 0.927815232 0.455746112
330039000.0 0.920753088 0.47763344
345038500.0 0.9139888 0.496125216
360038000.0 0.905367232 0.514936032
375037500.0 0.896453504 0.533165632
390037000.0 0.889899136 0.55184256
405036500.0 0.878615232 0.571592256
420036000.0 0.868681024 0.590952
435035500.0 0.856742272 0.610068608
450035000.0 0.84096992 0.628649856
465034500.0 0.834004736 0.648607616
480034000.0 0.820162624 0.66714816
495033500.0 0.807123456 0.683328256
510033000.0 0.792498496 0.700110464
525032500.0 0.781069248 0.718004416
540032000.0 0.765451328 0.733174464
555031500.0 0.749192832 0.75259328
570031000.0 0.734003392 0.7701568
585030500.0 0.717878976 0.78735968
600030000.0 0.702257344 0.81572032
615029500.0 0.682624896 0.832563968
630029000.0 0.663960384 0.848050304
645028500.0 0.64647168 0.861830784
660028000.0 0.623287936 0.876457344
675027500.0 0.604366272 0.89339136
690027000.0 0.584940096 0.90325664
705026500.0 0.560597568 0.917890432
720026000.0 0.534860192 0.934133568
735025500.0 0.508761536 0.943799232
750025000.0 0.4816928 0.9532384
765024500.0 0.454670912 0.961364864
780024000.0 0.429426016 0.959447808
795023500.0 0.407197568 0.970399232
810023000.0 0.388933504 0.969934144
825022500.0 0.37201888 0.969685248
840022000.0 0.352017408 0.971789696
855021500.0 0.338205696 0.964702528
870021000.0 0.334664 0.96419648
885020500.0 0.329882688 0.965866176
900020000.0 0.32332848 0.984487296
915019500.0 0.323564992 0.99293728
930019000.0 0.304770336 0.997887744
945018500.0 0.289953376 1.001660585
960018000.0 0.277656032 1.00039351
975017500.0 0.2577076 1.002702832
990017000.0 0.24724064 0.993401792
1005016500.0 0.230138112 0.992877696
1020016000.0 0.228531888 0.99047776
1035015500.0 0.223727616 1.002703786
1050015000.0 0.21838096 1.016089798
1065014500.0 0.225521584 1.034923672
1080014000.0 0.220979904 1.065336228
1095013500.0 0.208864448 1.092146752
1110013000.0 0.1827748 1.131491424
1125012500.0 0.122794056 1.1873064
1140012000.0 0.08667704 1.210249072
1155011500.0 0.021131646 1.194070464
1170011000.0 -0.05895454 1.223809712
1185010500.0 -0.146161072 1.20978368
1200010000.0 -0.201317408 1.169676064
1215009500.0 -0.254694224 1.127636552
1230009000.0 -0.265590432 1.068595048
1245008500.0 -0.295937056 1.01375246
1260008000.0 -0.303796416 1.000053763
1275007500.0 -0.267043408 0.944248576
1290007000.0 -0.260775232 0.921066432
1305006500.0 -0.208274304 0.895683136
1320006000.0 -0.18811744 0.911652864
1335005500.0 -0.12270904 0.931394112
1350005000.0 -0.088242192 0.956619392
1365004500.0 -0.025731442 0.982917056
1380004000.0 0.02695875 1.076718328
1395003500.0 0.060151824 1.156115056
1410003000.0 0.119204776 1.250165936
1425002500.0 0.080754064 1.405871872
1440002000.0 0.045191384 1.668103808
1455001500.0 -0.198897792 2.010126352
1470001000.0 -0.907528064 2.344711072
1485000500.0 -1.545115328 1.803239936
1500000000.0 -1.608983488 1.00981927
