! Created with skrf 1.8.0 (http://scikit-rf.org).
# Hz S RI R 50.0 
!freq ReS11 ImS11
50000.0 0.998161792 0.001366176
15049500.0 1.000870109 0.024341134
30049000.0 1.001001954 0.046440552
45048500.0 1.000274181 0.068879528
60048000.0 0.999752704 0.090236176
75047500.0 0.997610944 0.112060648
90047000.0 0.994931136 0.133699416
105046500.0 0.992589696 0.153145488
120046000.0 0.98908672 0.173398528
135045500.0 0.985623104 0.192639904
150045000.0 0.98265408 0.213149792
165044500.0 0.97848256 0.231934928
180044000.0 0.97415808 0.251753632
195043500.0 0.969348736 0.270614048
210043000.0 0.965073408 0.28987472
225042500.0 0.96033504 0.309187072
240042000.0 0.95569856 0.329647424
255041500.0 0.950414592 0.349839904
270041000.0 0.944239232 0.370562592
285040500.0 0.938898432 0.392709376
300040000.0 0.9358 0.41574384
315039500.0 0.927740928 0.43655552
330039000.0 0.921058304 0.460538432
345038500.0 0.912416512 0.479390752
360038000.0 0.90655744 0.502242688
375037500.0 0.896619776 0.523352576
390037000.0 0.89124992 0.546390208
405036500.0 0.878132736 0.56646784
420036000.0 0.86923488 0.589121536
435035500.0 0.855686912 0.610116096
450035000.0 0.842309504 0.638073152
465034500.0 0.830658048 0.650417728
480034000.0 0.820324032 0.66745568
495033500.0 0.805888576 0.683347136
510033000.0 0.794041856 0.69960096
525032500.0 0.779791872 0.710603072
540032000.0 0.76777568 0.725682176
555031500.0 0.752037184 0.738164992
570031000.0 0.742637056 0.752670528
585030500.0 0.72711712 0.761952512
600030000.0 0.714880576 0.785077376
615029500.0 0.699920896 0.796585984
630029000.0 0.68569664 0.806733376
645028500.0 0.671943872 0.815518528
660028000.0 0.655831296 0.829130176
675027500.0 0.638877952 0.841115584
690027000.0 0.621419712 0.854605888
705026500.0 0.600568896 0.867493312
720026000.0 0.577406272 0.881068544
735025500.0 0.551999488 0.895506048
750025000.0 0.525146656 0.90859744
765024500.0 0.498711488 0.921329152
780024000.0 0.47305872 0.929373312
795023500.0 0.445403584 0.938942208
810023000.0 0.426560544 0.9462928
825022500.0 0.399628896 0.953125312
840022000.0 0.3785944 0.957395776
855021500.0 0.363238528 0.959859072
870021000.0 0.348947296 0.957198656
885020500.0 0.335108096 0.959024576
900020000.0 0.333022528 0.979815168
915019500.0 0.32294592 0.992624384
930019000.0 0.306363488 0.99695424
945018500.0 0.290733824 0.993004032
960018000.0 0.272690976 0.999379904
975017500.0 0.255653232 0.997488768
990017000.0 0.246531968 0.9941984
1005016500.0 0.244348864 0.985558784
1020016000.0 0.242169088 0.979965568
1035015500.0 0.24643664 0.98185856
1050015000.0 0.233297424 0.99375424
1065014500.0 0.269985632 1.011520744
1080014000.0 0.267585344 1.039929748
1095013500.0 0.275956768 1.05686736
1110013000.0 0.243511696 1.098855976
1125012500.0 0.20479704 1.152693632
1140012000.0 0.16380408 1.163243056
1155011500.0 0.116801224 1.166742448
1170011000.0 0.025037372 1.21357608
1185010500.0 -0.013805408 1.192294128
1200010000.0 -0.091565864 1.157094
1215009500.0 -0.134537312 1.121821288
1230009000.0 -0.171328224 1.073554512
1245008500.0 -0.208121776 1.025692462
1260008000.0 -0.20986728 1.001800299
1275007500.0 -0.22496512 0.94266528
1290007000.0 -0.206335808 0.935452544
1305006500.0 -0.16532152 0.899615616
1320006000.0 -0.150417808 0.908770112
1335005500.0 -0.099790464 0.923748096
1350005000.0 -0.055439832 0.944029696
1365004500.0 -0.006666114 1.029631972
1380004000.0 0.0270268 1.055443764
1395003500.0 0.064960964 1.136190768
1410003000.0 0.139896112 1.198649648
1425002500.0 0.17341104 1.386307488
1440002000.0 0.090384472 1.60115328
1455001500.0 -0.08644596 1.953674176
1470001000.0 -0.699568576 2.33865952
1485000500.0 -1.432093024 1.869633408
1500000000.0 -1.56892704 1.081385136
