! Created with skrf 1.8.0 (http://scikit-rf.org).
# Hz S RI R 50.0 
!freq ReS11 ImS11
50000.0 0.998470464 0.001181911
15049500.0 1.0006634 0.024471902
30049000.0 1.000971198 0.04709464
45048500.0 1.000717759 0.069318776
60048000.0 0.999517568 0.091404104
75047500.0 0.998005824 0.113395736
90047000.0 0.995326336 0.135216464
105046500.0 0.992587584 0.155590608
120046000.0 0.989595008 0.17560784
135045500.0 0.985892864 0.195172288
150045000.0 0.982311296 0.215488464
165044500.0 0.979053632 0.235373456
180044000.0 0.974602752 0.255203456
195043500.0 0.969604544 0.274400768
210043000.0 0.96535936 0.293745248
225042500.0 0.960273216 0.313484672
240042000.0 0.955433024 0.333436864
255041500.0 0.950166912 0.354956544
270041000.0 0.944166912 0.37516544
285040500.0 0.93819104 0.397178208
300040000.0 0.934988288 0.418769408
315039500.0 0.926686208 0.439464736
330039000.0 0.918964672 0.460324064
345038500.0 0.913086464 0.483675264
360038000.0 0.905439872 0.504973344
375037500.0 0.896599424 0.526150048
390037000.0 0.88667616 0.548460736
405036500.0 0.878281792 0.569241536
420036000.0 0.867232768 0.59120992
435035500.0 0.85395616 0.61281344
450035000.0 0.841493824 0.63785568
465034500.0 0.8320432 0.653952064
480034000.0 0.820028736 0.670091072
495033500.0 0.803265536 0.68710144
510033000.0 0.794578112 0.698625472
525032500.0 0.777899136 0.715556032
540032000.0 0.764744192 0.727875136
555031500.0 0.752806272 0.740787904
570031000.0 0.740980672 0.754327936
585030500.0 0.727659456 0.767709632
600030000.0 0.713102656 0.79122656
615029500.0 0.698070656 0.803164672
630029000.0 0.682756096 0.8138576
645028500.0 0.668826752 0.823818112
660028000.0 0.651771456 0.83547744
675027500.0 0.63291808 0.8463216
690027000.0 0.618335552 0.859236864
705026500.0 0.59592832 0.874948928
720026000.0 0.570140032 0.892999616
735025500.0 0.547221824 0.90538944
750025000.0 0.517477216 0.918101312
765024500.0 0.492717856 0.928210944
780024000.0 0.466071296 0.93684832
795023500.0 0.440606336 0.947042176
810023000.0 0.416716736 0.951455424
825022500.0 0.3947392 0.95729344
840022000.0 0.373587008 0.961372672
855021500.0 0.354801888 0.964623872
870021000.0 0.34185728 0.957965376
885020500.0 0.333446944 0.961788416
900020000.0 0.327717568 0.993006016
915019500.0 0.311485344 0.992215872
930019000.0 0.296322496 0.998266496
945018500.0 0.282431168 0.999707072
960018000.0 0.272110016 1.003203869
975017500.0 0.252375984 1.003052116
990017000.0 0.245235168 0.993428032
1005016500.0 0.239372736 0.985505472
1020016000.0 0.23544776 0.983101312
1035015500.0 0.240923504 0.991433472
1050015000.0 0.267617856 0.98953184
1065014500.0 0.26104144 1.018737078
1080014000.0 0.267009472 1.042658804
1095013500.0 0.262971136 1.074883104
1110013000.0 0.232509808 1.095406056
1125012500.0 0.194039392 1.165849088
1140012000.0 0.167057296 1.190784208
1155011500.0 0.06055996 1.20485056
1170011000.0 0.014028434 1.217889072
1185010500.0 -0.055791248 1.188209056
1200010000.0 -0.108726136 1.15690088
1215009500.0 -0.152944304 1.13035476
1230009000.0 -0.207880768 1.069218752
1245008500.0 -0.211622992 1.023895264
1260008000.0 -0.23433416 0.980264064
1275007500.0 -0.2141584 0.96128384
1290007000.0 -0.21685984 0.9376432
1305006500.0 -0.176356432 0.909338816
1320006000.0 -0.131081504 0.90103168
1335005500.0 -0.103279472 0.916579776
1350005000.0 -0.048453388 0.959737536
1365004500.0 -0.038333244 1.009300114
1380004000.0 0.024187186 1.03065765
1395003500.0 0.089453512 1.13149476
1410003000.0 0.125749752 1.25902664
1425002500.0 0.1479096 1.439240352
1440002000.0 0.058643208 1.619384064
1455001500.0 -0.127269136 1.971499904
1470001000.0 -0.686706752 2.222043984
1485000500.0 -1.48274624 1.879940416
1500000000.0 -1.608200896 1.111258152
