! Created with skrf 1.8.0 (http://scikit-rf.org).
# Hz S RI R 50.0 
!freq ReS11 ImS11
50000.0 0.998106112 0.001497215
15049500.0 0.9763552 0.219925648
30049000.0 0.906952256 0.427757632
45048500.0 0.793582848 0.61554112
60048000.0 0.64463872 0.772620224
75047500.0 0.465637792 0.896138624
90047000.0 0.252162608 0.981612416
105046500.0 0.032983262 1.013059258
120046000.0 -0.18874168 0.998260992
135045500.0 -0.403500864 0.935285504
150045000.0 -0.601282752 0.824040704
165044500.0 -0.769798912 0.67180416
180044000.0 -0.899724992 0.484702048
195043500.0 -0.986861952 0.273320064
210043000.0 -1.02430451 0.044563192
225042500.0 -1.008524896 -0.188485904
240042000.0 -0.93931392 -0.413296192
255041500.0 -0.820226816 -0.61712096
270041000.0 -0.65686432 -0.788241024
285040500.0 -0.457820032 -0.917856
300040000.0 -0.236568112 -0.987768384
315039500.0 -0.004465785 -1.017822028
330039000.0 0.226329792 -0.991920704
345038500.0 0.447685376 -0.916517696
360038000.0 0.642199744 -0.79594336
375037500.0 0.806964544 -0.635697152
390037000.0 0.939761728 -0.447319072
405036500.0 1.014047742 -0.237517824
420036000.0 1.051852584 -0.015983128
435035500.0 1.042603968 0.217721328
450035000.0 0.977419648 0.44481504
465034500.0 0.863749056 0.660240832
480034000.0 0.706622592 0.834379904
495033500.0 0.513139712 0.965291008
510033000.0 0.300059744 1.053253412
525032500.0 0.076867736 1.085816504
540032000.0 -0.145635872 1.078079464
555031500.0 -0.360343392 1.024755954
570031000.0 -0.560038592 0.925396416
585030500.0 -0.728055296 0.788385856
600030000.0 -0.875635008 0.636812032
615029500.0 -0.982857088 0.438964384
630029000.0 -1.052945612 0.221980512
645028500.0 -1.067285064 -0.015594386
660028000.0 -1.029506206 -0.252799984
675027500.0 -0.935155712 -0.476252928
690027000.0 -0.805472128 -0.683910656
705026500.0 -0.616328448 -0.85221088
720026000.0 -0.384710304 -0.971988352
735025500.0 -0.130242336 -1.042330028
750025000.0 0.138097264 -1.04779482
765024500.0 0.405983072 -0.987266304
780024000.0 0.63661984 -0.847894016
795023500.0 0.86696128 -0.667057216
810023000.0 1.023275018 -0.429024704
825022500.0 1.096824288 -0.159274192
840022000.0 1.097634792 0.114507552
855021500.0 1.03796172 0.367388992
870021000.0 0.926224512 0.591422976
885020500.0 0.769972928 0.756336256
900020000.0 0.620441728 0.930551936
915019500.0 0.428836 1.035832168
930019000.0 0.223276864 1.087475416
945018500.0 0.017006492 1.107980016
960018000.0 -0.18033536 1.0883944
975017500.0 -0.369808928 1.033851384
990017000.0 -0.53707808 0.958233984
1005016500.0 -0.691035776 0.85426944
1020016000.0 -0.820225664 0.723264832
1035015500.0 -0.952976256 0.568166144
1050015000.0 -1.044999124 0.356746944
1065014500.0 -1.110945464 0.182786368
1080014000.0 -1.128959056 -0.055045868
1095013500.0 -1.117591264 -0.266713472
1110013000.0 -1.04815662 -0.487752608
1125012500.0 -0.958625664 -0.720214592
1140012000.0 -0.770052544 -0.909835072
1155011500.0 -0.597612672 -1.085872888
1170011000.0 -0.3245392 -1.2144916
1185010500.0 0.058336868 -1.343737728
1200010000.0 0.443934016 -1.324256896
1215009500.0 0.874168192 -1.193931584
1230009000.0 1.256681568 -0.855702016
1245008500.0 1.443986048 -0.367257216
1260008000.0 1.423117504 0.097830336
1275007500.0 1.271302464 0.455224704
1290007000.0 1.007082463 0.728219968
1305006500.0 0.79997184 0.865046912
1320006000.0 0.605659008 0.94916672
1335005500.0 0.42133072 0.96077344
1350005000.0 0.288263872 0.984553472
1365004500.0 0.225597792 0.988676864
1380004000.0 0.060365988 1.07273376
1395003500.0 -0.05581598 1.12560916
1410003000.0 -0.178994848 1.21059168
1425002500.0 -0.425196576 1.321364768
1440002000.0 -0.767609856 1.424454464
1455001500.0 -1.347414144 1.307882784
1470001000.0 -1.877265216 0.670512128
1485000500.0 -1.664542656 -0.114948152
1500000000.0 -1.410699616 -0.398358016
