! Created with skrf 1.8.0 (http://scikit-rf.org).
# Hz S RI R 50.0 
!freq ReS11 ImS11
50000.0 0.999284096 0.002081059
15049500.0 0.978142464 0.220404752
30049000.0 0.90811584 0.428514368
45048500.0 0.794906304 0.616056896
60048000.0 0.645675072 0.7737936
75047500.0 0.466769728 0.897658368
90047000.0 0.253114912 0.982401344
105046500.0 0.03279055 1.014701962
120046000.0 -0.18895216 0.99934592
135045500.0 -0.40396384 0.936953472
150045000.0 -0.60195904 0.825720448
165044500.0 -0.770392896 0.672826688
180044000.0 -0.901168768 0.485733376
195043500.0 -0.988260608 0.273795456
210043000.0 -1.026581168 0.044662484
225042500.0 -1.01133275 -0.189476208
240042000.0 -0.941940416 -0.41428912
255041500.0 -0.821200448 -0.618493056
270041000.0 -0.657537408 -0.789846144
285040500.0 -0.460434464 -0.919723776
300040000.0 -0.238867408 -0.990485056
315039500.0 -0.003917668 -1.01758325
330039000.0 0.228651456 -0.995810752
345038500.0 0.448845152 -0.91816608
360038000.0 0.645028928 -0.796104832
375037500.0 0.808827264 -0.63889184
390037000.0 0.933772608 -0.44999136
405036500.0 1.017126084 -0.239943648
420036000.0 1.056995152 -0.015468226
435035500.0 1.048504948 0.222715376
450035000.0 0.989956288 0.457736448
465034500.0 0.866227072 0.66451488
480034000.0 0.70617312 0.83563904
495033500.0 0.513479424 0.969738688
510033000.0 0.301756832 1.055255652
525032500.0 0.076392304 1.092156408
540032000.0 -0.14714032 1.081555488
555031500.0 -0.359863872 1.024779082
570031000.0 -0.55781472 0.929252736
585030500.0 -0.733351104 0.787998528
600030000.0 -0.880655872 0.640964928
615029500.0 -0.986903488 0.440028768
630029000.0 -1.054988504 0.216109648
645028500.0 -1.072416544 -0.02039126
660028000.0 -1.033861636 -0.252620128
675027500.0 -0.950205568 -0.482378944
690027000.0 -0.803124992 -0.68570976
705026500.0 -0.61851424 -0.852808128
720026000.0 -0.389158336 -0.976700096
735025500.0 -0.138925296 -1.047508
750025000.0 0.134259616 -1.0583266
765024500.0 0.406772928 -0.993752128
780024000.0 0.694089984 -0.86488608
795023500.0 0.865371264 -0.675701312
810023000.0 1.018995046 -0.430445984
825022500.0 1.10009444 -0.163973056
840022000.0 1.113600968 0.110079112
855021500.0 1.04452944 0.359161216
870021000.0 0.929357952 0.58710336
885020500.0 0.785452096 0.763413696
900020000.0 0.623675456 0.92245472
915019500.0 0.429729952 1.0299021
930019000.0 0.233544672 1.08603728
945018500.0 0.032317664 1.109331608
960018000.0 -0.16552408 1.084914688
975017500.0 -0.359347808 1.041549564
990017000.0 -0.528929344 0.962449024
1005016500.0 -0.684499968 0.854350272
1020016000.0 -0.830829632 0.710993536
1035015500.0 -0.947329344 0.568033024
1050015000.0 -1.06193602 0.403246976
1065014500.0 -1.093585368 0.199068112
1080014000.0 -1.124272344 -0.028757084
1095013500.0 -1.105898976 -0.236644112
1110013000.0 -1.045290112 -0.471049536
1125012500.0 -0.955075136 -0.707399104
1140012000.0 -0.764684736 -0.89608416
1155011500.0 -0.56284224 -1.125443456
1170011000.0 -0.289502688 -1.204289552
1185010500.0 0.035155428 -1.303683392
1200010000.0 0.453169856 -1.308861024
1215009500.0 0.866648 -1.16326952
1230009000.0 1.207199568 -0.849423232
1245008500.0 1.408596384 -0.370602432
1260008000.0 1.407575008 0.128267752
1275007500.0 1.227036592 0.46748192
1290007000.0 0.993480064 0.721658368
1305006500.0 0.781113344 0.855505024
1320006000.0 0.566298368 0.911986112
1335005500.0 0.43194352 0.961839936
1350005000.0 0.277647648 0.9919968
1365004500.0 0.192822448 1.029031158
1380004000.0 0.057340436 1.070938232
1395003500.0 -0.057980904 1.112391952
1410003000.0 -0.200979776 1.211642624
1425002500.0 -0.412331872 1.328152064
1440002000.0 -0.743497664 1.405266656
1455001500.0 -1.338878528 1.271562816
1470001000.0 -1.890984896 0.684644352
1485000500.0 -1.752531904 -0.038321808
1500000000.0 -1.400581952 -0.393865216
