! Created with skrf 1.8.0 (http://scikit-rf.org).
# Hz S RI R 50.0 
!freq ReS11 ImS11
50000.0 -0.99979616 -0.000501858
15049500.0 -0.99933824 -0.016917904
30049000.0 -0.999835648 -0.033776368
45048500.0 -0.998908224 -0.050436032
60048000.0 -0.99831232 -0.066491076
75047500.0 -0.997561216 -0.082842424
90047000.0 -0.994898112 -0.100068496
105046500.0 -0.993399232 -0.115450608
120046000.0 -0.990982144 -0.13032764
135045500.0 -0.988741504 -0.146123216
150045000.0 -0.985521536 -0.16108264
165044500.0 -0.983107904 -0.175489536
180044000.0 -0.980653312 -0.19002712
195043500.0 -0.97831872 -0.204489888
210043000.0 -0.974170688 -0.219550336
225042500.0 -0.969520256 -0.234397472
240042000.0 -0.96488256 -0.249050608
255041500.0 -0.960292032 -0.262804864
270041000.0 -0.955008192 -0.276121728
285040500.0 -0.95144576 -0.290105824
300040000.0 -0.948030144 -0.303281728
315039500.0 -0.941549184 -0.316551872
330039000.0 -0.938721152 -0.332383104
345038500.0 -0.929761728 -0.345316512
360038000.0 -0.928345664 -0.35982192
375037500.0 -0.920337216 -0.373501536
390037000.0 -0.9131104 -0.384652608
405036500.0 -0.907574912 -0.40283072
420036000.0 -0.901640832 -0.418882784
435035500.0 -0.894561984 -0.435737088
450035000.0 -0.88541408 -0.45454672
465034500.0 -0.876007616 -0.466166784
480034000.0 -0.864381312 -0.478695136
495033500.0 -0.857487488 -0.489457792
510033000.0 -0.846185344 -0.502786464
525032500.0 -0.838264256 -0.512648768
540032000.0 -0.832310272 -0.523604928
555031500.0 -0.825859968 -0.53440912
570031000.0 -0.820647808 -0.546860288
585030500.0 -0.816093056 -0.55759328
600030000.0 -0.804716096 -0.576061376
615029500.0 -0.795879744 -0.589224192
630029000.0 -0.780810432 -0.601341376
645028500.0 -0.772320896 -0.611921984
660028000.0 -0.759131968 -0.623965248
675027500.0 -0.748447232 -0.636566848
690027000.0 -0.734442048 -0.641621504
705026500.0 -0.726683776 -0.654761728
720026000.0 -0.715520512 -0.660008256
735025500.0 -0.705883712 -0.670709696
750025000.0 -0.691189312 -0.67987904
765024500.0 -0.683192128 -0.692583744
780024000.0 -0.677875648 -0.693064576
795023500.0 -0.661368832 -0.713946496
810023000.0 -0.648920576 -0.72677792
825022500.0 -0.637930304 -0.738575168
840022000.0 -0.623828288 -0.745370688
855021500.0 -0.615130048 -0.759017408
870021000.0 -0.609259712 -0.764773184
885020500.0 -0.598650752 -0.778098752
900020000.0 -0.616695488 -0.769485376
915019500.0 -0.599177088 -0.783764608
930019000.0 -0.591113664 -0.809356992
945018500.0 -0.579162368 -0.818997824
960018000.0 -0.563289152 -0.845087744
975017500.0 -0.540211776 -0.861417024
990017000.0 -0.514221952 -0.86313376
1005016500.0 -0.492108704 -0.86309216
1020016000.0 -0.483729792 -0.861593856
1035015500.0 -0.45661104 -0.860778304
1050015000.0 -0.445977056 -0.851928448
1065014500.0 -0.445001408 -0.878856832
1080014000.0 -0.451523904 -0.888563136
1095013500.0 -0.456084896 -0.895598208
1110013000.0 -0.44993728 -0.912256128
1125012500.0 -0.436716448 -0.940437952
1140012000.0 -0.424362816 -0.922384768
1155011500.0 -0.377204608 -0.998279808
1170011000.0 -0.390287584 -1.00521183
1185010500.0 -0.385105952 -0.99049952
1200010000.0 -0.33865696 -1.000904322
1215009500.0 -0.317163552 -1.002829313
1230009000.0 -0.272080448 -1.013110638
1245008500.0 -0.254740768 -1.009071112
1260008000.0 -0.215306528 -0.982170048
1275007500.0 -0.202666112 -1.006807089
1290007000.0 -0.18095056 -0.988544128
1305006500.0 -0.18595 -1.002918482
1320006000.0 -0.182370096 -1.025629402
1335005500.0 -0.15865808 -1.040525556
1350005000.0 -0.134567936 -1.09165728
1365004500.0 -0.100577544 -1.232302304
1380004000.0 -0.023538016 -1.226121184
1395003500.0 0.003807255 -1.288224576
1410003000.0 0.100408472 -1.318348064
1425002500.0 0.243851312 -1.308504096
1440002000.0 0.439994368 -1.30236816
1455001500.0 0.621921856 -1.167482016
1470001000.0 0.64702464 -1.036428572
1485000500.0 0.737761152 -0.881472448
1500000000.0 0.88130656 -0.697735872
