! Created with skrf 1.8.0 (http://scikit-rf.org).
# Hz S RI R 50.0 
!freq ReS11 ImS11
50000.0 0.997639232 0.001819535
15049500.0 0.97674752 0.220191296
30049000.0 0.907154816 0.427702656
45048500.0 0.793508736 0.615687872
60048000.0 0.644817536 0.772908608
75047500.0 0.465476672 0.896080128
90047000.0 0.25207496 0.981266368
105046500.0 0.03276125 1.013439776
120046000.0 -0.189028048 0.997953472
135045500.0 -0.40376864 0.93359072
150045000.0 -0.601553472 0.82381344
165044500.0 -0.769689728 0.67168448
180044000.0 -0.899517248 0.484341952
195043500.0 -0.985975488 0.273203328
210043000.0 -1.024552226 0.045315372
225042500.0 -1.008953334 -0.18858712
240042000.0 -0.93993248 -0.412915968
255041500.0 -0.82019264 -0.617072256
270041000.0 -0.657011456 -0.78803232
285040500.0 -0.45776608 -0.918436992
300040000.0 -0.239382736 -0.99050432
315039500.0 -0.005223067 -1.016227366
330039000.0 0.230252736 -0.990217024
345038500.0 0.447760544 -0.915869952
360038000.0 0.643024704 -0.796486144
375037500.0 0.806307584 -0.637828928
390037000.0 0.91710688 -0.442011488
405036500.0 1.01320219 -0.240904576
420036000.0 1.054530024 -0.01510192
435035500.0 1.042484404 0.217333856
450035000.0 0.985348672 0.455751584
465034500.0 0.865932416 0.658215104
480034000.0 0.705181056 0.833004864
495033500.0 0.515399648 0.967968512
510033000.0 0.300230048 1.052376984
525032500.0 0.076784832 1.089149832
540032000.0 -0.146806384 1.079266784
555031500.0 -0.35938912 1.020858168
570031000.0 -0.55793664 0.92218784
585030500.0 -0.73139808 0.780931968
600030000.0 -0.8728848 0.633969408
615029500.0 -0.983879168 0.437894432
630029000.0 -1.050621032 0.215804512
645028500.0 -1.066915868 -0.012837128
660028000.0 -1.031773806 -0.254654848
675027500.0 -0.937862272 -0.479167392
690027000.0 -0.799808448 -0.68182848
705026500.0 -0.60901536 -0.853148032
720026000.0 -0.388729472 -0.973436864
735025500.0 -0.1316164 -1.044795752
750025000.0 0.138079184 -1.052111268
765024500.0 0.409197408 -0.985182336
780024000.0 0.642478016 -0.8754256
795023500.0 0.86584736 -0.667095168
810023000.0 1.018388748 -0.426782144
825022500.0 1.08999264 -0.15322392
840022000.0 1.0974282 0.113642368
855021500.0 1.042407036 0.370873856
870021000.0 0.923621312 0.587223616
885020500.0 0.768414336 0.75961632
900020000.0 0.614635584 0.928540096
915019500.0 0.425655328 1.031070352
930019000.0 0.22222224 1.088293312
945018500.0 0.01981734 1.105247856
960018000.0 -0.174511552 1.09359932
975017500.0 -0.373925056 1.036114812
990017000.0 -0.538588608 0.957787072
1005016500.0 -0.690857664 0.854428288
1020016000.0 -0.82436512 0.711648832
1035015500.0 -0.953492416 0.558950144
1050015000.0 -1.031570076 0.368313952
1065014500.0 -1.113466976 0.173700288
1080014000.0 -1.127980232 -0.036007652
1095013500.0 -1.118142128 -0.256699232
1110013000.0 -1.050665616 -0.483162272
1125012500.0 -0.965873344 -0.721588672
1140012000.0 -0.787246528 -0.912631552
1155011500.0 -0.571178944 -1.154685264
1170011000.0 -0.28236736 -1.226591584
1185010500.0 0.031235314 -1.347377888
1200010000.0 0.456964256 -1.333976736
1215009500.0 0.845697088 -1.196331504
1230009000.0 1.260747072 -0.855981312
1245008500.0 1.453262208 -0.377543168
1260008000.0 1.453576672 0.10626184
1275007500.0 1.263584144 0.490376768
1290007000.0 1.017146706 0.716642112
1305006500.0 0.804048448 0.864456192
1320006000.0 0.569511552 0.938264
1335005500.0 0.441458816 0.964673344
1350005000.0 0.288849408 1.008303285
1365004500.0 0.153655968 1.05594492
1380004000.0 0.080331776 1.063602208
1395003500.0 -0.04660232 1.120795008
1410003000.0 -0.183789616 1.20291912
1425002500.0 -0.417311072 1.34171856
1440002000.0 -0.783450752 1.428677088
1455001500.0 -1.391629216 1.332740064
1470001000.0 -1.829145408 0.638147264
1485000500.0 -1.736378816 -0.052273296
1500000000.0 -1.381980064 -0.405412256
