! Created with skrf 1.8.0 (http://scikit-rf.org).
# Hz S RI R 50.0 
!freq ReS11 ImS11
50000.0 -0.992960192 -0.000514055
15049500.0 -0.991708224 -0.013076402
30049000.0 -0.991913792 -0.026872028
45048500.0 -0.990920064 -0.041091708
60048000.0 -0.99059008 -0.055227192
75047500.0 -0.99050688 -0.06980168
90047000.0 -0.98873184 -0.085727696
105046500.0 -0.988086784 -0.100568848
120046000.0 -0.986795456 -0.115778904
135045500.0 -0.9848 -0.131544992
150045000.0 -0.984338688 -0.146953296
165044500.0 -0.982025408 -0.16197776
180044000.0 -0.97995776 -0.177127344
195043500.0 -0.97807072 -0.192300944
210043000.0 -0.974377024 -0.207754368
225042500.0 -0.970082624 -0.224716496
240042000.0 -0.96562752 -0.237450816
255041500.0 -0.960453504 -0.250127312
270041000.0 -0.956192192 -0.262563472
285040500.0 -0.950188992 -0.275542176
300040000.0 -0.949317376 -0.285069888
315039500.0 -0.940895616 -0.296687744
330039000.0 -0.937826304 -0.308052192
345038500.0 -0.92967648 -0.317323744
360038000.0 -0.92381888 -0.32918112
375037500.0 -0.919379456 -0.339044992
390037000.0 -0.914830336 -0.351542112
405036500.0 -0.90700896 -0.36200256
420036000.0 -0.902001024 -0.374960416
435035500.0 -0.895767616 -0.388697792
450035000.0 -0.884190976 -0.398899808
465034500.0 -0.87841824 -0.414179968
480034000.0 -0.869181056 -0.428845984
495033500.0 -0.862005888 -0.440005952
510033000.0 -0.853532416 -0.455204928
525032500.0 -0.84634016 -0.469361824
540032000.0 -0.83921504 -0.483788672
555031500.0 -0.833755584 -0.499214336
570031000.0 -0.82705152 -0.513547968
585030500.0 -0.822111232 -0.529642592
600030000.0 -0.812247808 -0.5547824
615029500.0 -0.799699008 -0.569177024
630029000.0 -0.785811264 -0.586383488
645028500.0 -0.771293888 -0.599619264
660028000.0 -0.764386048 -0.611744832
675027500.0 -0.753846656 -0.623037056
690027000.0 -0.739464576 -0.633129984
705026500.0 -0.725682944 -0.644830272
720026000.0 -0.719513408 -0.652271232
735025500.0 -0.705850752 -0.658188288
750025000.0 -0.695983936 -0.661306304
765024500.0 -0.689849984 -0.671212224
780024000.0 -0.682355456 -0.68276192
795023500.0 -0.674624064 -0.67959136
810023000.0 -0.668886656 -0.685652352
825022500.0 -0.660550592 -0.687825216
840022000.0 -0.653987456 -0.68906944
855021500.0 -0.65014752 -0.699000064
870021000.0 -0.644979648 -0.703862144
885020500.0 -0.642999296 -0.706785408
900020000.0 -0.658759104 -0.69210976
915019500.0 -0.653402432 -0.713341568
930019000.0 -0.64322112 -0.730478848
945018500.0 -0.63121824 -0.749404288
960018000.0 -0.618416064 -0.769150848
975017500.0 -0.607434944 -0.780657024
990017000.0 -0.57532608 -0.797746752
1005016500.0 -0.55666976 -0.79605472
1020016000.0 -0.526154176 -0.807577152
1035015500.0 -0.512756288 -0.805419136
1050015000.0 -0.471152256 -0.779693824
1065014500.0 -0.489175616 -0.839392384
1080014000.0 -0.464529824 -0.839324672
1095013500.0 -0.456943456 -0.869217728
1110013000.0 -0.446426304 -0.9028192
1125012500.0 -0.439315072 -0.93246656
1140012000.0 -0.425357856 -0.944817088
1155011500.0 -0.46210096 -0.952475904
1170011000.0 -0.363314688 -0.982950016
1185010500.0 -0.367357088 -0.979746624
1200010000.0 -0.334509216 -1.000999808
1215009500.0 -0.322513344 -1.000631452
1230009000.0 -0.290406336 -0.987771776
1245008500.0 -0.256847792 -0.992910464
1260008000.0 -0.250715248 -0.979020416
1275007500.0 -0.256019808 -0.973339072
1290007000.0 -0.226785312 -0.959967552
1305006500.0 -0.238453856 -0.95998496
1320006000.0 -0.256350096 -0.981381184
1335005500.0 -0.233399904 -0.995367872
1350005000.0 -0.214881664 -1.038028956
1365004500.0 -0.368520064 -1.166060208
1380004000.0 -0.20225224 -1.144608496
1395003500.0 -0.166877056 -1.243850944
1410003000.0 -0.019368454 -1.27664064
1425002500.0 0.114508352 -1.310285216
1440002000.0 0.281765664 -1.266780736
1455001500.0 0.500086432 -1.12211692
1470001000.0 0.568709056 -1.0515846
1485000500.0 0.59441984 -0.864846272
1500000000.0 0.812595264 -0.667028544
