! Created with skrf 1.8.0 (http://scikit-rf.org).
# Hz S RI R 50.0 
!freq ReS11 ImS11
50000.0 0.998259136 0.001841916
15049500.0 0.977365376 0.219847216
30049000.0 0.907885056 0.42805056
45048500.0 0.794616768 0.615861632
60048000.0 0.645334144 0.773278656
75047500.0 0.46642256 0.896535552
90047000.0 0.253187184 0.981857024
105046500.0 0.033104886 1.014034034
120046000.0 -0.18842616 0.99907072
135045500.0 -0.403091072 0.93662048
150045000.0 -0.601028864 0.825053312
165044500.0 -0.769353024 0.672400192
180044000.0 -0.900019328 0.485853184
195043500.0 -0.986865152 0.273938784
210043000.0 -1.02532339 0.046158216
225042500.0 -1.009610058 -0.186774336
240042000.0 -0.940987712 -0.412695936
255041500.0 -0.822140864 -0.616687232
270041000.0 -0.658214976 -0.787892928
285040500.0 -0.459517024 -0.91718176
300040000.0 -0.24219432 -0.989110784
315039500.0 -0.007474641 -1.017299772
330039000.0 0.223721392 -0.991317632
345038500.0 0.446127488 -0.919159552
360038000.0 0.642751936 -0.798286016
375037500.0 0.805874944 -0.639195776
390037000.0 0.926275968 -0.463380288
405036500.0 1.013715268 -0.242339024
420036000.0 1.052623868 -0.018488022
435035500.0 1.04233682 0.21782496
450035000.0 0.988664896 0.446571872
465034500.0 0.866933312 0.6582128
480034000.0 0.706359872 0.832948416
495033500.0 0.515677152 0.963708928
510033000.0 0.304431456 1.05277574
525032500.0 0.081001664 1.08760512
540032000.0 -0.144603472 1.080589888
555031500.0 -0.35895808 1.0202111
570031000.0 -0.552013632 0.925012416
585030500.0 -0.726723712 0.782504704
600030000.0 -0.875328064 0.638870912
615029500.0 -0.97987488 0.43837552
630029000.0 -1.046385288 0.21985624
645028500.0 -1.065909148 -0.015188094
660028000.0 -1.028687596 -0.250210048
675027500.0 -0.942736384 -0.47448432
690027000.0 -0.798035392 -0.68038784
705026500.0 -0.614568128 -0.849252544
720026000.0 -0.380873504 -0.977433984
735025500.0 -0.1319952 -1.044466852
750025000.0 0.143699216 -1.054007412
765024500.0 0.409802432 -0.989761088
780024000.0 0.648969216 -0.827770368
795023500.0 0.86471168 -0.67125632
810023000.0 1.014059424 -0.429563712
825022500.0 1.095886824 -0.160630368
840022000.0 1.102341176 0.109104608
855021500.0 1.043421148 0.375170464
870021000.0 0.923409856 0.586290304
885020500.0 0.769990848 0.758801344
900020000.0 0.616282048 0.926482944
915019500.0 0.434310304 1.028651952
930019000.0 0.221925168 1.088796136
945018500.0 0.017309088 1.107663272
960018000.0 -0.176145136 1.093083856
975017500.0 -0.378289856 1.047310828
990017000.0 -0.539719424 0.963849984
1005016500.0 -0.69424992 0.854635776
1020016000.0 -0.837416576 0.732607808
1035015500.0 -0.959044096 0.566535296
1050015000.0 -1.041049124 0.4027256
1065014500.0 -1.115843296 0.180755776
1080014000.0 -1.13255584 -0.034244076
1095013500.0 -1.126625536 -0.255758768
1110013000.0 -1.064503788 -0.486656672
1125012500.0 -0.961922176 -0.707531136
1140012000.0 -0.779486528 -0.913719168
1155011500.0 -0.577379776 -1.054932952
1170011000.0 -0.282399776 -1.236731168
1185010500.0 0.02274144 -1.350714816
1200010000.0 0.437998816 -1.339645152
1215009500.0 0.855936384 -1.201715824
1230009000.0 1.274679296 -0.8799984
1245008500.0 1.460488448 -0.383763872
1260008000.0 1.470509888 0.122905752
1275007500.0 1.285443776 0.476397312
1290007000.0 1.02539897 0.738877568
1305006500.0 0.81313792 0.863014848
1320006000.0 0.59383584 0.934348544
1335005500.0 0.4381728 0.988391488
1350005000.0 0.288817536 1.002794385
1365004500.0 0.1664432 1.082583072
1380004000.0 0.077894624 1.073391792
1395003500.0 -0.056829676 1.130226136
1410003000.0 -0.174471952 1.206672192
1425002500.0 -0.380393472 1.332051264
1440002000.0 -0.788510848 1.42529584
1455001500.0 -1.335275168 1.323991168
1470001000.0 -1.88214112 0.609411392
1485000500.0 -1.73846912 -0.059162996
1500000000.0 -1.374188288 -0.389013824
