! Created with skrf 1.8.0 (http://scikit-rf.org).
# Hz S RI R 50.0 
!freq ReS11 ImS11
50000.0 -0.9869632 -0.000891767
15049500.0 -0.985217856 -0.01342443
30049000.0 -0.985044992 -0.02688149
45048500.0 -0.984727872 -0.041052356
60048000.0 -0.984591616 -0.055198624
75047500.0 -0.984807168 -0.069475424
90047000.0 -0.982975104 -0.085292376
105046500.0 -0.98225632 -0.100141576
120046000.0 -0.982044736 -0.115289144
135045500.0 -0.980162048 -0.13103844
150045000.0 -0.979368 -0.146501584
165044500.0 -0.977234496 -0.161824304
180044000.0 -0.976253568 -0.17727792
195043500.0 -0.974140032 -0.19240912
210043000.0 -0.970308416 -0.207973984
225042500.0 -0.96657184 -0.223291472
240042000.0 -0.9620304 -0.237679504
255041500.0 -0.958011776 -0.251016528
270041000.0 -0.950980608 -0.263265936
285040500.0 -0.948210432 -0.275395712
300040000.0 -0.941755328 -0.286442848
315039500.0 -0.937975296 -0.29520336
330039000.0 -0.932898688 -0.305742688
345038500.0 -0.92537504 -0.315631584
360038000.0 -0.922028288 -0.325306592
375037500.0 -0.914918208 -0.335303616
390037000.0 -0.908822528 -0.344426752
405036500.0 -0.902824384 -0.356530336
420036000.0 -0.897667776 -0.369900032
435035500.0 -0.891460288 -0.383506656
450035000.0 -0.881088704 -0.39857232
465034500.0 -0.877322688 -0.408886016
480034000.0 -0.867781952 -0.420614656
495033500.0 -0.860367808 -0.43444768
510033000.0 -0.850178688 -0.447399936
525032500.0 -0.844809536 -0.462407008
540032000.0 -0.839823424 -0.477075936
555031500.0 -0.833604992 -0.492689216
570031000.0 -0.826531904 -0.507464
585030500.0 -0.818929472 -0.521398496
600030000.0 -0.81074848 -0.54882432
615029500.0 -0.798301248 -0.564558976
630029000.0 -0.783032576 -0.582255552
645028500.0 -0.773824768 -0.594647552
660028000.0 -0.759808704 -0.608796992
675027500.0 -0.751388032 -0.619207488
690027000.0 -0.737350272 -0.632345472
705026500.0 -0.727192192 -0.639669056
720026000.0 -0.717900224 -0.64714592
735025500.0 -0.708196864 -0.65278016
750025000.0 -0.695218624 -0.658044544
765024500.0 -0.690571008 -0.663982464
780024000.0 -0.68819552 -0.659592256
795023500.0 -0.677374912 -0.672013696
810023000.0 -0.670272576 -0.677893952
825022500.0 -0.66323456 -0.680452032
840022000.0 -0.656124352 -0.686412224
855021500.0 -0.65329984 -0.682228352
870021000.0 -0.6487728 -0.689378624
885020500.0 -0.644940928 -0.700483136
900020000.0 -0.66221344 -0.688633472
915019500.0 -0.655533888 -0.704237952
930019000.0 -0.652967104 -0.718630848
945018500.0 -0.63148032 -0.742919808
960018000.0 -0.617294656 -0.75767168
975017500.0 -0.596051968 -0.771697408
990017000.0 -0.580129024 -0.785896704
1005016500.0 -0.563067136 -0.793117056
1020016000.0 -0.52913552 -0.799819072
1035015500.0 -0.52316976 -0.804994688
1050015000.0 -0.52788192 -0.841250624
1065014500.0 -0.492737056 -0.83278272
1080014000.0 -0.476364 -0.837843328
1095013500.0 -0.456464256 -0.872479808
1110013000.0 -0.471467648 -0.886495872
1125012500.0 -0.4497192 -0.92384416
1140012000.0 -0.43584496 -0.93138208
1155011500.0 -0.360073472 -0.920988416
1170011000.0 -0.404680352 -0.960106432
1185010500.0 -0.382819776 -0.988118208
1200010000.0 -0.360633664 -0.99329024
1215009500.0 -0.334545312 -0.993966144
1230009000.0 -0.294453376 -1.00926578
1245008500.0 -0.279018464 -0.986776576
1260008000.0 -0.228738512 -0.987199808
1275007500.0 -0.260701888 -0.9611312
1290007000.0 -0.258346224 -0.9623952
1305006500.0 -0.24395664 -0.947602496
1320006000.0 -0.263843952 -0.971095872
1335005500.0 -0.261787712 -0.98372704
1350005000.0 -0.257734864 -1.036742448
1365004500.0 -0.207819488 -1.160407536
1380004000.0 -0.201057232 -1.14671648
1395003500.0 -0.17557744 -1.23321616
1410003000.0 -0.032387004 -1.260971904
1425002500.0 0.166865776 -1.311920288
1440002000.0 0.301026112 -1.21868944
1455001500.0 0.472596064 -1.172385936
1470001000.0 0.487718336 -1.040439964
1485000500.0 0.658034688 -0.896582016
1500000000.0 0.73633344 -0.673791232
