! Created with skrf 1.8.0 (http://scikit-rf.org).
# Hz S RI R 50.0 
!freq ReS11 ImS11
50000.0 -0.991776192 -0.000646489
15049500.0 -0.988421056 -0.010985374
30049000.0 -0.98749088 -0.02355877
45048500.0 -0.986705088 -0.036965432
60048000.0 -0.985953088 -0.050713036
75047500.0 -0.985743168 -0.064986468
90047000.0 -0.984246528 -0.081068296
105046500.0 -0.983508352 -0.096303112
120046000.0 -0.982822592 -0.112376896
135045500.0 -0.981847744 -0.128645616
150045000.0 -0.979803328 -0.145762208
165044500.0 -0.97877824 -0.161933616
180044000.0 -0.977160768 -0.178584672
195043500.0 -0.975273472 -0.194943616
210043000.0 -0.971622528 -0.211184992
225042500.0 -0.96716064 -0.227354784
240042000.0 -0.962770944 -0.242039968
255041500.0 -0.956709184 -0.254686112
270041000.0 -0.95063776 -0.26721328
285040500.0 -0.94741312 -0.278604448
300040000.0 -0.942570496 -0.288483328
315039500.0 -0.935994816 -0.296386912
330039000.0 -0.928540224 -0.303703232
345038500.0 -0.92359328 -0.31093952
360038000.0 -0.91738656 -0.321259648
375037500.0 -0.90978688 -0.327442944
390037000.0 -0.903409344 -0.33298704
405036500.0 -0.899140032 -0.344432896
420036000.0 -0.892912704 -0.353580064
435035500.0 -0.8863248 -0.365644192
450035000.0 -0.882922624 -0.377457312
465034500.0 -0.870610944 -0.389649728
480034000.0 -0.864985856 -0.401374912
495033500.0 -0.854529728 -0.412680544
510033000.0 -0.849420544 -0.428335072
525032500.0 -0.843345792 -0.442316576
540032000.0 -0.83816192 -0.458360032
555031500.0 -0.833336192 -0.474988576
570031000.0 -0.830207936 -0.49217072
585030500.0 -0.823861056 -0.510507104
600030000.0 -0.815770176 -0.537456768
615029500.0 -0.80329984 -0.55788608
630029000.0 -0.789663744 -0.576813312
645028500.0 -0.781545984 -0.591500608
660028000.0 -0.764880512 -0.60655104
675027500.0 -0.752651776 -0.621255296
690027000.0 -0.739888896 -0.631551296
705026500.0 -0.731118656 -0.646196224
720026000.0 -0.716967872 -0.651599744
735025500.0 -0.706109248 -0.655324864
750025000.0 -0.694471616 -0.661739712
765024500.0 -0.687265024 -0.663998528
780024000.0 -0.684962688 -0.670413888
795023500.0 -0.66874816 -0.667855232
810023000.0 -0.658418112 -0.669871168
825022500.0 -0.651126976 -0.668917376
840022000.0 -0.645350144 -0.666420032
855021500.0 -0.63952832 -0.66928704
870021000.0 -0.629615808 -0.669492096
885020500.0 -0.633258112 -0.67312736
900020000.0 -0.651057984 -0.66422624
915019500.0 -0.649346368 -0.677765248
930019000.0 -0.63346784 -0.69822272
945018500.0 -0.625053632 -0.712821184
960018000.0 -0.61578208 -0.729190016
975017500.0 -0.592631936 -0.745481472
990017000.0 -0.578298944 -0.760575296
1005016500.0 -0.560860672 -0.757408896
1020016000.0 -0.53923872 -0.76858976
1035015500.0 -0.523470176 -0.78024384
1050015000.0 -0.516123584 -0.826931072
1065014500.0 -0.496596384 -0.823335616
1080014000.0 -0.491676896 -0.840366336
1095013500.0 -0.502188512 -0.85347776
1110013000.0 -0.490240384 -0.890848384
1125012500.0 -0.470047232 -0.92960224
1140012000.0 -0.4474424 -0.935548992
1155011500.0 -0.464996288 -0.908483264
1170011000.0 -0.412231392 -0.949138944
1185010500.0 -0.396943584 -0.970054336
1200010000.0 -0.347872256 -0.99225184
1215009500.0 -0.326247136 -0.980850368
1230009000.0 -0.320155584 -0.97825184
1245008500.0 -0.266115072 -0.979216128
1260008000.0 -0.247555696 -0.938766528
1275007500.0 -0.251319312 -0.940638528
1290007000.0 -0.238324144 -0.924865216
1305006500.0 -0.212530064 -0.911601216
1320006000.0 -0.217557728 -0.925101248
1335005500.0 -0.227526864 -0.938464576
1350005000.0 -0.209585168 -0.945373824
1365004500.0 -0.139678016 -1.03548026
1380004000.0 -0.225376272 -1.091514824
1395003500.0 -0.162155248 -1.12074864
1410003000.0 -0.046622416 -1.24648512
1425002500.0 0.160969248 -1.2053212
1440002000.0 0.26515072 -1.17218232
1455001500.0 0.484060032 -1.082067016
1470001000.0 0.532437728 -0.949042432
1485000500.0 0.667464128 -0.846816128
1500000000.0 0.735030272 -0.669021952
