! Created with skrf 1.8.0 (http://scikit-rf.org).
# Hz S RI R 50.0 
!freq ReS11 ImS11
50000.0 0.007151053 -0.004376874
15049500.0 0.01899477 0.004435751
30049000.0 0.018099844 0.006684206
45048500.0 0.01572262 0.008952778
60048000.0 0.01256964 0.01124461
75047500.0 0.008932234 0.013805654
90047000.0 0.005800206 0.015668896
105046500.0 0.00350459 0.017039382
120046000.0 0.002799375 0.017547326
135045500.0 0.003579613 0.01637361
150045000.0 0.005758008 0.013369994
165044500.0 0.009128918 0.0083982
180044000.0 0.013438474 0.001156109
195043500.0 0.018002404 -0.008036603
210043000.0 0.02231048 -0.018825202
225042500.0 0.025920726 -0.03026755
240042000.0 0.028299124 -0.041676132
255041500.0 0.029096062 -0.05223866
270041000.0 0.02815329 -0.061209832
285040500.0 0.025513836 -0.067718856
300040000.0 0.02102856 -0.070682672
315039500.0 0.01651676 -0.071452112
330039000.0 0.01019071 -0.067010396
345038500.0 0.00288689 -0.059063212
360038000.0 -0.003764145 -0.047962336
375037500.0 -0.010056214 -0.035094128
390037000.0 -0.016174314 -0.018659354
405036500.0 -0.01878108 -0.002238046
420036000.0 -0.020774228 0.014799344
435035500.0 -0.02065882 0.03063708
450035000.0 -0.019305652 0.043742196
465034500.0 -0.016933894 0.05488344
480034000.0 -0.012844322 0.061482152
495033500.0 -0.008044634 0.06437788
510033000.0 -0.002803695 0.06253294
525032500.0 0.000426301 0.05467174
540032000.0 0.004368407 0.042687932
555031500.0 0.006114462 0.026947488
570031000.0 0.006716448 0.008128761
585030500.0 0.005361417 -0.014119322
600030000.0 0.001668852 -0.03721688
615029500.0 -0.00460834 -0.06106826
630029000.0 -0.012065992 -0.08423004
645028500.0 -0.022397158 -0.103183064
660028000.0 -0.030616354 -0.120173592
675027500.0 -0.044448432 -0.131444736
690027000.0 -0.053417764 -0.135779168
705026500.0 -0.066356288 -0.139103504
720026000.0 -0.077067528 -0.134089816
735025500.0 -0.086123992 -0.124470136
750025000.0 -0.093134616 -0.109734952
765024500.0 -0.09902988 -0.089149104
780024000.0 -0.104340232 -0.063178284
795023500.0 -0.100415432 -0.04307796
810023000.0 -0.098277184 -0.01797486
825022500.0 -0.09373832 0.007408909
840022000.0 -0.085260328 0.028956198
855021500.0 -0.07711872 0.048396752
870021000.0 -0.069144232 0.06228804
885020500.0 -0.058891064 0.07233444
900020000.0 -0.048337532 0.072663488
915019500.0 -0.043246908 0.072445128
930019000.0 -0.036378288 0.065142044
945018500.0 -0.035644708 0.051969144
960018000.0 -0.034946004 0.032285228
975017500.0 -0.04096916 0.008678314
990017000.0 -0.048473796 -0.009783788
1005016500.0 -0.057611544 -0.031975414
1020016000.0 -0.076953936 -0.05547362
1035015500.0 -0.09741604 -0.075118512
1050015000.0 -0.10909972 -0.086955656
1065014500.0 -0.131660344 -0.097514824
1080014000.0 -0.150435152 -0.107109624
1095013500.0 -0.166322096 -0.108931624
1110013000.0 -0.192251264 -0.124104136
1125012500.0 -0.203613616 -0.10717164
1140012000.0 -0.204150752 -0.106422504
1155011500.0 -0.215196368 -0.099020616
1170011000.0 -0.218706928 -0.08112764
1185010500.0 -0.21984064 -0.045089776
1200010000.0 -0.222072832 -0.01732092
1215009500.0 -0.198214592 0.002681705
1230009000.0 -0.184873424 0.024245646
1245008500.0 -0.162042336 0.059585
1260008000.0 -0.141349264 0.064580156
1275007500.0 -0.141895184 0.090614448
1290007000.0 -0.105347024 0.102273024
1305006500.0 -0.10758812 0.092931848
1320006000.0 -0.054628172 0.10148012
1335005500.0 -0.059223584 0.124612544
1350005000.0 -0.068736072 0.095325368
1365004500.0 -0.072847632 0.10606788
1380004000.0 -0.071020528 0.11304708
1395003500.0 -0.091612192 0.068164248
1410003000.0 -0.108732384 0.060262672
1425002500.0 -0.188027312 0.054263436
1440002000.0 -0.213947968 0.029288632
1455001500.0 -0.263363952 0.002902334
1470001000.0 -0.298561056 -0.102539504
1485000500.0 -0.32502688 -0.170672048
1500000000.0 -0.332274144 -0.21213152
