! Created with skrf 1.8.0 (http://scikit-rf.org).
# Hz S RI R 50.0 
!freq ReS11 ImS11
50000.0 0.009761902 -0.00437497
15049500.0 0.015035024 0.005618986
30049000.0 0.015036202 0.009448516
45048500.0 0.013926294 0.013366636
60048000.0 0.012055538 0.017413006
75047500.0 0.00987252 0.022501114
90047000.0 0.007883761 0.027368138
105046500.0 0.006444494 0.032546352
120046000.0 0.005867165 0.038076932
135045500.0 0.006581391 0.043542468
150045000.0 0.008810158 0.04844836
165044500.0 0.011989812 0.052485744
180044000.0 0.016322682 0.055454208
195043500.0 0.021695814 0.057441008
210043000.0 0.027357084 0.058142284
225042500.0 0.033259098 0.057577156
240042000.0 0.038982724 0.055722404
255041500.0 0.043840932 0.053061276
270041000.0 0.047499048 0.049674332
285040500.0 0.049600764 0.04609696
300040000.0 0.049324272 0.042544532
315039500.0 0.048823168 0.038934028
330039000.0 0.044320452 0.036474448
345038500.0 0.038857284 0.035258336
360038000.0 0.031341888 0.035074496
375037500.0 0.021346142 0.03609266
390037000.0 0.009814236 0.039315956
405036500.0 -0.002366942 0.044364708
420036000.0 -0.015690812 0.050920376
435035500.0 -0.028427796 0.058983164
450035000.0 -0.040867312 0.068368112
465034500.0 -0.052721404 0.07812868
480034000.0 -0.06197992 0.08889416
495033500.0 -0.07032976 0.099625832
510033000.0 -0.075314408 0.109727672
525032500.0 -0.078779048 0.12023432
540032000.0 -0.079727736 0.13035636
555031500.0 -0.079179912 0.139968592
570031000.0 -0.074508384 0.147412592
585030500.0 -0.068808816 0.154316736
600030000.0 -0.058959696 0.160773648
615029500.0 -0.050464416 0.16353512
630029000.0 -0.039998468 0.16514008
645028500.0 -0.028116846 0.162922176
660028000.0 -0.01626006 0.159405088
675027500.0 -0.003290218 0.15541488
690027000.0 0.007633836 0.148278784
705026500.0 0.0178466 0.141261888
720026000.0 0.024204266 0.131964656
735025500.0 0.028330234 0.122181408
750025000.0 0.030154488 0.112231896
765024500.0 0.028137514 0.102888464
780024000.0 0.025295744 0.088482632
795023500.0 0.013363588 0.083177304
810023000.0 0.000654766 0.074166
825022500.0 -0.014335042 0.06809124
840022000.0 -0.029714962 0.059766896
855021500.0 -0.047887828 0.056601504
870021000.0 -0.068669336 0.054399636
885020500.0 -0.087418272 0.055197308
900020000.0 -0.104152456 0.062143816
915019500.0 -0.118333616 0.06611532
930019000.0 -0.13794464 0.077372336
945018500.0 -0.1555408 0.084094224
960018000.0 -0.166466448 0.089048192
975017500.0 -0.173888544 0.105937592
990017000.0 -0.18248552 0.116745448
1005016500.0 -0.181908384 0.133933736
1020016000.0 -0.182871696 0.142616624
1035015500.0 -0.178547408 0.149802864
1050015000.0 -0.156495024 0.159881056
1065014500.0 -0.145955984 0.17371008
1080014000.0 -0.132712856 0.179473616
1095013500.0 -0.120099376 0.1849288
1110013000.0 -0.11298672 0.196448576
1125012500.0 -0.090455736 0.20660352
1140012000.0 -0.083895304 0.20747704
1155011500.0 -0.073975824 0.212437104
1170011000.0 -0.055500664 0.217872128
1185010500.0 -0.055539088 0.202681808
1200010000.0 -0.050634612 0.195768208
1215009500.0 -0.046967456 0.188583632
1230009000.0 -0.052981052 0.156066192
1245008500.0 -0.041125156 0.158677216
1260008000.0 -0.056266764 0.13361424
1275007500.0 -0.064134972 0.09494384
1290007000.0 -0.061773008 0.095257808
1305006500.0 -0.071034616 0.05397194
1320006000.0 -0.09023492 0.054156864
1335005500.0 -0.08868168 0.033476562
1350005000.0 -0.10916524 0.02694617
1365004500.0 -0.128871008 0.050988808
1380004000.0 -0.164915248 0.037541116
1395003500.0 -0.198242032 0.072063672
1410003000.0 -0.228270032 0.053654608
1425002500.0 -0.29081968 0.096693424
1440002000.0 -0.31115184 0.116169312
1455001500.0 -0.397921024 0.09018416
1470001000.0 -0.45355552 0.070180896
1485000500.0 -0.468586944 0.007413367
1500000000.0 -0.435678912 -0.051473628
