! Created with skrf 1.8.0 (http://scikit-rf.org).
# Hz S RI R 50.0 
!freq ReS11 ImS11
50000.0 0.0003665984575760361 2.0021187486111946e-05
15049500.0 -0.00018793219229916311 -9.392705889628575e-05
30049000.0 2.621462550454193e-05 -1.8240231992866766e-05
45048500.0 4.779668178642404e-06 9.533136481452089e-05
60048000.0 6.719763315830698e-05 -0.0003651959555768329
75047500.0 1.680871870279108e-05 4.542579387311526e-05
90047000.0 -0.00012238941183451672 1.841726564918632e-05
105046500.0 3.9546820809790684e-05 -8.70259790689731e-05
120046000.0 -0.00013175338190506538 0.0002791079830415608
135045500.0 0.004024617877001135 0.004587189241065749
150045000.0 -5.95952175782604e-06 -2.694789761449159e-05
165044500.0 3.671981779537391e-07 1.0022816054037499e-05
180044000.0 -0.00046194211164313665 0.00032770917233812443
195043500.0 7.536020835399492e-06 0.00011431963959015876
210043000.0 0.00016049475490193064 -8.098507490212099e-05
225042500.0 4.168617478138763e-05 -2.1525894051897086e-05
240042000.0 8.059189348002266e-05 1.0843969335794501e-05
255041500.0 -4.414912151082805e-05 5.7161634613520565e-05
270041000.0 -9.787202445405959e-05 -0.00019345037005846034
285040500.0 -0.00048627783929768367 -0.00044453692036979566
300040000.0 -0.0035707656106203625 -1.787209340933719e-05
315039500.0 -0.0005623224987565513 -0.0010912052325751493
330039000.0 -9.847207735570987e-05 0.00245293307277821
345038500.0 -7.052112126078033e-06 0.0006240186727260054
360038000.0 -0.0006134716291686276 0.0003166422371351708
375037500.0 0.0003076046054764892 0.0006058853987062964
390037000.0 -4.47064886447944e-05 0.0013026862450015468
405036500.0 6.762075636064209e-05 0.0005479870062085333
420036000.0 0.000419613572243828 0.0004977033936986369
435035500.0 0.0003915636641192684 0.00016468153273571678
450035000.0 0.0006053084031254156 -4.8492109913728526e-05
465034500.0 0.0007858242923756183 -0.0008112059784920908
480034000.0 0.0010756565250674567 0.00023564349528136915
495033500.0 -0.0002608595211731113 1.3802453732329679e-05
510033000.0 0.0004016281816190916 -2.2141840328885087e-05
525032500.0 -2.2537307432341135e-05 -0.0007103785339329983
540032000.0 0.000679143969075457 -0.00015683936033766098
555031500.0 0.001542234444271011 -0.0007751753767670336
570031000.0 0.0003496752421169663 -0.00043840755917852356
585030500.0 -0.0054338971120042115 0.0014525042255454789
600030000.0 0.0016045814106763364 0.0012110829545337956
615029500.0 -6.859830308901374e-05 0.0005967018405538415
630029000.0 0.0020268885522542156 -0.00115916792157273
645028500.0 -0.0017212422769991534 0.0008320386810147592
660028000.0 0.001133606604032863 -0.0010904379064189745
675027500.0 -0.0021577371687846376 0.0006015118023078073
690027000.0 0.00440276341968397 -0.0012769609586710472
705026500.0 0.0002885767364401867 -0.002560581707830527
720026000.0 -0.0006249785983290775 -0.0013230505206277734
735025500.0 0.00549748300730019 -0.0007838741924948553
750025000.0 0.0027363368899544025 -0.0025987710002729736
765024500.0 0.0015330680389629326 -0.001973091842945166
780024000.0 -0.009003528061640485 -0.0030196529289756263
795023500.0 0.00030462114750396974 -0.006856408436266305
810023000.0 -0.0014749394402418135 -0.001451773786782621
825022500.0 -0.002934998934591154 -0.002043412521447029
840022000.0 0.0031655738290462393 -0.0004271664814023507
855021500.0 0.0012497871298693727 0.001756382333594495
870021000.0 0.005336098293714509 0.00440017482730158
885020500.0 -0.00046862987828869104 -0.0003071951421566333
900020000.0 -0.0007908263750414653 0.0025503262502096892
915019500.0 0.003457481762860691 0.0010638423943801773
930019000.0 3.871405567304396e-05 0.00134197969384729
945018500.0 -0.0024751959197114874 0.01062572815496292
960018000.0 0.05221700265577292 -0.04795786148423187
975017500.0 0.0008543011123136778 -0.005663389438078855
990017000.0 -0.0033463196500458365 -0.0020032249916806058
1005016500.0 0.0029721126456698915 -0.002623706835584932
1020016000.0 -0.004203205627450338 -0.0046429393402013745
1035015500.0 -0.004503132861673675 0.005577342832686989
1050015000.0 0.0026043931773636 -0.0019569750117839776
1065014500.0 -0.00453111419021859 -0.004724847511663097
1080014000.0 -0.002881407107228397 -0.00739064611359015
1095013500.0 -0.0017127843782918982 -0.005200557096418173
1110013000.0 0.0032838629746750098 -0.0031385366839076496
1125012500.0 0.013444399874558813 0.0049453937427583515
1140012000.0 -0.015814683277274987 0.007149110711238083
1155011500.0 -0.01612100527977183 0.006761797353756601
1170011000.0 0.004437644146373797 -0.0021295510697079316
1185010500.0 -0.0009675200504481839 0.006964724092397385
1200010000.0 -0.007200681130394446 0.006330304407170619
1215009500.0 0.00040764514579897244 0.033921699250436255
1230009000.0 -0.020623008697380544 0.03753630827412326
1245008500.0 0.022537248813021202 0.0070351495503650895
1260008000.0 -0.019256676091620944 -0.002192953447048839
1275007500.0 -0.045119578172186134 0.014637851698140462
1290007000.0 -0.01603606021080918 0.005613798306958169
1305006500.0 0.1378118229498447 0.05374028880646261
1320006000.0 0.0005858517882087964 -0.007425668418950239
1335005500.0 -0.08360268397143496 0.10108694375290582
1350005000.0 -0.12648044537223174 0.11709938229533699
1365004500.0 -0.019543266156241402 0.026376357322636095
1380004000.0 0.016172518088903368 -0.013791494246441566
1395003500.0 0.025595807554683454 0.08488252590287695
1410003000.0 -0.011367386483003783 0.0050732905366218835
1425002500.0 -0.08815678094259706 -0.007640202005395391
1440002000.0 0.002604187875120722 0.09096515817887658
1455001500.0 0.037403021140975996 -0.03633854683812427
1470001000.0 0.06861358756661433 0.0017057476759759845
1485000500.0 0.01853343845785687 0.0710868187256615
1500000000.0 0.11787688553776471 -0.12490619802560919
