! Created with skrf 1.8.0 (http://scikit-rf.org).
# Hz S RI R 50.0 
!freq ReS11 ImS11
50000.0 -2.8400728190284923 -1.2011517157311165
15049500.0 0.25405909620670036 2.2219469763681667
30049000.0 1.1379795843188039 -0.20418343145901827
45048500.0 0.07926959981726392 0.8308239777699401
60048000.0 1.8074078122414488 2.122807101164288
75047500.0 -0.5505181495910779 -0.3703722627131141
90047000.0 0.7975344369420181 -0.704193880785097
105046500.0 0.44288791371048786 -0.5026966932676962
120046000.0 0.6416001134901136 -1.9541348184933156
135045500.0 -12.654419952126144 -16.49746870946645
150045000.0 -0.28659439492837085 0.7681301845530477
165044500.0 1.171197292508046 0.0032349535376478104
180044000.0 -1.7555961909002213 -3.710289502231747
195043500.0 0.07315779364571807 0.9898166314898641
210043000.0 -1.770638231544843 1.1527440256051515
225042500.0 -1.4618020279576256 -0.19397392592371973
240042000.0 -0.4325036064284447 0.7847270021659328
255041500.0 -0.880626909814377 0.6014177665737568
270041000.0 -2.066442290088261 -1.7146304401978236
285040500.0 -5.746073720851786 -0.259989937014464
300040000.0 4.138683004675332 2.7068675778361104
315039500.0 0.8134067059896091 -1.4441515418887645
330039000.0 -1.151020266719136 -2.2540596382796547
345038500.0 0.9758075482301561 -1.7115390280334746
360038000.0 0.29951025669434767 1.0005637727444698
375037500.0 0.4002463449840632 0.83989648999663
390037000.0 0.013457021858235742 0.26152892502477326
405036500.0 0.1413907387001872 0.5174145055579685
420036000.0 0.07028832634629052 -0.1964597005471366
435035500.0 -0.19391048818580087 0.3091352752669568
450035000.0 0.5670679999924564 -0.8651412693369439
465034500.0 0.15325391022598112 0.9612870023940648
480034000.0 0.33202625934771596 -0.6430901987712331
495033500.0 1.0859573079614364 0.248965715709717
510033000.0 1.1531077128662117 -0.5972379381048996
525032500.0 0.36445440025112974 0.21320220553933025
540032000.0 0.49794852071305445 -0.45271853450495664
555031500.0 -1.3707976502223158 -1.4915152147253001
570031000.0 0.4810066862355281 0.13435432471826686
585030500.0 2.052473655675388 2.9482611071115286
600030000.0 1.2495660197043221 1.4982975797862035
615029500.0 0.08424417626406278 -0.2607295778557169
630029000.0 -3.53207988663732 0.6299464483489514
645028500.0 1.8792118372621784 -0.751808231729898
660028000.0 0.5626532007114751 1.4846137813773161
675027500.0 0.9343959095452053 1.6049814415962937
690027000.0 -4.8781716904919215 -2.810224453511814
705026500.0 -0.00557206948864122 -1.3538680498034017
720026000.0 -0.8794710552051469 -0.9192929113112219
735025500.0 6.2178340698044945 2.928979122635424
750025000.0 2.201342493033344 -1.2128473790253842
765024500.0 0.3767121351653947 -1.2321103037346988
780024000.0 -1.3126417844133556 -1.0914873259563316
795023500.0 -2.5297673771861082 -2.655704199775357
810023000.0 0.6764978605824759 1.0464058501684115
825022500.0 0.2993792142004035 1.2517371079166109
840022000.0 0.0646898960245111 1.3082813011441277
855021500.0 0.7918346062115041 1.9008371538731497
870021000.0 0.9286958829881192 -3.544008931570476
885020500.0 -1.279203654432572 0.14594976501755147
900020000.0 1.1346176957936853 -0.4595403999152353
915019500.0 -1.0599937664148729 0.7891489529107658
930019000.0 0.9970343840124931 0.644825369491448
945018500.0 -0.11339987373402056 -1.8077370280830964
960018000.0 3.154127374409531 7.1407307413951875
975017500.0 -0.26166536523713263 0.2510981511902075
990017000.0 1.1358379101397056 -0.6958929124183889
1005016500.0 0.030117984164374383 -1.516825987972342
1020016000.0 -0.7131775202919617 2.150208105721637
1035015500.0 -0.44211134291986875 -0.9263396507639179
1050015000.0 -0.4835200700757393 0.4186893403514101
1065014500.0 -1.6130236487045209 -0.17817818047802686
1080014000.0 -1.4260549350440228 -1.638765899670537
1095013500.0 -0.3110669103391035 -0.5874687868264942
1110013000.0 0.4713138012151768 0.4489703606847615
1125012500.0 0.7139850148700082 1.1780016086307172
1140012000.0 -0.39743961575882214 -1.0868315324511262
1155011500.0 -1.3055053955038722 -2.4076802951211356
1170011000.0 -0.680942816180692 -0.908762085117251
1185010500.0 0.7191648348089198 -0.7508548881513512
1200010000.0 1.73096889242552 -0.6749922457929305
1215009500.0 2.7462679524610687 -1.7455004298551249
1230009000.0 -0.5876582662474548 -2.471483901267324
1245008500.0 0.015578946751293283 -1.1854956706652735
1260008000.0 -0.1631150826425908 0.8992152859968371
1275007500.0 1.292955497303489 -1.8799087358479267
1290007000.0 -0.5721191836173104 1.2114952438178248
1305006500.0 3.8417732009352403 5.462525526222372
1320006000.0 -0.6814702726775046 -0.10661317863643595
1335005500.0 -6.009739802450799 0.8015840840980565
1350005000.0 -7.737074755516986 -1.3439350395644583
1365004500.0 1.2934162865404633 1.2495620783412098
1380004000.0 -0.41006339858300705 0.9076336913208797
1395003500.0 3.4075565181462233 0.6746874304747552
1410003000.0 -0.5271950078355656 -0.4520118282292049
1425002500.0 1.4425445033304904 2.229892294651227
1440002000.0 1.6588667759547513 1.2456204736234926
1455001500.0 -1.20217684390041 0.7426357892379152
1470001000.0 -0.18703475141353146 -3.8356700013247145
1485000500.0 0.12560139779872379 -0.9445914761169919
1500000000.0 1.2870986564766322 3.0384512505799632
