! Created with skrf 1.8.0 (http://scikit-rf.org).
# Hz S RI R 50.0 
!freq ReS11 ImS11 ReS21 ImS21 ReS12 ImS12 ReS22 ImS22
50000.0 0.0 0.0 5.2575407045465575e-05 -4.866964054730224e-05 0.0 0.0 0.0 0.0
15049500.0 0.0 0.0 5.459157610865647e-05 1.6418920182909956e-05 0.0 0.0 0.0 0.0
30049000.0 0.0 0.0 1.1799551634501353e-05 2.229420277167893e-05 0.0 0.0 0.0 0.0
45048500.0 0.0 0.0 -4.959143296621315e-06 -2.5367183059172897e-06 0.0 0.0 0.0 0.0
60048000.0 0.0 0.0 1.0697508806019638e-05 -3.870931457043936e-06 0.0 0.0 0.0 0.0
75047500.0 0.0 0.0 5.0724699722920824e-05 5.322336940686408e-05 0.0 0.0 0.0 0.0
90047000.0 0.0 0.0 -1.434246185774903e-05 4.7630133947523324e-05 0.0 0.0 0.0 0.0
105046500.0 0.0 0.0 -1.661187882025317e-06 8.698901050029603e-05 0.0 0.0 0.0 0.0
120046000.0 0.0 0.0 -4.414075764334756e-05 5.542869797921699e-05 0.0 0.0 0.0 0.0
135045500.0 0.0 0.0 -7.130350126270995e-06 8.658046045775449e-05 0.0 0.0 0.0 0.0
150045000.0 0.0 0.0 -1.6467015872256415e-06 0.00010974253005960189 0.0 0.0 0.0 0.0
165044500.0 0.0 0.0 4.17176761493914e-05 8.593322185682612e-05 0.0 0.0 0.0 0.0
180044000.0 0.0 0.0 -2.8467113661607938e-05 6.403308264309235e-05 0.0 0.0 0.0 0.0
195043500.0 0.0 0.0 -4.651823267243605e-05 7.76146115562856e-05 0.0 0.0 0.0 0.0
210043000.0 0.0 0.0 -4.1289880326032656e-05 3.6302849484054306e-05 0.0 0.0 0.0 0.0
225042500.0 0.0 0.0 -2.7989118827298383e-05 4.09786183914413e-05 0.0 0.0 0.0 0.0
240042000.0 0.0 0.0 -7.370727292815609e-05 6.712248165476533e-05 0.0 0.0 0.0 0.0
255041500.0 0.0 0.0 -0.00012788418973652164 4.203640908109695e-05 0.0 0.0 0.0 0.0
270041000.0 0.0 0.0 -5.519925623734779e-05 6.984062782395088e-05 0.0 0.0 0.0 0.0
285040500.0 0.0 0.0 -5.9081019899747505e-05 5.4156738939910686e-05 0.0 0.0 0.0 0.0
300040000.0 0.0 0.0 0.0003776195135835606 9.625304463711818e-05 0.0 0.0 0.0 0.0
315039500.0 0.0 0.0 0.00012684850971061344 -0.00015003476320571977 0.0 0.0 0.0 0.0
330039000.0 0.0 0.0 0.0005641061628889306 0.0004111023907188175 0.0 0.0 0.0 0.0
345038500.0 0.0 0.0 -0.00031415788311534585 0.00010908884379937631 0.0 0.0 0.0 0.0
360038000.0 0.0 0.0 -0.0005356371777305175 -7.13134557701838e-05 0.0 0.0 0.0 0.0
375037500.0 0.0 0.0 -0.0002738963339279138 -0.0002874022653718108 0.0 0.0 0.0 0.0
390037000.0 0.0 0.0 -0.0004507493356332597 0.0002141376737782846 0.0 0.0 0.0 0.0
405036500.0 0.0 0.0 -6.881575183582045e-05 -0.00027659431423887 0.0 0.0 0.0 0.0
420036000.0 0.0 0.0 -0.0007173288728246855 -9.107398026366306e-05 0.0 0.0 0.0 0.0
435035500.0 0.0 0.0 -0.00022181931624421178 -7.829684521071314e-05 0.0 0.0 0.0 0.0
450035000.0 0.0 0.0 0.00012606221771087654 -0.00033364715109800586 0.0 0.0 0.0 0.0
465034500.0 0.0 0.0 -0.0007034329272937438 -0.000485541914149494 0.0 0.0 0.0 0.0
480034000.0 0.0 0.0 -0.00013462023790583762 -0.0007751501794898688 0.0 0.0 0.0 0.0
495033500.0 0.0 0.0 0.00030610557313730144 -0.0005161322452068697 0.0 0.0 0.0 0.0
510033000.0 0.0 0.0 -0.0005532064394510457 -0.0008237748610159796 0.0 0.0 0.0 0.0
525032500.0 0.0 0.0 -3.4709040292390324e-05 -4.906867598561455e-05 0.0 0.0 0.0 0.0
540032000.0 0.0 0.0 -0.00014947324926543125 -0.0007134073993406813 0.0 0.0 0.0 0.0
555031500.0 0.0 0.0 0.0003088447939533017 -6.509922596269945e-05 0.0 0.0 0.0 0.0
570031000.0 0.0 0.0 -0.00014389516658370856 -0.00043112861653553776 0.0 0.0 0.0 0.0
585030500.0 0.0 0.0 0.0005009622736389573 -0.0002616538264396043 0.0 0.0 0.0 0.0
600030000.0 0.0 0.0 0.00032697177365567523 -0.001211658020356182 0.0 0.0 0.0 0.0
615029500.0 0.0 0.0 0.0001506211594687469 -0.0007798700656919014 0.0 0.0 0.0 0.0
630029000.0 0.0 0.0 0.0010787774935255262 -0.00030155751552860216 0.0 0.0 0.0 0.0
645028500.0 0.0 0.0 0.0014806943784829362 4.627475953509966e-05 0.0 0.0 0.0 0.0
660028000.0 0.0 0.0 0.00032799047983422835 0.0002532424770296497 0.0 0.0 0.0 0.0
675027500.0 0.0 0.0 0.0009972619874838162 7.776484517331019e-05 0.0 0.0 0.0 0.0
690027000.0 0.0 0.0 0.0009594605603014153 -0.0005333424268845429 0.0 0.0 0.0 0.0
705026500.0 0.0 0.0 8.255855304032918e-05 -0.0006771995017163606 0.0 0.0 0.0 0.0
720026000.0 0.0 0.0 6.194924140739214e-05 0.0005177053404071167 0.0 0.0 0.0 0.0
735025500.0 0.0 0.0 0.00025989125648562397 0.0004924863220956736 0.0 0.0 0.0 0.0
750025000.0 0.0 0.0 -1.862734069621927e-05 0.00031427714441013203 0.0 0.0 0.0 0.0
765024500.0 0.0 0.0 0.00015689059615751707 0.0005351419004248676 0.0 0.0 0.0 0.0
780024000.0 0.0 0.0 0.00034510710161194655 0.0007023705716087495 0.0 0.0 0.0 0.0
795023500.0 0.0 0.0 2.4156699483026693e-06 0.0013270619846000792 0.0 0.0 0.0 0.0
810023000.0 0.0 0.0 -0.00050922230520534 0.0010263997140429063 0.0 0.0 0.0 0.0
825022500.0 0.0 0.0 -0.001265019402009531 0.00029965771941575125 0.0 0.0 0.0 0.0
840022000.0 0.0 0.0 0.0005605430024719782 0.0003309552324525175 0.0 0.0 0.0 0.0
855021500.0 0.0 0.0 -0.0013945318402845193 0.00018612363859185602 0.0 0.0 0.0 0.0
870021000.0 0.0 0.0 -0.0004014201982664204 -0.0005092545158108543 0.0 0.0 0.0 0.0
885020500.0 0.0 0.0 0.0001862420712533773 0.00019723697185175992 0.0 0.0 0.0 0.0
900020000.0 0.0 0.0 -0.0031267010746524153 -0.004618146077289396 0.0 0.0 0.0 0.0
915019500.0 0.0 0.0 0.0004003866481116674 0.0010954377502053248 0.0 0.0 0.0 0.0
930019000.0 0.0 0.0 -0.0024327614790428283 -0.0009720407115663159 0.0 0.0 0.0 0.0
945018500.0 0.0 0.0 0.0008835506120809762 -0.0006878760645314916 0.0 0.0 0.0 0.0
960018000.0 0.0 0.0 0.0005472022243770014 -0.0021295085269331187 0.0 0.0 0.0 0.0
975017500.0 0.0 0.0 0.0006320627387319563 -0.0024096459690839773 0.0 0.0 0.0 0.0
990017000.0 0.0 0.0 0.0008725307203718074 -0.0018195487172209634 0.0 0.0 0.0 0.0
1005016500.0 0.0 0.0 0.001049310433882959 -0.0005836433420072192 0.0 0.0 0.0 0.0
1020016000.0 0.0 0.0 0.0038416652198607986 -0.0013788768191861389 0.0 0.0 0.0 0.0
1035015500.0 0.0 0.0 0.005201719325493521 -0.002094924291213703 0.0 0.0 0.0 0.0
1050015000.0 0.0 0.0 0.006255097483287835 -0.0011949825592870356 0.0 0.0 0.0 0.0
1065014500.0 0.0 0.0 0.0008930400815093521 -0.003482754887935953 0.0 0.0 0.0 0.0
1080014000.0 0.0 0.0 0.0010538396759621922 -0.00382786203600651 0.0 0.0 0.0 0.0
1095013500.0 0.0 0.0 -0.00045011717069855673 0.0016027555499733344 0.0 0.0 0.0 0.0
1110013000.0 0.0 0.0 0.0010007776971665146 -0.00022681828892769616 0.0 0.0 0.0 0.0
1125012500.0 0.0 0.0 0.000586898045699306 -0.0004358310101901141 0.0 0.0 0.0 0.0
1140012000.0 0.0 0.0 -0.0017510995032432993 -0.0050375215482239945 0.0 0.0 0.0 0.0
1155011500.0 0.0 0.0 -0.00024257096390247385 0.0031462245610980196 0.0 0.0 0.0 0.0
1170011000.0 0.0 0.0 0.0008429114711243832 -0.0004481876309414708 0.0 0.0 0.0 0.0
1185010500.0 0.0 0.0 0.0059234324748695995 -0.0031633969810463598 0.0 0.0 0.0 0.0
1200010000.0 0.0 0.0 0.00014525289980243253 -0.0018877185103370114 0.0 0.0 0.0 0.0
1215009500.0 0.0 0.0 0.0016656421225871513 -0.001513405181300886 0.0 0.0 0.0 0.0
1230009000.0 0.0 0.0 0.003538388166163869 0.0017434156038539676 0.0 0.0 0.0 0.0
1245008500.0 0.0 0.0 0.0027050807881741005 0.004741868638650947 0.0 0.0 0.0 0.0
1260008000.0 0.0 0.0 0.001925827114896848 -0.0033412970524748444 0.0 0.0 0.0 0.0
1275007500.0 0.0 0.0 0.0024911834808016065 -0.004436775862919287 0.0 0.0 0.0 0.0
1290007000.0 0.0 0.0 -0.0011212627937569996 0.00532929440695729 0.0 0.0 0.0 0.0
1305006500.0 0.0 0.0 -0.002983668869357709 0.006255424245472539 0.0 0.0 0.0 0.0
1320006000.0 0.0 0.0 -0.002127481656212634 -0.0019139299866146485 0.0 0.0 0.0 0.0
1335005500.0 0.0 0.0 -0.0011489695211948574 0.0078750123420906 0.0 0.0 0.0 0.0
1350005000.0 0.0 0.0 -0.0017083786994560321 -0.003079530409009938 0.0 0.0 0.0 0.0
1365004500.0 0.0 0.0 -0.001214283909892708 -0.0008757585833148749 0.0 0.0 0.0 0.0
1380004000.0 0.0 0.0 -0.009151992990101806 -0.0017594070454708317 0.0 0.0 0.0 0.0
1395003500.0 0.0 0.0 0.011497193497571756 0.008140972829947397 0.0 0.0 0.0 0.0
1410003000.0 0.0 0.0 0.0028833865953762396 0.007842916299965825 0.0 0.0 0.0 0.0
1425002500.0 0.0 0.0 -0.002647234650393557 0.0072243822686156155 0.0 0.0 0.0 0.0
1440002000.0 0.0 0.0 0.008105127892929612 0.015221282920328049 0.0 0.0 0.0 0.0
1455001500.0 0.0 0.0 -0.0037163196674476063 -0.0023177362257910433 0.0 0.0 0.0 0.0
1470001000.0 0.0 0.0 0.020212262750242283 0.0022617198738279247 0.0 0.0 0.0 0.0
1485000500.0 0.0 0.0 -0.018204582405589743 -0.006659022719355775 0.0 0.0 0.0 0.0
1500000000.0 0.0 0.0 -0.009530856444364712 0.007533653644740486 0.0 0.0 0.0 0.0
