! Created with skrf 1.8.0 (http://scikit-rf.org).
# Hz S RI R 50.0 
!freq ReS11 ImS11 ReS21 ImS21 ReS12 ImS12 ReS22 ImS22
50000.0 0.0 0.0 0.9986022547654545 0.0012058556963135346 0.0 0.0 0.0 0.0
15049500.0 0.0 0.0 0.9915342860534618 -0.005549057259304332 0.0 0.0 0.0 0.0
30049000.0 0.0 0.0 0.9908142558466863 -0.010124075544236591 0.0 0.0 0.0 0.0
45048500.0 0.0 0.0 0.9899511726431256 -0.014703520954833876 0.0 0.0 0.0 0.0
60048000.0 0.0 0.0 0.9894597075754484 -0.019185168255791432 0.0 0.0 0.0 0.0
75047500.0 0.0 0.0 0.9891899812963204 -0.023169221058945023 0.0 0.0 0.0 0.0
90047000.0 0.0 0.0 0.9887878162121679 -0.027488306884471805 0.0 0.0 0.0 0.0
105046500.0 0.0 0.0 0.9885462614719501 -0.03191879575728623 0.0 0.0 0.0 0.0
120046000.0 0.0 0.0 0.9882617588703982 -0.036880240678932114 0.0 0.0 0.0 0.0
135045500.0 0.0 0.0 0.9879284024516449 -0.04150701441500985 0.0 0.0 0.0 0.0
150045000.0 0.0 0.0 0.985898539597951 -0.046184845425396116 0.0 0.0 0.0 0.0
165044500.0 0.0 0.0 0.9834839932247221 -0.049807950599832014 0.0 0.0 0.0 0.0
180044000.0 0.0 0.0 0.9824704109711763 -0.05280495491474857 0.0 0.0 0.0 0.0
195043500.0 0.0 0.0 0.9813456713109577 -0.0549885119204886 0.0 0.0 0.0 0.0
210043000.0 0.0 0.0 0.9815663396420593 -0.056617180849102534 0.0 0.0 0.0 0.0
225042500.0 0.0 0.0 0.9827796750797403 -0.05871015012643586 0.0 0.0 0.0 0.0
240042000.0 0.0 0.0 0.9852649991090114 -0.06120772469995453 0.0 0.0 0.0 0.0
255041500.0 0.0 0.0 0.9870691195435418 -0.06444017872981067 0.0 0.0 0.0 0.0
270041000.0 0.0 0.0 0.9903316855374201 -0.07051760675476718 0.0 0.0 0.0 0.0
285040500.0 0.0 0.0 0.991944169037275 -0.07543994973134154 0.0 0.0 0.0 0.0
300040000.0 0.0 0.0 0.9922146450423005 -0.08458232555186351 0.0 0.0 0.0 0.0
315039500.0 0.0 0.0 0.9921060398048192 -0.09455789060507075 0.0 0.0 0.0 0.0
330039000.0 0.0 0.0 0.985074736758799 -0.10222353981956032 0.0 0.0 0.0 0.0
345038500.0 0.0 0.0 0.9842418103058631 -0.10779325729633885 0.0 0.0 0.0 0.0
360038000.0 0.0 0.0 0.9775265917064455 -0.11131117334088471 0.0 0.0 0.0 0.0
375037500.0 0.0 0.0 0.9734244147897012 -0.11461477791706695 0.0 0.0 0.0 0.0
390037000.0 0.0 0.0 0.970831580837761 -0.11374974385913086 0.0 0.0 0.0 0.0
405036500.0 0.0 0.0 0.9670771229137294 -0.11545440201904461 0.0 0.0 0.0 0.0
420036000.0 0.0 0.0 0.9680754986665643 -0.11439713377089307 0.0 0.0 0.0 0.0
435035500.0 0.0 0.0 0.9712226775615791 -0.11569506113056688 0.0 0.0 0.0 0.0
450035000.0 0.0 0.0 0.9654461513775251 -0.1224182748738199 0.0 0.0 0.0 0.0
465034500.0 0.0 0.0 0.9730137905926531 -0.12431913460343354 0.0 0.0 0.0 0.0
480034000.0 0.0 0.0 0.970915564798462 -0.1307909062093363 0.0 0.0 0.0 0.0
495033500.0 0.0 0.0 0.9700012742219166 -0.1361998971582715 0.0 0.0 0.0 0.0
510033000.0 0.0 0.0 0.9667051024924238 -0.1409105379118049 0.0 0.0 0.0 0.0
525032500.0 0.0 0.0 0.9662494313351667 -0.14474644019972718 0.0 0.0 0.0 0.0
540032000.0 0.0 0.0 0.9631488129905176 -0.14794273650182105 0.0 0.0 0.0 0.0
555031500.0 0.0 0.0 0.9610428895975305 -0.1489696910879964 0.0 0.0 0.0 0.0
570031000.0 0.0 0.0 0.9602893941366606 -0.14915585957535404 0.0 0.0 0.0 0.0
585030500.0 0.0 0.0 0.9613637451731152 -0.15005263321913478 0.0 0.0 0.0 0.0
600030000.0 0.0 0.0 0.9677156128675504 -0.14928039053702646 0.0 0.0 0.0 0.0
615029500.0 0.0 0.0 0.9725401026605376 -0.1534343755962133 0.0 0.0 0.0 0.0
630029000.0 0.0 0.0 0.9775067432008485 -0.15954653492117982 0.0 0.0 0.0 0.0
645028500.0 0.0 0.0 0.9801897292322296 -0.1668231209409125 0.0 0.0 0.0 0.0
660028000.0 0.0 0.0 0.9852287818161741 -0.17429631880918364 0.0 0.0 0.0 0.0
675027500.0 0.0 0.0 0.9837284852017808 -0.1904076255327621 0.0 0.0 0.0 0.0
690027000.0 0.0 0.0 0.9809130303647727 -0.20359355004431354 0.0 0.0 0.0 0.0
705026500.0 0.0 0.0 0.9726367436105209 -0.21284479195855782 0.0 0.0 0.0 0.0
720026000.0 0.0 0.0 0.9652865948447908 -0.22052086574795185 0.0 0.0 0.0 0.0
735025500.0 0.0 0.0 0.9546206583308745 -0.22515369752315542 0.0 0.0 0.0 0.0
750025000.0 0.0 0.0 0.9440268506577908 -0.22529889798904423 0.0 0.0 0.0 0.0
765024500.0 0.0 0.0 0.9364302861228287 -0.22522015574018805 0.0 0.0 0.0 0.0
780024000.0 0.0 0.0 0.9206959776723941 -0.2264189771147472 0.0 0.0 0.0 0.0
795023500.0 0.0 0.0 0.9287976612379637 -0.215998020008677 0.0 0.0 0.0 0.0
810023000.0 0.0 0.0 0.9318796068100329 -0.2160321899890924 0.0 0.0 0.0 0.0
825022500.0 0.0 0.0 0.9357440354363432 -0.21029091631442706 0.0 0.0 0.0 0.0
840022000.0 0.0 0.0 0.936748856388554 -0.2073174837835384 0.0 0.0 0.0 0.0
855021500.0 0.0 0.0 0.9425714315662662 -0.21412755650886317 0.0 0.0 0.0 0.0
870021000.0 0.0 0.0 0.9410432155830835 -0.21730408743895605 0.0 0.0 0.0 0.0
885020500.0 0.0 0.0 0.9419812425945101 -0.21909184522697833 0.0 0.0 0.0 0.0
900020000.0 0.0 0.0 0.9405042077901087 -0.23356240284211172 0.0 0.0 0.0 0.0
915019500.0 0.0 0.0 0.9413908603780521 -0.23910951609958478 0.0 0.0 0.0 0.0
930019000.0 0.0 0.0 0.9298039598897393 -0.23864156704200876 0.0 0.0 0.0 0.0
945018500.0 0.0 0.0 0.9305042066491014 -0.23876916437409812 0.0 0.0 0.0 0.0
960018000.0 0.0 0.0 0.9321553728877727 -0.24462787378807174 0.0 0.0 0.0 0.0
975017500.0 0.0 0.0 0.9350193080326437 -0.24620541969833631 0.0 0.0 0.0 0.0
990017000.0 0.0 0.0 0.9387121939328658 -0.2471344848775341 0.0 0.0 0.0 0.0
1005016500.0 0.0 0.0 0.9392767921386734 -0.25361740315638115 0.0 0.0 0.0 0.0
1020016000.0 0.0 0.0 0.942117630877126 -0.2733198136119162 0.0 0.0 0.0 0.0
1035015500.0 0.0 0.0 0.9399167315128877 -0.2686440683950385 0.0 0.0 0.0 0.0
1050015000.0 0.0 0.0 0.93607689478238 -0.2686645900307026 0.0 0.0 0.0 0.0
1065014500.0 0.0 0.0 0.9321857172080462 -0.2885167735306164 0.0 0.0 0.0 0.0
1080014000.0 0.0 0.0 0.9252198043104642 -0.2965582127973116 0.0 0.0 0.0 0.0
1095013500.0 0.0 0.0 0.9177567986959708 -0.31124957965828803 0.0 0.0 0.0 0.0
1110013000.0 0.0 0.0 0.9048020136466042 -0.3148788684350275 0.0 0.0 0.0 0.0
1125012500.0 0.0 0.0 0.8955570679944325 -0.3155082293768782 0.0 0.0 0.0 0.0
1140012000.0 0.0 0.0 0.8802167515696911 -0.3135031188076805 0.0 0.0 0.0 0.0
1155011500.0 0.0 0.0 0.8633735458028627 -0.2734677291642419 0.0 0.0 0.0 0.0
1170011000.0 0.0 0.0 0.8664036919626297 -0.29429997306616423 0.0 0.0 0.0 0.0
1185010500.0 0.0 0.0 0.8628363563317155 -0.2804072176173503 0.0 0.0 0.0 0.0
1200010000.0 0.0 0.0 0.8782063259532286 -0.2747333367631804 0.0 0.0 0.0 0.0
1215009500.0 0.0 0.0 0.8755786120044494 -0.28065332552598954 0.0 0.0 0.0 0.0
1230009000.0 0.0 0.0 0.8811593079783483 -0.2761139237247439 0.0 0.0 0.0 0.0
1245008500.0 0.0 0.0 0.8944482142632053 -0.2887743518909332 0.0 0.0 0.0 0.0
1260008000.0 0.0 0.0 0.9073753926263665 -0.30202207123303343 0.0 0.0 0.0 0.0
1275007500.0 0.0 0.0 0.8982739020574296 -0.2988132702241214 0.0 0.0 0.0 0.0
1290007000.0 0.0 0.0 0.9000778049877609 -0.31957300385874476 0.0 0.0 0.0 0.0
1305006500.0 0.0 0.0 0.8910945114264797 -0.3431885085077982 0.0 0.0 0.0 0.0
1320006000.0 0.0 0.0 0.8694232236011082 -0.32235778870939497 0.0 0.0 0.0 0.0
1335005500.0 0.0 0.0 0.8796763583195647 -0.34232300415546757 0.0 0.0 0.0 0.0
1350005000.0 0.0 0.0 0.879741340847049 -0.3519475445673258 0.0 0.0 0.0 0.0
1365004500.0 0.0 0.0 0.9135092056595726 -0.3412618961421259 0.0 0.0 0.0 0.0
1380004000.0 0.0 0.0 0.8572227893262325 -0.3739725512470119 0.0 0.0 0.0 0.0
1395003500.0 0.0 0.0 0.8629460587872178 -0.3638115325486025 0.0 0.0 0.0 0.0
1410003000.0 0.0 0.0 0.8788924279058077 -0.38325941815148296 0.0 0.0 0.0 0.0
1425002500.0 0.0 0.0 0.8620179703242336 -0.38488007324423856 0.0 0.0 0.0 0.0
1440002000.0 0.0 0.0 0.8691869973985338 -0.3869500471279764 0.0 0.0 0.0 0.0
1455001500.0 0.0 0.0 0.8623932214073249 -0.3820207609819213 0.0 0.0 0.0 0.0
1470001000.0 0.0 0.0 0.8728796724592149 -0.35127402841725425 0.0 0.0 0.0 0.0
1485000500.0 0.0 0.0 0.8462091751385069 -0.35908963990556714 0.0 0.0 0.0 0.0
1500000000.0 0.0 0.0 0.7958881113169318 -0.34476693741484266 0.0 0.0 0.0 0.0
