! Created with skrf 1.8.0 (http://scikit-rf.org).
# Hz S RI R 50.0 
!freq ReS11 ImS11 ReS21 ImS21 ReS12 ImS12 ReS22 ImS22
50000.0 0.0 0.0 0.9992245907238997 0.0012024411141870793 0.0 0.0 0.0 0.0
15049500.0 0.0 0.0 0.9915204124662468 -0.0054229325361023015 0.0 0.0 0.0 0.0
30049000.0 0.0 0.0 0.9906855878312808 -0.010162394480386245 0.0 0.0 0.0 0.0
45048500.0 0.0 0.0 0.9899862614706422 -0.014492279384579554 0.0 0.0 0.0 0.0
60048000.0 0.0 0.0 0.9890983600472995 -0.019213385337808975 0.0 0.0 0.0 0.0
75047500.0 0.0 0.0 0.9890407972716456 -0.02325885913334879 0.0 0.0 0.0 0.0
90047000.0 0.0 0.0 0.9888281564781567 -0.027753280717710035 0.0 0.0 0.0 0.0
105046500.0 0.0 0.0 0.9884591037691198 -0.03201480253234591 0.0 0.0 0.0 0.0
120046000.0 0.0 0.0 0.9884490597190172 -0.03694299151764065 0.0 0.0 0.0 0.0
135045500.0 0.0 0.0 0.9875440810649513 -0.04096967129050013 0.0 0.0 0.0 0.0
150045000.0 0.0 0.0 0.985642436080468 -0.04609720154937064 0.0 0.0 0.0 0.0
165044500.0 0.0 0.0 0.9842365126030163 -0.04980857414754336 0.0 0.0 0.0 0.0
180044000.0 0.0 0.0 0.9824181012050968 -0.05285246049194449 0.0 0.0 0.0 0.0
195043500.0 0.0 0.0 0.9812555034663267 -0.054959254217031066 0.0 0.0 0.0 0.0
210043000.0 0.0 0.0 0.9812102829397054 -0.05642715182164137 0.0 0.0 0.0 0.0
225042500.0 0.0 0.0 0.982437288868038 -0.058248602921911564 0.0 0.0 0.0 0.0
240042000.0 0.0 0.0 0.9851114111117127 -0.06097639783943296 0.0 0.0 0.0 0.0
255041500.0 0.0 0.0 0.9883353387198801 -0.06494154024133908 0.0 0.0 0.0 0.0
270041000.0 0.0 0.0 0.9909285126905703 -0.06959658351273268 0.0 0.0 0.0 0.0
285040500.0 0.0 0.0 0.9928881326419977 -0.07761554630419781 0.0 0.0 0.0 0.0
300040000.0 0.0 0.0 0.9938853368570835 -0.0868763086014263 0.0 0.0 0.0 0.0
315039500.0 0.0 0.0 0.9909411989233958 -0.09543418648338178 0.0 0.0 0.0 0.0
330039000.0 0.0 0.0 0.9897482660481196 -0.10200453994059872 0.0 0.0 0.0 0.0
345038500.0 0.0 0.0 0.9839615019938864 -0.10731033253095525 0.0 0.0 0.0 0.0
360038000.0 0.0 0.0 0.9778665338798558 -0.11191148261052594 0.0 0.0 0.0 0.0
375037500.0 0.0 0.0 0.9723158273361331 -0.11469571126131568 0.0 0.0 0.0 0.0
390037000.0 0.0 0.0 0.969146325167253 -0.11457678008398971 0.0 0.0 0.0 0.0
405036500.0 0.0 0.0 0.967580416949031 -0.11610996562934779 0.0 0.0 0.0 0.0
420036000.0 0.0 0.0 0.9686300567770836 -0.11593707367472221 0.0 0.0 0.0 0.0
435035500.0 0.0 0.0 0.9689692957480714 -0.11507291133124456 0.0 0.0 0.0 0.0
450035000.0 0.0 0.0 0.9737629031544189 -0.12439214892358945 0.0 0.0 0.0 0.0
465034500.0 0.0 0.0 0.9725516487756944 -0.12381122445676768 0.0 0.0 0.0 0.0
480034000.0 0.0 0.0 0.9722396584636149 -0.12861505064371487 0.0 0.0 0.0 0.0
495033500.0 0.0 0.0 0.9706579678463131 -0.13735549441884845 0.0 0.0 0.0 0.0
510033000.0 0.0 0.0 0.9701261065649542 -0.14213627762133027 0.0 0.0 0.0 0.0
525032500.0 0.0 0.0 0.9654903454018371 -0.145719996968544 0.0 0.0 0.0 0.0
540032000.0 0.0 0.0 0.9627394170694448 -0.1482166261563408 0.0 0.0 0.0 0.0
555031500.0 0.0 0.0 0.9608990670260078 -0.14938915969841274 0.0 0.0 0.0 0.0
570031000.0 0.0 0.0 0.9607414331217351 -0.14939018371128696 0.0 0.0 0.0 0.0
585030500.0 0.0 0.0 0.9646445443328415 -0.14846220234236981 0.0 0.0 0.0 0.0
600030000.0 0.0 0.0 0.9646764519092932 -0.15173090054821808 0.0 0.0 0.0 0.0
615029500.0 0.0 0.0 0.970686172009761 -0.15227826926878496 0.0 0.0 0.0 0.0
630029000.0 0.0 0.0 0.977686326257691 -0.15770959628663397 0.0 0.0 0.0 0.0
645028500.0 0.0 0.0 0.979985315634573 -0.16866413550907897 0.0 0.0 0.0 0.0
660028000.0 0.0 0.0 0.9854181677456623 -0.17838311725285283 0.0 0.0 0.0 0.0
675027500.0 0.0 0.0 0.985937628594164 -0.18818673845552933 0.0 0.0 0.0 0.0
690027000.0 0.0 0.0 0.9806340813951308 -0.20342115411855932 0.0 0.0 0.0 0.0
705026500.0 0.0 0.0 0.9724997900796094 -0.2143948893398661 0.0 0.0 0.0 0.0
720026000.0 0.0 0.0 0.9616393876411666 -0.21877217372068367 0.0 0.0 0.0 0.0
735025500.0 0.0 0.0 0.9552754164176875 -0.22509946811097925 0.0 0.0 0.0 0.0
750025000.0 0.0 0.0 0.9439491598599009 -0.22714230148266012 0.0 0.0 0.0 0.0
765024500.0 0.0 0.0 0.9369836119321325 -0.2261705095904682 0.0 0.0 0.0 0.0
780024000.0 0.0 0.0 0.9320502433819604 -0.21496662098167107 0.0 0.0 0.0 0.0
795023500.0 0.0 0.0 0.9293895746571201 -0.2158728038559866 0.0 0.0 0.0 0.0
810023000.0 0.0 0.0 0.9296676394117735 -0.20991208851048393 0.0 0.0 0.0 0.0
825022500.0 0.0 0.0 0.9343248957191274 -0.21079620757900638 0.0 0.0 0.0 0.0
840022000.0 0.0 0.0 0.9375410121197919 -0.20925831961092686 0.0 0.0 0.0 0.0
855021500.0 0.0 0.0 0.9414169894031736 -0.21594235392570452 0.0 0.0 0.0 0.0
870021000.0 0.0 0.0 0.939610371897166 -0.22117034740412733 0.0 0.0 0.0 0.0
885020500.0 0.0 0.0 0.9456762266265175 -0.22610494973565454 0.0 0.0 0.0 0.0
900020000.0 0.0 0.0 0.9436619683399381 -0.22023727818203934 0.0 0.0 0.0 0.0
915019500.0 0.0 0.0 0.9388166196136982 -0.23358321858258996 0.0 0.0 0.0 0.0
930019000.0 0.0 0.0 0.9358976045100402 -0.23878318180907007 0.0 0.0 0.0 0.0
945018500.0 0.0 0.0 0.9337254819165853 -0.2404866840514456 0.0 0.0 0.0 0.0
960018000.0 0.0 0.0 0.9305273815590585 -0.24279028034371175 0.0 0.0 0.0 0.0
975017500.0 0.0 0.0 0.9365399541885164 -0.24685216537555513 0.0 0.0 0.0 0.0
990017000.0 0.0 0.0 0.929717853339137 -0.25356905834340826 0.0 0.0 0.0 0.0
1005016500.0 0.0 0.0 0.9374138246759022 -0.254143338901281 0.0 0.0 0.0 0.0
1020016000.0 0.0 0.0 0.9345843065923806 -0.2654897878186527 0.0 0.0 0.0 0.0
1035015500.0 0.0 0.0 0.9451330784827732 -0.26929370570769134 0.0 0.0 0.0 0.0
1050015000.0 0.0 0.0 0.9699724672412267 -0.27994075057207424 0.0 0.0 0.0 0.0
1065014500.0 0.0 0.0 0.9346947319534316 -0.28424620588608207 0.0 0.0 0.0 0.0
1080014000.0 0.0 0.0 0.9333536691185265 -0.3014988556057702 0.0 0.0 0.0 0.0
1095013500.0 0.0 0.0 0.9125590845185516 -0.3034897513984843 0.0 0.0 0.0 0.0
1110013000.0 0.0 0.0 0.9009783862832795 -0.3090783925630112 0.0 0.0 0.0 0.0
1125012500.0 0.0 0.0 0.8876509494471827 -0.3154792860219512 0.0 0.0 0.0 0.0
1140012000.0 0.0 0.0 0.8764393413927344 -0.302424411813374 0.0 0.0 0.0 0.0
1155011500.0 0.0 0.0 0.8408032150995768 -0.32007886469029156 0.0 0.0 0.0 0.0
1170011000.0 0.0 0.0 0.8574581613914367 -0.29784283652449983 0.0 0.0 0.0 0.0
1185010500.0 0.0 0.0 0.8598242212001678 -0.279437434787987 0.0 0.0 0.0 0.0
1200010000.0 0.0 0.0 0.8656679220787207 -0.2821332412150727 0.0 0.0 0.0 0.0
1215009500.0 0.0 0.0 0.8724177427938076 -0.2729915438710998 0.0 0.0 0.0 0.0
1230009000.0 0.0 0.0 0.8912154097221143 -0.28240778363388225 0.0 0.0 0.0 0.0
1245008500.0 0.0 0.0 0.8958004136443667 -0.2803138672197884 0.0 0.0 0.0 0.0
1260008000.0 0.0 0.0 0.906626197532486 -0.29418543025602645 0.0 0.0 0.0 0.0
1275007500.0 0.0 0.0 0.9149539184920951 -0.30505172775510253 0.0 0.0 0.0 0.0
1290007000.0 0.0 0.0 0.9039581994093269 -0.31448861744156453 0.0 0.0 0.0 0.0
1305006500.0 0.0 0.0 0.8905047923911273 -0.32823023889982805 0.0 0.0 0.0 0.0
1320006000.0 0.0 0.0 0.8889110689880039 -0.336066772360749 0.0 0.0 0.0 0.0
1335005500.0 0.0 0.0 0.8707966650973636 -0.34930713389630463 0.0 0.0 0.0 0.0
1350005000.0 0.0 0.0 0.873334152611069 -0.3313975457685611 0.0 0.0 0.0 0.0
1365004500.0 0.0 0.0 0.8622828492113173 -0.34031612256508603 0.0 0.0 0.0 0.0
1380004000.0 0.0 0.0 0.8725219942664029 -0.34725936530973395 0.0 0.0 0.0 0.0
1395003500.0 0.0 0.0 0.8667913617743158 -0.3783509268560602 0.0 0.0 0.0 0.0
1410003000.0 0.0 0.0 0.8851151817393048 -0.377443264271172 0.0 0.0 0.0 0.0
1425002500.0 0.0 0.0 0.8702997348821042 -0.38057751024415065 0.0 0.0 0.0 0.0
1440002000.0 0.0 0.0 0.8750841358467926 -0.3548783277840195 0.0 0.0 0.0 0.0
1455001500.0 0.0 0.0 0.8803193988576641 -0.35403706386444417 0.0 0.0 0.0 0.0
1470001000.0 0.0 0.0 0.8681520247950198 -0.3368140929031993 0.0 0.0 0.0 0.0
1485000500.0 0.0 0.0 0.8216111747412774 -0.3660565316584393 0.0 0.0 0.0 0.0
1500000000.0 0.0 0.0 0.8120680164462446 -0.36146497739798195 0.0 0.0 0.0 0.0
