! Created with skrf 1.8.0 (http://scikit-rf.org).
# Hz S RI R 50.0 
!freq ReS11 ImS11 ReS21 ImS21 ReS12 ImS12 ReS22 ImS22
32000000.0 0.0 0.0 7.426234069784341e-06 -9.874204400394712e-06 0.0 0.0 0.0 0.0
32350000.0 0.0 0.0 5.209053772711049e-06 -5.0882186266909555e-06 0.0 0.0 0.0 0.0
32700000.0 0.0 0.0 1.3534892061174887e-05 1.6624684204289266e-05 0.0 0.0 0.0 0.0
33050000.0 0.0 0.0 4.304363924023111e-05 5.14390334372336e-05 0.0 0.0 0.0 0.0
33400000.0 0.0 0.0 2.241829257948724e-05 -5.5846334544451136e-06 0.0 0.0 0.0 0.0
33750000.0 0.0 0.0 2.2993991707667543e-05 -2.0411637238880254e-06 0.0 0.0 0.0 0.0
34100000.0 0.0 0.0 3.83715181415513e-05 1.7955793285527626e-05 0.0 0.0 0.0 0.0
34450000.0 0.0 0.0 1.5049063076902015e-05 2.01963864467737e-05 0.0 0.0 0.0 0.0
34800000.0 0.0 0.0 -9.088171404880493e-06 -2.8120379648063987e-06 0.0 0.0 0.0 0.0
35150000.0 0.0 0.0 2.7322114689613336e-05 1.3790497956477684e-05 0.0 0.0 0.0 0.0
35500000.0 0.0 0.0 4.4394423322256815e-05 1.5810577152155443e-05 0.0 0.0 0.0 0.0
35850000.0 0.0 0.0 1.7318743839604043e-05 -2.2199132073533352e-05 0.0 0.0 0.0 0.0
36200000.0 0.0 0.0 2.8867693647827944e-05 2.8747487428558935e-05 0.0 0.0 0.0 0.0
36550000.0 0.0 0.0 3.7662352771745056e-05 2.6146619833099414e-05 0.0 0.0 0.0 0.0
36900000.0 0.0 0.0 4.3198348886734684e-07 1.4899718227716456e-05 0.0 0.0 0.0 0.0
37250000.0 0.0 0.0 1.3570023733121632e-05 3.686984117475375e-06 0.0 0.0 0.0 0.0
37600000.0 0.0 0.0 2.0608424492328945e-05 2.047205021349783e-05 0.0 0.0 0.0 0.0
37950000.0 0.0 0.0 2.2390860014594933e-05 3.318937031350269e-05 0.0 0.0 0.0 0.0
38300000.0 0.0 0.0 2.386525792876469e-05 2.059371990081957e-06 0.0 0.0 0.0 0.0
38650000.0 0.0 0.0 2.081441797587213e-05 1.9802856797080852e-05 0.0 0.0 0.0 0.0
39000000.0 0.0 0.0 2.1698018675779213e-05 3.188924673844675e-05 0.0 0.0 0.0 0.0
39350000.0 0.0 0.0 5.718313082897716e-05 1.882558571721164e-05 0.0 0.0 0.0 0.0
39700000.0 0.0 0.0 -1.156932273414483e-05 3.268944435858767e-05 0.0 0.0 0.0 0.0
40050000.0 0.0 0.0 3.843429378724269e-05 1.941485593755253e-05 0.0 0.0 0.0 0.0
40400000.0 0.0 0.0 2.5282205206466138e-05 5.028255897324773e-05 0.0 0.0 0.0 0.0
40750000.0 0.0 0.0 -1.613599270514074e-05 2.6467523107001244e-05 0.0 0.0 0.0 0.0
41100000.0 0.0 0.0 1.6570361721212928e-05 -6.637277260154302e-06 0.0 0.0 0.0 0.0
41450000.0 0.0 0.0 4.604596904290292e-05 5.1943593752261944e-05 0.0 0.0 0.0 0.0
41800000.0 0.0 0.0 5.537995701624213e-06 1.833154585976839e-05 0.0 0.0 0.0 0.0
42150000.0 0.0 0.0 2.65115351729922e-05 3.2631437782776244e-05 0.0 0.0 0.0 0.0
42500000.0 0.0 0.0 6.115674516476485e-05 3.5484585003237795e-05 0.0 0.0 0.0 0.0
42850000.0 0.0 0.0 -6.555859801236657e-06 2.7822965824414354e-05 0.0 0.0 0.0 0.0
43200000.0 0.0 0.0 2.9113182283309836e-05 1.20242148325275e-05 0.0 0.0 0.0 0.0
43550000.0 0.0 0.0 3.490766146393542e-05 -3.5650429325875977e-05 0.0 0.0 0.0 0.0
43900000.0 0.0 0.0 2.2712990585857426e-05 5.905442315903824e-05 0.0 0.0 0.0 0.0
44250000.0 0.0 0.0 7.059887161319707e-05 4.523063004571011e-06 0.0 0.0 0.0 0.0
44600000.0 0.0 0.0 -8.320885761189452e-06 1.8367510341612295e-05 0.0 0.0 0.0 0.0
44950000.0 0.0 0.0 1.2240459762603366e-05 2.5174445173629706e-05 0.0 0.0 0.0 0.0
45300000.0 0.0 0.0 1.691410840941378e-05 4.720818006145332e-05 0.0 0.0 0.0 0.0
45650000.0 0.0 0.0 2.2221949666538675e-05 1.3896681546967302e-05 0.0 0.0 0.0 0.0
46000000.0 0.0 0.0 1.9345140192180315e-05 3.764353595167289e-05 0.0 0.0 0.0 0.0
46350000.0 0.0 0.0 1.0931798942188848e-05 1.7009624242985465e-05 0.0 0.0 0.0 0.0
46700000.0 0.0 0.0 -1.5377355798009773e-05 3.837246307785591e-05 0.0 0.0 0.0 0.0
47050000.0 0.0 0.0 2.4582018686199916e-05 4.7225288716018645e-05 0.0 0.0 0.0 0.0
47400000.0 0.0 0.0 3.594825960583573e-05 2.0335170353637048e-05 0.0 0.0 0.0 0.0
47750000.0 0.0 0.0 1.6697847310545006e-05 2.5588455545298643e-05 0.0 0.0 0.0 0.0
48100000.0 0.0 0.0 -2.486572716107602e-06 -4.215146631792216e-06 0.0 0.0 0.0 0.0
48450000.0 0.0 0.0 2.5827919862583065e-05 -1.1594716278201342e-05 0.0 0.0 0.0 0.0
48800000.0 0.0 0.0 -1.6162739593770306e-06 3.017835205057161e-05 0.0 0.0 0.0 0.0
49150000.0 0.0 0.0 1.8041834030705287e-05 3.511545052834272e-05 0.0 0.0 0.0 0.0
49500000.0 0.0 0.0 8.254260748194255e-06 3.7857190203209255e-06 0.0 0.0 0.0 0.0
49850000.0 0.0 0.0 3.365961393751103e-05 2.693214084653713e-05 0.0 0.0 0.0 0.0
50200000.0 0.0 0.0 5.3867526136175485e-05 5.702337124345114e-05 0.0 0.0 0.0 0.0
50550000.0 0.0 0.0 -1.2326048414793071e-05 2.5402747400156886e-05 0.0 0.0 0.0 0.0
50900000.0 0.0 0.0 -1.4369916180671372e-05 1.0739046184856417e-05 0.0 0.0 0.0 0.0
51250000.0 0.0 0.0 2.4601265725921946e-05 3.934685743083656e-05 0.0 0.0 0.0 0.0
51600000.0 0.0 0.0 4.19096280429285e-05 -1.3270291268019095e-06 0.0 0.0 0.0 0.0
51950000.0 0.0 0.0 -1.734700922306525e-05 6.587108699185789e-06 0.0 0.0 0.0 0.0
52300000.0 0.0 0.0 6.1613257322901185e-06 2.3449387736583226e-05 0.0 0.0 0.0 0.0
52650000.0 0.0 0.0 1.288403019996669e-05 4.848270436770566e-05 0.0 0.0 0.0 0.0
53000000.0 0.0 0.0 2.839907813237425e-05 2.32081903480496e-05 0.0 0.0 0.0 0.0
53350000.0 0.0 0.0 4.318969752061801e-05 2.838996509468659e-05 0.0 0.0 0.0 0.0
53700000.0 0.0 0.0 6.268560409726343e-06 1.933763427592971e-05 0.0 0.0 0.0 0.0
54050000.0 0.0 0.0 6.845318407416154e-06 3.8552191972715244e-05 0.0 0.0 0.0 0.0
54400000.0 0.0 0.0 3.0208076651122918e-05 3.820594606916419e-05 0.0 0.0 0.0 0.0
54750000.0 0.0 0.0 3.215341147786705e-05 1.4958393206991459e-05 0.0 0.0 0.0 0.0
55100000.0 0.0 0.0 2.275940331150393e-06 1.0975429873326324e-06 0.0 0.0 0.0 0.0
55450000.0 0.0 0.0 4.151479092468408e-05 5.876746168144212e-05 0.0 0.0 0.0 0.0
55800000.0 0.0 0.0 3.011672654691694e-05 5.479059196703599e-05 0.0 0.0 0.0 0.0
56150000.0 0.0 0.0 2.755298067700166e-05 8.361817733768955e-06 0.0 0.0 0.0 0.0
56500000.0 0.0 0.0 2.9927926221280828e-05 5.913459422447721e-05 0.0 0.0 0.0 0.0
56850000.0 0.0 0.0 -1.2999403005917883e-05 4.972883898192007e-05 0.0 0.0 0.0 0.0
57200000.0 0.0 0.0 4.239401937211286e-05 2.1159197774890227e-05 0.0 0.0 0.0 0.0
57550000.0 0.0 0.0 2.0100754203785312e-05 -1.4207260835185898e-05 0.0 0.0 0.0 0.0
57900000.0 0.0 0.0 3.60336182333541e-06 3.934007951911293e-05 0.0 0.0 0.0 0.0
58250000.0 0.0 0.0 1.9334798936973915e-05 3.979758784231518e-05 0.0 0.0 0.0 0.0
58600000.0 0.0 0.0 -1.5232205855796968e-05 3.21007636321416e-05 0.0 0.0 0.0 0.0
58950000.0 0.0 0.0 -3.373786973720964e-05 7.773861886215291e-05 0.0 0.0 0.0 0.0
59300000.0 0.0 0.0 5.192954405868401e-05 1.2050931659303202e-05 0.0 0.0 0.0 0.0
59650000.0 0.0 0.0 1.5528423553140817e-05 2.0144434515623944e-05 0.0 0.0 0.0 0.0
60000000.0 0.0 0.0 2.0365094501156126e-05 5.457910581860956e-05 0.0 0.0 0.0 0.0
60350000.0 0.0 0.0 1.808110353039538e-05 3.136051256154982e-05 0.0 0.0 0.0 0.0
60700000.0 0.0 0.0 2.689714646562181e-05 1.847221093986555e-05 0.0 0.0 0.0 0.0
61050000.0 0.0 0.0 6.534702870076981e-05 4.2674664954522677e-05 0.0 0.0 0.0 0.0
61400000.0 0.0 0.0 4.883688090286153e-05 1.2326751748928747e-05 0.0 0.0 0.0 0.0
61750000.0 0.0 0.0 3.666593692376155e-05 2.790048806925678e-05 0.0 0.0 0.0 0.0
62100000.0 0.0 0.0 4.0961462041044256e-05 3.1839852205374483e-05 0.0 0.0 0.0 0.0
62450000.0 0.0 0.0 5.469558387571438e-06 2.030212353535824e-05 0.0 0.0 0.0 0.0
62800000.0 0.0 0.0 1.8045507461599344e-05 4.6491316699501665e-05 0.0 0.0 0.0 0.0
63150000.0 0.0 0.0 2.6901363719140552e-05 6.142734240589047e-05 0.0 0.0 0.0 0.0
63500000.0 0.0 0.0 2.6989466233408636e-05 3.7307878986022443e-05 0.0 0.0 0.0 0.0
63850000.0 0.0 0.0 2.6882342567614705e-05 4.930674561434177e-05 0.0 0.0 0.0 0.0
64200000.0 0.0 0.0 6.266324953551736e-06 5.5396755469761005e-05 0.0 0.0 0.0 0.0
64550000.0 0.0 0.0 -1.433876199032124e-05 7.222845470854903e-05 0.0 0.0 0.0 0.0
64900000.0 0.0 0.0 3.107207866206345e-05 3.422392697541504e-05 0.0 0.0 0.0 0.0
65250000.0 0.0 0.0 -7.874346143103265e-06 1.2494770138685815e-05 0.0 0.0 0.0 0.0
65600000.0 0.0 0.0 -3.181385698591803e-07 5.298485389099764e-05 0.0 0.0 0.0 0.0
65950000.0 0.0 0.0 3.4614101931470145e-05 2.9163547186132808e-05 0.0 0.0 0.0 0.0
66300000.0 0.0 0.0 -6.687433493843214e-07 6.37191179029705e-05 0.0 0.0 0.0 0.0
66650000.0 0.0 0.0 3.687666383754495e-05 6.901623650426544e-05 0.0 0.0 0.0 0.0
67000000.0 0.0 0.0 6.7556573167674035e-06 4.611085905964458e-05 0.0 0.0 0.0 0.0
