! Created with skrf 1.8.0 (http://scikit-rf.org).
# Hz S RI R 50.0 
!freq ReS11 ImS11 ReS21 ImS21 ReS12 ImS12 ReS22 ImS22
50000.0 0.0 0.0 -8.667084282857222e-05 1.2901055940694587e-05 0.0 0.0 0.0 0.0
15049500.0 0.0 0.0 3.745799391667125e-05 5.1196983775791125e-05 0.0 0.0 0.0 0.0
30049000.0 0.0 0.0 9.506339939313635e-06 2.37760330997038e-05 0.0 0.0 0.0 0.0
45048500.0 0.0 0.0 3.819062869249329e-05 3.455787878432513e-05 0.0 0.0 0.0 0.0
60048000.0 0.0 0.0 -1.7218822287306575e-05 2.262435331756809e-05 0.0 0.0 0.0 0.0
75047500.0 0.0 0.0 4.887108193043864e-05 2.651879897258461e-05 0.0 0.0 0.0 0.0
90047000.0 0.0 0.0 -1.2708034865055657e-06 5.622241399565378e-05 0.0 0.0 0.0 0.0
105046500.0 0.0 0.0 2.4124325648339737e-05 7.612951083523956e-05 0.0 0.0 0.0 0.0
120046000.0 0.0 0.0 -3.8862863923579446e-05 1.715596268523999e-05 0.0 0.0 0.0 0.0
135045500.0 0.0 0.0 3.031774605200807e-05 7.535933793715249e-05 0.0 0.0 0.0 0.0
150045000.0 0.0 0.0 -1.8133160047326907e-05 6.762701173863907e-05 0.0 0.0 0.0 0.0
165044500.0 0.0 0.0 -2.6223814451934174e-05 9.798255212327613e-05 0.0 0.0 0.0 0.0
180044000.0 0.0 0.0 -8.858451541053575e-06 4.647121500773146e-05 0.0 0.0 0.0 0.0
195043500.0 0.0 0.0 -3.8210438628592854e-05 2.9336414995880784e-05 0.0 0.0 0.0 0.0
210043000.0 0.0 0.0 -1.546387161390408e-05 9.236805276560014e-05 0.0 0.0 0.0 0.0
225042500.0 0.0 0.0 -3.250672538137676e-05 6.015804705922355e-05 0.0 0.0 0.0 0.0
240042000.0 0.0 0.0 -6.620325328399242e-05 2.2494503231135096e-05 0.0 0.0 0.0 0.0
255041500.0 0.0 0.0 -6.690093732858237e-05 5.0498371900063205e-05 0.0 0.0 0.0 0.0
270041000.0 0.0 0.0 -7.498745072818932e-05 4.201854336227497e-05 0.0 0.0 0.0 0.0
285040500.0 0.0 0.0 -7.204688950223109e-05 5.1093171501222187e-05 0.0 0.0 0.0 0.0
300040000.0 0.0 0.0 0.0004295717583874737 0.00018363062609732047 0.0 0.0 0.0 0.0
315039500.0 0.0 0.0 1.5938693903074224e-05 -0.00045522995917960426 0.0 0.0 0.0 0.0
330039000.0 0.0 0.0 0.00018722567035870757 -0.00011781513833006599 0.0 0.0 0.0 0.0
345038500.0 0.0 0.0 -3.777790663573705e-05 -0.0004626888818625552 0.0 0.0 0.0 0.0
360038000.0 0.0 0.0 -0.00022308854194652862 -0.00014955585682336866 0.0 0.0 0.0 0.0
375037500.0 0.0 0.0 -0.00035419339694417267 -0.00011112003701919727 0.0 0.0 0.0 0.0
390037000.0 0.0 0.0 -0.00015697424458730513 -0.00024938720797235153 0.0 0.0 0.0 0.0
405036500.0 0.0 0.0 -0.00035791570229899613 -0.0005963944528664031 0.0 0.0 0.0 0.0
420036000.0 0.0 0.0 -0.0005758271992312579 0.0004726246404817305 0.0 0.0 0.0 0.0
435035500.0 0.0 0.0 0.00025747357058728053 -0.00022356796724718123 0.0 0.0 0.0 0.0
450035000.0 0.0 0.0 0.00034575159427336846 -0.0005324538382455553 0.0 0.0 0.0 0.0
465034500.0 0.0 0.0 0.00020671314422129606 -0.0007098767851698953 0.0 0.0 0.0 0.0
480034000.0 0.0 0.0 -0.0004055394293708341 -0.0006484939961708035 0.0 0.0 0.0 0.0
495033500.0 0.0 0.0 -0.00047918576971498394 -0.0008821671278905479 0.0 0.0 0.0 0.0
510033000.0 0.0 0.0 0.00010279346711962639 -0.00046808727169036146 0.0 0.0 0.0 0.0
525032500.0 0.0 0.0 -7.096514342648711e-05 -0.0003520278301888334 0.0 0.0 0.0 0.0
540032000.0 0.0 0.0 -0.00019624742527894954 -0.0004547410161590694 0.0 0.0 0.0 0.0
555031500.0 0.0 0.0 0.0007471528569610386 -0.000687785612902711 0.0 0.0 0.0 0.0
570031000.0 0.0 0.0 0.0002875822255404118 -0.0007062943073034242 0.0 0.0 0.0 0.0
585030500.0 0.0 0.0 0.00044255374797712814 4.93944221512272e-06 0.0 0.0 0.0 0.0
600030000.0 0.0 0.0 0.0011017286967868317 -8.209338056377798e-05 0.0 0.0 0.0 0.0
615029500.0 0.0 0.0 0.0006445126261451779 -0.0010526746672003874 0.0 0.0 0.0 0.0
630029000.0 0.0 0.0 0.0006965177802289467 -0.0006482284240404308 0.0 0.0 0.0 0.0
645028500.0 0.0 0.0 -9.810623445811851e-05 -0.00045140188577081584 0.0 0.0 0.0 0.0
660028000.0 0.0 0.0 0.0013052225785347058 -0.00031682155945613036 0.0 0.0 0.0 0.0
675027500.0 0.0 0.0 0.0010720939018204678 -0.00026772009809008596 0.0 0.0 0.0 0.0
690027000.0 0.0 0.0 0.0010054704947433464 -0.00031318641108063814 0.0 0.0 0.0 0.0
705026500.0 0.0 0.0 0.0015047669159976608 0.00041567626143296764 0.0 0.0 0.0 0.0
720026000.0 0.0 0.0 0.0007637153071244645 -0.00010114540980086495 0.0 0.0 0.0 0.0
735025500.0 0.0 0.0 0.0008827289360130707 0.00020999712090938804 0.0 0.0 0.0 0.0
750025000.0 0.0 0.0 0.0012894490907384996 0.0006579399233810459 0.0 0.0 0.0 0.0
765024500.0 0.0 0.0 8.655689667249433e-05 0.0012213155297008335 0.0 0.0 0.0 0.0
780024000.0 0.0 0.0 0.0001737730743783663 0.0009448940157743041 0.0 0.0 0.0 0.0
795023500.0 0.0 0.0 0.00030638604422884776 0.0005267430730743391 0.0 0.0 0.0 0.0
810023000.0 0.0 0.0 -0.000229735997924316 0.0012805243440582141 0.0 0.0 0.0 0.0
825022500.0 0.0 0.0 -0.0003784877298897493 0.0007440962178803922 0.0 0.0 0.0 0.0
840022000.0 0.0 0.0 -0.0003585874979799558 0.0009321896398869037 0.0 0.0 0.0 0.0
855021500.0 0.0 0.0 -0.0008440161056090065 -0.0002130028911461209 0.0 0.0 0.0 0.0
870021000.0 0.0 0.0 -0.0014149605410076207 -0.00020807830700104486 0.0 0.0 0.0 0.0
885020500.0 0.0 0.0 -0.0011645919913185864 -0.0008471591134359649 0.0 0.0 0.0 0.0
900020000.0 0.0 0.0 0.00025344642700219613 0.0025380146392642855 0.0 0.0 0.0 0.0
915019500.0 0.0 0.0 0.0007940960641878274 -0.0008829936984301765 0.0 0.0 0.0 0.0
930019000.0 0.0 0.0 -0.0011125093826583666 -0.0005361554967890378 0.0 0.0 0.0 0.0
945018500.0 0.0 0.0 0.0007801626878538194 -0.0004587530937843407 0.0 0.0 0.0 0.0
960018000.0 0.0 0.0 0.0009504010994529266 -0.0018584286646959759 0.0 0.0 0.0 0.0
975017500.0 0.0 0.0 0.0015130065119590373 0.0005645067372835746 0.0 0.0 0.0 0.0
990017000.0 0.0 0.0 0.002982854670529721 -0.0004983241163710926 0.0 0.0 0.0 0.0
1005016500.0 0.0 0.0 0.0016254327810831639 -0.0005465290960829547 0.0 0.0 0.0 0.0
1020016000.0 0.0 0.0 0.0048020245021913035 -0.002964642312111759 0.0 0.0 0.0 0.0
1035015500.0 0.0 0.0 -0.0004354663461030099 -0.000981421637106954 0.0 0.0 0.0 0.0
1050015000.0 0.0 0.0 0.0015598720231312076 -0.002268022476115383 0.0 0.0 0.0 0.0
1065014500.0 0.0 0.0 0.003803186914767856 -0.0023516800886341995 0.0 0.0 0.0 0.0
1080014000.0 0.0 0.0 0.0033525927808510203 0.0010855129316197122 0.0 0.0 0.0 0.0
1095013500.0 0.0 0.0 -1.2222993881140147e-05 1.1531816100754055e-05 0.0 0.0 0.0 0.0
1110013000.0 0.0 0.0 0.0013351143268631367 -0.0002839965722624012 0.0 0.0 0.0 0.0
1125012500.0 0.0 0.0 -0.0005271378716711004 -0.002498331425331328 0.0 0.0 0.0 0.0
1140012000.0 0.0 0.0 0.004906530424577727 -0.002198567915973057 0.0 0.0 0.0 0.0
1155011500.0 0.0 0.0 -0.0021412515551395743 -0.0037599200172788727 0.0 0.0 0.0 0.0
1170011000.0 0.0 0.0 0.0017952117689164727 0.0022878342546206855 0.0 0.0 0.0 0.0
1185010500.0 0.0 0.0 0.0028869021980183437 -0.0024947648468667057 0.0 0.0 0.0 0.0
1200010000.0 0.0 0.0 -0.005715636745617246 -0.000220186662727079 0.0 0.0 0.0 0.0
1215009500.0 0.0 0.0 0.0038816668537658195 -0.002860368008556901 0.0 0.0 0.0 0.0
1230009000.0 0.0 0.0 -0.009284545403459944 0.0035535329244894952 0.0 0.0 0.0 0.0
1245008500.0 0.0 0.0 0.00018374100880964698 -0.0032226477637563207 0.0 0.0 0.0 0.0
1260008000.0 0.0 0.0 0.0007933499287348532 -0.003278217733204493 0.0 0.0 0.0 0.0
1275007500.0 0.0 0.0 -0.005457434426160086 0.006607917353021657 0.0 0.0 0.0 0.0
1290007000.0 0.0 0.0 0.00010209941907768638 0.007484745231443487 0.0 0.0 0.0 0.0
1305006500.0 0.0 0.0 0.010491113704798442 0.002021345300461866 0.0 0.0 0.0 0.0
1320006000.0 0.0 0.0 0.0024014643028294853 -0.0016285624013407326 0.0 0.0 0.0 0.0
1335005500.0 0.0 0.0 -0.0006382261676388999 -0.005678617620774087 0.0 0.0 0.0 0.0
1350005000.0 0.0 0.0 0.010006371012048222 0.003164309307245119 0.0 0.0 0.0 0.0
1365004500.0 0.0 0.0 0.008997625546098778 0.00934619420131653 0.0 0.0 0.0 0.0
1380004000.0 0.0 0.0 0.0010686235563682138 0.006763585888129679 0.0 0.0 0.0 0.0
1395003500.0 0.0 0.0 -0.0019994267581606444 0.0030423917362455513 0.0 0.0 0.0 0.0
1410003000.0 0.0 0.0 0.004143093503102688 0.011487227753387208 0.0 0.0 0.0 0.0
1425002500.0 0.0 0.0 -0.009499208750183457 -0.00047129195827005915 0.0 0.0 0.0 0.0
1440002000.0 0.0 0.0 0.017705643356068494 0.006299331318105407 0.0 0.0 0.0 0.0
1455001500.0 0.0 0.0 0.006733335616227062 0.003927002771089057 0.0 0.0 0.0 0.0
1470001000.0 0.0 0.0 0.004553290718879364 0.014075816067658993 0.0 0.0 0.0 0.0
1485000500.0 0.0 0.0 -0.019142699696311043 0.005079759174528343 0.0 0.0 0.0 0.0
1500000000.0 0.0 0.0 -0.00715381931130738 -0.004200513552876078 0.0 0.0 0.0 0.0
