! Created with skrf 1.8.0 (http://scikit-rf.org).
# Hz S RI R 50.0 
!freq ReS11 ImS11 ReS21 ImS21 ReS12 ImS12 ReS22 ImS22
50000000.0 0.0 0.0 0.9887807979710386 0.07274829139978448 0.0 0.0 0.0 0.0
56500000.0 0.0 0.0 0.9894846409311214 0.08297971840496265 0.0 0.0 0.0 0.0
63000000.0 0.0 0.0 0.9895963037959531 0.09197998970622234 0.0 0.0 0.0 0.0
69500000.0 0.0 0.0 0.9864940166713492 0.10189489004317862 0.0 0.0 0.0 0.0
76000000.0 0.0 0.0 0.9909683229394586 0.11243644436736501 0.0 0.0 0.0 0.0
82500000.0 0.0 0.0 0.9821938322510264 0.12454402280123394 0.0 0.0 0.0 0.0
89000000.0 0.0 0.0 0.9878233476947296 0.13208836050576392 0.0 0.0 0.0 0.0
95500000.0 0.0 0.0 0.9819144805930451 0.13836641821961088 0.0 0.0 0.0 0.0
102000000.0 0.0 0.0 0.9828303592132817 0.14882039616943282 0.0 0.0 0.0 0.0
108500000.0 0.0 0.0 0.981409500151568 0.1580601740110773 0.0 0.0 0.0 0.0
115000000.0 0.0 0.0 0.9782658048960398 0.16710501612548817 0.0 0.0 0.0 0.0
121500000.0 0.0 0.0 0.9873496275525798 0.17728486751032296 0.0 0.0 0.0 0.0
128000000.0 0.0 0.0 1.0072998185439943 0.1860172575719067 0.0 0.0 0.0 0.0
134500000.0 0.0 0.0 0.9808990315158452 0.1957173346431973 0.0 0.0 0.0 0.0
141000000.0 0.0 0.0 0.9704870970057875 0.2024976298007774 0.0 0.0 0.0 0.0
147500000.0 0.0 0.0 0.9716593549993321 0.21270417286663354 0.0 0.0 0.0 0.0
154000000.0 0.0 0.0 0.9671100889704954 0.22120721225491372 0.0 0.0 0.0 0.0
160500000.0 0.0 0.0 0.9638733523998864 0.23009807062905968 0.0 0.0 0.0 0.0
167000000.0 0.0 0.0 0.9649474437584934 0.23994084528558401 0.0 0.0 0.0 0.0
173500000.0 0.0 0.0 0.9581160125811318 0.2487164067220346 0.0 0.0 0.0 0.0
180000000.0 0.0 0.0 0.9624944087104546 0.2602876955359545 0.0 0.0 0.0 0.0
186500000.0 0.0 0.0 0.9522795114074516 0.2680090900317924 0.0 0.0 0.0 0.0
193000000.0 0.0 0.0 0.9536554956605735 0.27887080047413043 0.0 0.0 0.0 0.0
199500000.0 0.0 0.0 0.9482826057248616 0.28775212602263506 0.0 0.0 0.0 0.0
206000000.0 0.0 0.0 0.9456719789903769 0.2978774829898834 0.0 0.0 0.0 0.0
212500000.0 0.0 0.0 0.945030864334239 0.3079136961251554 0.0 0.0 0.0 0.0
219000000.0 0.0 0.0 0.9394875317083137 0.31744364510219353 0.0 0.0 0.0 0.0
225500000.0 0.0 0.0 0.9434671034152375 0.32878376927965125 0.0 0.0 0.0 0.0
232000000.0 0.0 0.0 0.9351094868619252 0.33717868209363694 0.0 0.0 0.0 0.0
238500000.0 0.0 0.0 0.937482510799315 0.3481122410749567 0.0 0.0 0.0 0.0
245000000.0 0.0 0.0 0.9322028523251634 0.35643474945330017 0.0 0.0 0.0 0.0
251500000.0 0.0 0.0 0.9312511982298525 0.3662629921833081 0.0 0.0 0.0 0.0
258000000.0 0.0 0.0 0.9303596789275163 0.3752157030962923 0.0 0.0 0.0 0.0
264500000.0 0.0 0.0 0.9253911062662493 0.3830876237435116 0.0 0.0 0.0 0.0
271000000.0 0.0 0.0 0.9287587255497426 0.39297202569190487 0.0 0.0 0.0 0.0
277500000.0 0.0 0.0 0.9208305581617675 0.3996332160909997 0.0 0.0 0.0 0.0
284000000.0 0.0 0.0 0.9257114409133572 0.411359159070262 0.0 0.0 0.0 0.0
290500000.0 0.0 0.0 0.939501024980394 0.42281282114884916 0.0 0.0 0.0 0.0
297000000.0 0.0 0.0 0.96532432612656 0.4357724081982678 0.0 0.0 0.0 0.0
303500000.0 0.0 0.0 0.9175556534833251 0.4296777626348407 0.0 0.0 0.0 0.0
310000000.0 0.0 0.0 0.9112584743061832 0.435338485959967 0.0 0.0 0.0 0.0
316500000.0 0.0 0.0 0.9123543940489979 0.4443715194910239 0.0 0.0 0.0 0.0
323000000.0 0.0 0.0 0.9023396375817596 0.4490804021206953 0.0 0.0 0.0 0.0
329500000.0 0.0 0.0 0.903819717596394 0.45850617441705066 0.0 0.0 0.0 0.0
336000000.0 0.0 0.0 0.894537974522787 0.46254621606452906 0.0 0.0 0.0 0.0
342500000.0 0.0 0.0 0.8914675096471866 0.47003371593369997 0.0 0.0 0.0 0.0
349000000.0 0.0 0.0 0.8830543554780828 0.47616660058229 0.0 0.0 0.0 0.0
355500000.0 0.0 0.0 0.8776115945449842 0.48183372883799297 0.0 0.0 0.0 0.0
362000000.0 0.0 0.0 0.8766163330430125 0.4919472418816937 0.0 0.0 0.0 0.0
368500000.0 0.0 0.0 0.8670971640147944 0.4984776333323069 0.0 0.0 0.0 0.0
375000000.0 0.0 0.0 0.8671530728498033 0.5096053857562798 0.0 0.0 0.0 0.0
381500000.0 0.0 0.0 0.8534522007999957 0.5129287671580001 0.0 0.0 0.0 0.0
388000000.0 0.0 0.0 0.8514130923085687 0.5241916781550424 0.0 0.0 0.0 0.0
394500000.0 0.0 0.0 0.8425454255232728 0.531456113824488 0.0 0.0 0.0 0.0
401000000.0 0.0 0.0 0.8376370641810167 0.5401509973603713 0.0 0.0 0.0 0.0
407500000.0 0.0 0.0 0.8327347768710677 0.5509939737472113 0.0 0.0 0.0 0.0
414000000.0 0.0 0.0 0.8237821456382779 0.5589948387619076 0.0 0.0 0.0 0.0
420500000.0 0.0 0.0 0.822379800053316 0.5713045210488681 0.0 0.0 0.0 0.0
427000000.0 0.0 0.0 0.8109248273315878 0.5782304747852063 0.0 0.0 0.0 0.0
433500000.0 0.0 0.0 0.8096101327411555 0.5910793807765693 0.0 0.0 0.0 0.0
440000000.0 0.0 0.0 0.8012536838294773 0.5967881507530816 0.0 0.0 0.0 0.0
446500000.0 0.0 0.0 0.7963608780545955 0.607376694259516 0.0 0.0 0.0 0.0
453000000.0 0.0 0.0 0.7930385692800574 0.6142454834974924 0.0 0.0 0.0 0.0
459500000.0 0.0 0.0 0.7854042370324588 0.6224445967886812 0.0 0.0 0.0 0.0
466000000.0 0.0 0.0 0.7853560054810298 0.6322058452920094 0.0 0.0 0.0 0.0
472500000.0 0.0 0.0 0.7745032746825504 0.6384572015449036 0.0 0.0 0.0 0.0
479000000.0 0.0 0.0 0.7727104039387882 0.648117773657473 0.0 0.0 0.0 0.0
485500000.0 0.0 0.0 0.7648227442998752 0.6527444529315997 0.0 0.0 0.0 0.0
492000000.0 0.0 0.0 0.7565879001230189 0.6602111274628573 0.0 0.0 0.0 0.0
498500000.0 0.0 0.0 0.7512623024601722 0.6669597497223333 0.0 0.0 0.0 0.0
505000000.0 0.0 0.0 0.7416627725987548 0.6718370272351433 0.0 0.0 0.0 0.0
511500000.0 0.0 0.0 0.7380391591326373 0.6828240527092547 0.0 0.0 0.0 0.0
518000000.0 0.0 0.0 0.7286467239613376 0.6853835671598677 0.0 0.0 0.0 0.0
524500000.0 0.0 0.0 0.7254275968390909 0.6972206200657739 0.0 0.0 0.0 0.0
531000000.0 0.0 0.0 0.7121415267591633 0.7007405192725478 0.0 0.0 0.0 0.0
537500000.0 0.0 0.0 0.7053011921511555 0.7079520293943343 0.0 0.0 0.0 0.0
544000000.0 0.0 0.0 0.6934455162641106 0.7156116052931907 0.0 0.0 0.0 0.0
550500000.0 0.0 0.0 0.6863224256681215 0.7225786739070708 0.0 0.0 0.0 0.0
557000000.0 0.0 0.0 0.6826281892045759 0.7313855761784126 0.0 0.0 0.0 0.0
563500000.0 0.0 0.0 0.6672594138550758 0.7374531090792118 0.0 0.0 0.0 0.0
570000000.0 0.0 0.0 0.6655050143922324 0.7497470265221856 0.0 0.0 0.0 0.0
576500000.0 0.0 0.0 0.6509924380870794 0.7530029845589009 0.0 0.0 0.0 0.0
583000000.0 0.0 0.0 0.6451466164724137 0.7623830996902413 0.0 0.0 0.0 0.0
589500000.0 0.0 0.0 0.6702156076024053 0.8136290359868813 0.0 0.0 0.0 0.0
596000000.0 0.0 0.0 0.6479191721930241 0.801528791182297 0.0 0.0 0.0 0.0
602500000.0 0.0 0.0 0.6322107287642403 0.8007555836409591 0.0 0.0 0.0 0.0
609000000.0 0.0 0.0 0.623831902588399 0.80605919282927 0.0 0.0 0.0 0.0
615500000.0 0.0 0.0 0.6221506673864365 0.8192895136260357 0.0 0.0 0.0 0.0
622000000.0 0.0 0.0 0.6118927410207438 0.8227384987349134 0.0 0.0 0.0 0.0
628500000.0 0.0 0.0 0.6091594843241811 0.8348665856587193 0.0 0.0 0.0 0.0
635000000.0 0.0 0.0 0.6025049671144918 0.8392251576925998 0.0 0.0 0.0 0.0
641500000.0 0.0 0.0 0.5978428253006496 0.8472099870322082 0.0 0.0 0.0 0.0
648000000.0 0.0 0.0 0.5945565842614541 0.8541199076245014 0.0 0.0 0.0 0.0
654500000.0 0.0 0.0 0.5889549922338015 0.8589852758151479 0.0 0.0 0.0 0.0
661000000.0 0.0 0.0 0.5886872293110682 0.8681085446935738 0.0 0.0 0.0 0.0
667500000.0 0.0 0.0 0.57970940260329 0.8678621229116956 0.0 0.0 0.0 0.0
674000000.0 0.0 0.0 0.5757985581235163 0.8799853221638212 0.0 0.0 0.0 0.0
680500000.0 0.0 0.0 0.570200724879091 0.8767459730261964 0.0 0.0 0.0 0.0
687000000.0 0.0 0.0 0.5658257041152709 0.8833732421891742 0.0 0.0 0.0 0.0
693500000.0 0.0 0.0 0.5592257831357572 0.8839970880035193 0.0 0.0 0.0 0.0
700000000.0 0.0 0.0 0.5527305861422707 0.8859772748782748 0.0 0.0 0.0 0.0
