! Created with skrf 1.8.0 (http://scikit-rf.org).
# Hz S RI R 50.0 
!freq ReS11 ImS11 ReS21 ImS21 ReS12 ImS12 ReS22 ImS22
50000.0 0.0 0.0 7.16408260696345e-05 -9.635587283118959e-05 0.0 0.0 0.0 0.0
15049500.0 0.0 0.0 1.745964189187155e-05 5.413733856598054e-05 0.0 0.0 0.0 0.0
30049000.0 0.0 0.0 3.3209152767084865e-06 5.8431250942667006e-05 0.0 0.0 0.0 0.0
45048500.0 0.0 0.0 4.3281164445147774e-05 -6.326461038533052e-06 0.0 0.0 0.0 0.0
60048000.0 0.0 0.0 -7.4490806632206955e-06 -6.785737562920593e-06 0.0 0.0 0.0 0.0
75047500.0 0.0 0.0 1.662551802950506e-05 4.029072958200933e-05 0.0 0.0 0.0 0.0
90047000.0 0.0 0.0 1.2618199789141264e-06 5.538649234318161e-06 0.0 0.0 0.0 0.0
105046500.0 0.0 0.0 2.328624628346133e-05 7.011999172151964e-05 0.0 0.0 0.0 0.0
120046000.0 0.0 0.0 6.923442791595711e-06 5.609050455212095e-05 0.0 0.0 0.0 0.0
135045500.0 0.0 0.0 -2.311570892081165e-05 4.981147599788937e-05 0.0 0.0 0.0 0.0
150045000.0 0.0 0.0 8.505312514604971e-06 5.990313877443238e-05 0.0 0.0 0.0 0.0
165044500.0 0.0 0.0 1.9836045543177747e-05 0.00013140173634777048 0.0 0.0 0.0 0.0
180044000.0 0.0 0.0 -1.3258658656231745e-05 7.581742926687459e-05 0.0 0.0 0.0 0.0
195043500.0 0.0 0.0 -5.1524547699772745e-05 3.356571324035649e-05 0.0 0.0 0.0 0.0
210043000.0 0.0 0.0 -6.493244841265872e-05 9.086680711424503e-05 0.0 0.0 0.0 0.0
225042500.0 0.0 0.0 -2.9981813942280444e-05 7.676362155168605e-05 0.0 0.0 0.0 0.0
240042000.0 0.0 0.0 -8.55812691475551e-05 -9.62965269850004e-06 0.0 0.0 0.0 0.0
255041500.0 0.0 0.0 -6.633539320770901e-05 2.4662375270412047e-05 0.0 0.0 0.0 0.0
270041000.0 0.0 0.0 -5.617544770442052e-05 6.285870572329592e-05 0.0 0.0 0.0 0.0
285040500.0 0.0 0.0 -5.106092884391662e-05 6.0401422662453674e-06 0.0 0.0 0.0 0.0
300040000.0 0.0 0.0 -0.0005131147387860922 0.0004614980901168287 0.0 0.0 0.0 0.0
315039500.0 0.0 0.0 -0.0004498989761526109 0.00029517770141701495 0.0 0.0 0.0 0.0
330039000.0 0.0 0.0 -7.934485225164338e-05 -0.0003823768079880955 0.0 0.0 0.0 0.0
345038500.0 0.0 0.0 0.0002840946817072166 0.0004314028326491092 0.0 0.0 0.0 0.0
360038000.0 0.0 0.0 0.0003005068316215602 0.00014466591113932562 0.0 0.0 0.0 0.0
375037500.0 0.0 0.0 -0.00029510943029190556 2.9958806815141562e-05 0.0 0.0 0.0 0.0
390037000.0 0.0 0.0 -7.77593131780344e-05 -0.0003749198935280447 0.0 0.0 0.0 0.0
405036500.0 0.0 0.0 0.00027528312462114215 -0.00034123824228362914 0.0 0.0 0.0 0.0
420036000.0 0.0 0.0 -0.0002844511707886944 -0.0003643100323542312 0.0 0.0 0.0 0.0
435035500.0 0.0 0.0 -2.965751513135925e-05 -0.00020583143773785675 0.0 0.0 0.0 0.0
450035000.0 0.0 0.0 9.243170141091914e-05 -0.00039699315101432507 0.0 0.0 0.0 0.0
465034500.0 0.0 0.0 -2.9877005774123992e-05 -0.0007714652567465192 0.0 0.0 0.0 0.0
480034000.0 0.0 0.0 -0.0006227838791238425 -0.0010286598606674894 0.0 0.0 0.0 0.0
495033500.0 0.0 0.0 9.95456608325245e-05 -0.0001827432562980533 0.0 0.0 0.0 0.0
510033000.0 0.0 0.0 -0.0001765911219334211 -0.00023186936335854204 0.0 0.0 0.0 0.0
525032500.0 0.0 0.0 0.000602451408990645 -0.00026809725650067114 0.0 0.0 0.0 0.0
540032000.0 0.0 0.0 0.000370471149534078 -0.00056583769055525 0.0 0.0 0.0 0.0
555031500.0 0.0 0.0 0.0002130290725983803 -0.0010423226969575566 0.0 0.0 0.0 0.0
570031000.0 0.0 0.0 0.0003939884619920172 -0.00028216369330791795 0.0 0.0 0.0 0.0
585030500.0 0.0 0.0 0.0009711456151496144 -0.0012116419383735762 0.0 0.0 0.0 0.0
600030000.0 0.0 0.0 -1.1215059491660286e-05 -0.001177561827448817 0.0 0.0 0.0 0.0
615029500.0 0.0 0.0 0.000260287044567799 -0.0002803738650983016 0.0 0.0 0.0 0.0
630029000.0 0.0 0.0 0.0014369285585152686 -0.0009591265221649501 0.0 0.0 0.0 0.0
645028500.0 0.0 0.0 0.0006815270231758047 -0.00014592210106466433 0.0 0.0 0.0 0.0
660028000.0 0.0 0.0 0.0006480946870045365 -0.00021827809084397815 0.0 0.0 0.0 0.0
675027500.0 0.0 0.0 0.0017120534800779245 0.0003932764881836544 0.0 0.0 0.0 0.0
690027000.0 0.0 0.0 0.00044405215806468527 -0.0003661271367081327 0.0 0.0 0.0 0.0
705026500.0 0.0 0.0 0.0008744720091749693 0.000382917523692103 0.0 0.0 0.0 0.0
720026000.0 0.0 0.0 0.0008080328550597193 0.0010676485372415581 0.0 0.0 0.0 0.0
735025500.0 0.0 0.0 0.0007247072262705127 0.0005380158550268752 0.0 0.0 0.0 0.0
750025000.0 0.0 0.0 0.0007506637659767185 0.000990041654009391 0.0 0.0 0.0 0.0
765024500.0 0.0 0.0 -0.0003740320191322875 0.0010380642705843527 0.0 0.0 0.0 0.0
780024000.0 0.0 0.0 -3.263704004445514e-05 0.0006577141548439844 0.0 0.0 0.0 0.0
795023500.0 0.0 0.0 -0.0005886446487902598 0.00151282045908151 0.0 0.0 0.0 0.0
810023000.0 0.0 0.0 -0.0009422531475580091 -0.0001553771080501395 0.0 0.0 0.0 0.0
825022500.0 0.0 0.0 -0.00028451147248758117 -0.0001963890005497974 0.0 0.0 0.0 0.0
840022000.0 0.0 0.0 8.50428309260012e-06 0.0008049763178094626 0.0 0.0 0.0 0.0
855021500.0 0.0 0.0 -0.00012535203124001477 0.0010079353874971361 0.0 0.0 0.0 0.0
870021000.0 0.0 0.0 -0.0006003185595150713 -0.0005473592068685331 0.0 0.0 0.0 0.0
885020500.0 0.0 0.0 -0.0005094586869638219 0.0003887639350841312 0.0 0.0 0.0 0.0
900020000.0 0.0 0.0 -0.0032713364438710564 -0.0014782239292576986 0.0 0.0 0.0 0.0
915019500.0 0.0 0.0 0.0015796613009996412 0.0023288585228032036 0.0 0.0 0.0 0.0
930019000.0 0.0 0.0 0.0005170217906479966 -0.003890738506026219 0.0 0.0 0.0 0.0
945018500.0 0.0 0.0 -0.0006342841388712529 -0.0031378785975742203 0.0 0.0 0.0 0.0
960018000.0 0.0 0.0 0.0016412317622346365 -0.0028950635474476526 0.0 0.0 0.0 0.0
975017500.0 0.0 0.0 0.0018401081292990257 0.0015143939995960892 0.0 0.0 0.0 0.0
990017000.0 0.0 0.0 0.0007894797929253024 0.0011639477368282573 0.0 0.0 0.0 0.0
1005016500.0 0.0 0.0 0.0006356255154906744 -0.0007443219604191554 0.0 0.0 0.0 0.0
1020016000.0 0.0 0.0 0.0026376665240344 -0.0007938508541894282 0.0 0.0 0.0 0.0
1035015500.0 0.0 0.0 -0.0012106997053846146 0.0009315510643446271 0.0 0.0 0.0 0.0
1050015000.0 0.0 0.0 0.0003539144283414802 0.0024529352894831374 0.0 0.0 0.0 0.0
1065014500.0 0.0 0.0 0.002924031124402782 0.001951148177752987 0.0 0.0 0.0 0.0
1080014000.0 0.0 0.0 0.0020253154235802748 -0.0015763208872475335 0.0 0.0 0.0 0.0
1095013500.0 0.0 0.0 0.0039813253150861845 -0.0009379493791238958 0.0 0.0 0.0 0.0
1110013000.0 0.0 0.0 0.0026647686291262455 0.00043917056303289473 0.0 0.0 0.0 0.0
1125012500.0 0.0 0.0 0.0011089989421454415 -0.002679799893664692 0.0 0.0 0.0 0.0
1140012000.0 0.0 0.0 -0.0009571531642694356 -0.00013230210850552257 0.0 0.0 0.0 0.0
1155011500.0 0.0 0.0 -0.0008075407554505089 0.0025970713908047313 0.0 0.0 0.0 0.0
1170011000.0 0.0 0.0 0.002993586184450489 -0.0014532529834502884 0.0 0.0 0.0 0.0
1185010500.0 0.0 0.0 0.0009680713260828041 0.007330120623522255 0.0 0.0 0.0 0.0
1200010000.0 0.0 0.0 0.011955991170002423 -0.0002777737641266534 0.0 0.0 0.0 0.0
1215009500.0 0.0 0.0 0.000518522215344441 -0.0023437032084799667 0.0 0.0 0.0 0.0
1230009000.0 0.0 0.0 -0.006815747849770208 0.00700016697335755 0.0 0.0 0.0 0.0
1245008500.0 0.0 0.0 -0.0011397889923949573 -0.0043310319718215294 0.0 0.0 0.0 0.0
1260008000.0 0.0 0.0 0.00889186302729252 -0.004366013629309041 0.0 0.0 0.0 0.0
1275007500.0 0.0 0.0 0.003435652706774725 0.000538654297450139 0.0 0.0 0.0 0.0
1290007000.0 0.0 0.0 -0.006668689571656001 0.004838081406036022 0.0 0.0 0.0 0.0
1305006500.0 0.0 0.0 0.002067370372841913 -0.004872485110171245 0.0 0.0 0.0 0.0
1320006000.0 0.0 0.0 0.0025617435934681297 -0.004705618816221092 0.0 0.0 0.0 0.0
1335005500.0 0.0 0.0 0.00011516640485902355 0.0054418500525016174 0.0 0.0 0.0 0.0
1350005000.0 0.0 0.0 0.0006274339779239664 -0.001266782719318711 0.0 0.0 0.0 0.0
1365004500.0 0.0 0.0 0.014293296558038267 0.00402153038587693 0.0 0.0 0.0 0.0
1380004000.0 0.0 0.0 0.007278136596269372 -0.0014886162889826498 0.0 0.0 0.0 0.0
1395003500.0 0.0 0.0 -0.0012437214507775647 0.0035007221449182098 0.0 0.0 0.0 0.0
1410003000.0 0.0 0.0 0.0006521997556023343 0.015386276472340449 0.0 0.0 0.0 0.0
1425002500.0 0.0 0.0 0.009517820966419847 0.008617402772949154 0.0 0.0 0.0 0.0
1440002000.0 0.0 0.0 -0.005646588471043328 0.003117423588597573 0.0 0.0 0.0 0.0
1455001500.0 0.0 0.0 -0.019334846796610326 0.013768272963703193 0.0 0.0 0.0 0.0
1470001000.0 0.0 0.0 -0.009953285879590457 -0.007256830544712288 0.0 0.0 0.0 0.0
1485000500.0 0.0 0.0 -0.0025067694763155506 -0.003973679046281501 0.0 0.0 0.0 0.0
1500000000.0 0.0 0.0 -0.015055423251481029 0.0026881317750892314 0.0 0.0 0.0 0.0
