! Created with skrf 1.8.0 (http://scikit-rf.org).
# Hz S RI R 50.0 
!freq ReS11 ImS11
50000.0 -0.001377721308577735 -0.005762838414027242
15049500.0 0.0005281612000577166 0.000518153817106134
30049000.0 0.00017463140208173972 -0.00022751907286296466
45048500.0 -0.0011667165084833678 -0.000801320727072552
60048000.0 1.3000577968820975e-05 5.0769959796913e-05
75047500.0 -0.0006116395102443241 0.00028095618048189203
90047000.0 -0.00018730971888385612 -0.0012122572953599865
105046500.0 -0.0006556593343149454 -0.00012222975957517225
120046000.0 -0.0010915800116689234 0.001488844931069193
135045500.0 0.00010582489298905126 0.0016518684820159652
150045000.0 -3.609648341453514e-05 0.0003124899226014293
165044500.0 9.344654781544272e-05 -0.0028016233596654364
180044000.0 -0.0001601404046875789 0.0002484677255159893
195043500.0 -0.0004018150975962217 0.00013624450263401784
210043000.0 0.0001229489259390566 -0.00016199944423131446
225042500.0 0.0002963359494386971 0.00035341863643636605
240042000.0 0.0007822462509684513 -0.00015878690853549316
255041500.0 -0.0003593638601686044 -0.0019549319071367147
270041000.0 -0.00040882289419923813 -0.0006324827986004578
285040500.0 -0.0013043486157172052 0.003405946916396837
300040000.0 0.002193670248246638 0.002177533450338327
315039500.0 -0.0001726681046418313 -0.0014749130241948594
330039000.0 -0.0019639509203549592 -0.0008459730139022239
345038500.0 -0.005080328592686567 -0.009584771223011998
360038000.0 -0.0006522687505887596 0.002415928318251138
375037500.0 -0.00013411500101985401 0.0004954669974641575
390037000.0 0.010046270025464406 0.0043833366175505106
405036500.0 0.0006141124348457531 0.0007625425026092065
420036000.0 -0.0030932940243701672 -0.0016439543394811927
435035500.0 -0.01995450452631591 0.011785055637318593
450035000.0 -0.004512050971600005 -0.014785658373397572
465034500.0 0.0019207461160449845 0.008268528093362672
480034000.0 0.0045252252635872075 -0.005421186126273055
495033500.0 -0.0009835497859930157 -0.002554247554739811
510033000.0 0.029603925949959708 0.016146571462972784
525032500.0 -0.0005186009047586267 -0.0014758698838300572
540032000.0 -0.002878506559600775 -0.014012457855866326
555031500.0 -0.00014560953784937078 0.0027673432611411987
570031000.0 0.003301858672814404 0.016487631257524386
585030500.0 -0.0074119529741879355 0.004586048712005779
600030000.0 -0.008846925121297979 0.008920012423820673
615029500.0 -0.009040288906796957 0.0017159427040594113
630029000.0 0.001384277413601435 -0.006268108941279368
645028500.0 -0.01209918321844627 -0.009940656079179511
660028000.0 -0.0027498228726321543 -0.005471459099373081
675027500.0 -0.016710351023249474 0.00880949122440926
690027000.0 0.012243028901410439 -0.008146720780773083
705026500.0 -0.004557827763307551 0.0008286209638643751
720026000.0 0.02536860348205492 0.005977943304877994
735025500.0 0.0020365731611341584 -0.0016983561614454658
750025000.0 -0.008717838108354567 -0.012382178538355701
765024500.0 -0.01492296807880459 0.008482414232359707
780024000.0 0.10613349171402287 0.0753966798637242
795023500.0 -0.003972161069667449 0.024505479997375724
810023000.0 -0.024703080397997085 -0.006276600290453904
825022500.0 0.003421168789929041 -0.003022999162183235
840022000.0 -0.19827175122177101 0.07667282471234982
855021500.0 -0.004129604616825388 -0.005017224681745698
870021000.0 0.0028449075141558167 0.004669382557803694
885020500.0 0.0023047783058236324 -0.009497933334875938
900020000.0 -0.002226573591539422 0.003294738884999533
915019500.0 0.006134661653182105 -0.04487619940777969
930019000.0 0.01550506795838904 -0.011721526757185312
945018500.0 -0.0039051328673076575 -0.0038572015389830147
960018000.0 -0.008476038662428746 -0.008807472701797861
975017500.0 -0.0005333060045523518 -0.0301007352268082
990017000.0 0.008209413623998858 -0.022709148796560306
1005016500.0 -0.004697508380402756 0.674035742376105
1020016000.0 0.016204782313730806 0.05087006152219156
1035015500.0 -0.004571363460659137 0.004831997718401253
1050015000.0 0.00289962226780198 -0.02917024648827769
1065014500.0 0.0007414524100979203 0.0042278971246939205
1080014000.0 0.006474848693811764 -0.0024943846076628186
1095013500.0 0.013511005131687966 -0.002468271850348565
1110013000.0 0.03072246856772071 0.003282440630937515
1125012500.0 0.0021989518009302425 0.009857261941330991
1140012000.0 0.008191008641988691 -0.004955019537563741
1155011500.0 -0.013248927573800022 0.02777810772183744
1170011000.0 -0.013129126356369886 -0.2720949543795089
1185010500.0 0.01334598617072331 0.01246681328438002
1200010000.0 -0.03315013897972024 0.06066492845561652
1215009500.0 0.033424318589727914 0.007762035405260141
1230009000.0 -0.052152824995992074 -0.22238507292367005
1245008500.0 0.030324269821794713 -0.004403752650399065
1260008000.0 -0.045099811340425955 -0.002923822558856997
1275007500.0 -0.07250530086862565 0.04772396427165396
1290007000.0 -0.007748853113719068 0.027771113712651174
1305006500.0 0.6737419256942563 -0.7542093531722233
1320006000.0 0.03365785697519299 0.03319802324666069
1335005500.0 -0.01574826537804705 -0.016334889616677
1350005000.0 -0.04154906631530694 0.0030476892486341217
1365004500.0 0.05762226836335138 -0.0792739643745535
1380004000.0 -0.011038078145080536 0.007476036720955113
1395003500.0 -0.0010709228158990425 0.004506930282071795
1410003000.0 0.0657592979668519 0.03810202054487851
1425002500.0 -0.001917372794942239 -0.013003326002533181
1440002000.0 0.035933372470657116 -0.15599785641938937
1455001500.0 0.023643172616968508 -0.03466867113745906
1470001000.0 0.11321570169483867 0.06113640648880341
1485000500.0 -0.01585581058279936 -0.11829270800965175
1500000000.0 -0.031071831322482573 0.21858081617187897
