! Created with skrf 1.8.0 (http://scikit-rf.org).
# Hz S RI R 50.0 
!freq ReS11 ImS11
50000.0 -2.6460306158247553 -3.6805572911515347
15049500.0 -2.022784906653022 -0.1386909541125102
30049000.0 -1.8376462305436245 0.4506988587561845
45048500.0 -2.8115936911715003 -3.0345287857089285
60048000.0 -1.1385748343179776 -0.0406520388558045
75047500.0 -2.7552998732194145 1.0011297255702725
90047000.0 2.8026856455460925 0.11601220484106088
105046500.0 1.6605585693992018 0.8583248910446014
120046000.0 -2.001270350213857 2.156465310711236
135045500.0 0.09264288770707192 -0.9642151791032619
150045000.0 -0.8675422713700423 0.8561802850200434
165044500.0 5.599246239001745 -2.0055155527965174
180044000.0 -0.05379028459804265 0.6506004201195211
195043500.0 -0.3649708643954478 -0.25317355112676676
210043000.0 0.7262796152584945 -0.11493403330775954
225042500.0 -0.6107432088742942 1.0258496786683384
240042000.0 -0.34709964452333897 1.0886581491865028
255041500.0 1.7574053225996216 -7.925815450371301
270041000.0 1.482982340802598 1.8447174481740614
285040500.0 0.5018202498288981 -3.3599949846451707
300040000.0 0.010887678054918129 -0.7582440817483878
315039500.0 0.531106890323155 0.8411740618904071
330039000.0 0.03878151028333436 0.038397875819934355
345038500.0 1.0826812419847107 5.582957130590812
360038000.0 0.8880821390970931 1.8925387604099868
375037500.0 -0.7966664358196373 0.15422915837497664
390037000.0 -0.6557443854254907 0.42989604661332503
405036500.0 0.7194978378543504 0.1636886420362398
420036000.0 0.17339716450249085 -1.2163615126900602
435035500.0 -6.654019801487012 8.354541170599838
450035000.0 -0.32972639559689465 1.1283410459354062
465034500.0 -1.312356503510039 -1.8849980374937831
480034000.0 -2.084946968535148 -1.6964089140928573
495033500.0 -0.33357235622734477 0.766530254878027
510033000.0 5.166497072615369 6.967697155435111
525032500.0 0.4886947550571441 0.340682120099429
540032000.0 -2.0097703792467896 -3.547542072774573
555031500.0 -0.20394538587355254 -0.6312764807333284
570031000.0 1.191153478305622 2.581959275382124
585030500.0 -1.2148691766452546 0.8705398785461936
600030000.0 -0.017036067880689832 2.3135373268410038
615029500.0 3.2227017345538354 -1.6194193862412567
630029000.0 1.7123837134085573 -0.08075015099018022
645028500.0 -1.2865252970674124 -2.9821336971643464
660028000.0 -2.228017376422566 -0.3821003603365888
675027500.0 2.5766930876210377 -1.7797171475675297
690027000.0 2.1680072443026948 -0.907395306922944
705026500.0 -0.06463385634667908 -0.5090133945801188
720026000.0 0.20857537625409978 3.341401022448319
735025500.0 1.3481716287435896 0.6847198230126259
750025000.0 2.7029106327410277 -0.7427652031855863
765024500.0 -1.646075956260897 -2.416145163910305
780024000.0 1.7650145635569685 2.40534369704701
795023500.0 -5.065107598850839 4.362229750423436
810023000.0 3.0542594209221816 0.974908060132414
825022500.0 -0.018642671005037446 0.03023205668866629
840022000.0 -14.399643893659832 16.446587972870482
855021500.0 0.21797819738312146 -1.1376667874331845
870021000.0 -0.007755734295630872 1.101509342490648
885020500.0 -0.2636851742526928 -2.082993013822675
900020000.0 -1.2573591880176753 0.4972838270668925
915019500.0 3.835650952451664 1.367090955685051
930019000.0 0.03384654411824565 -5.303460803994621
945018500.0 1.3959643844537226 -1.0028752701573496
960018000.0 0.08063980842006649 -1.4586201591196042
975017500.0 -1.924444430213821 -2.94615264826306
990017000.0 3.8601072767073585 3.9642348481803857
1005016500.0 -68.48612946628965 -30.968532757710417
1020016000.0 0.053090946347837065 -2.7670806098135747
1035015500.0 -0.7271855427729309 0.7202378374828817
1050015000.0 0.9881852038788586 -1.3699623501791192
1065014500.0 0.333692655129346 -0.13224690579210385
1080014000.0 -0.9516594066584035 0.3634906197585518
1095013500.0 1.234510066909855 -1.07863993208652
1110013000.0 -1.9917175401779217 2.7384608319382995
1125012500.0 -1.1028405146460203 1.1400943604525455
1140012000.0 0.6685868323436333 0.5328267314362787
1155011500.0 0.416767686339519 -0.0783387520275138
1170011000.0 2.874906904949356 -2.102269392291705
1185010500.0 0.5873787367823909 -0.6586571597512877
1200010000.0 -0.6617672514820896 -2.677629867266127
1215009500.0 0.14583218871500958 -1.1824913282723806
1230009000.0 -6.888137227995414 8.031298167403001
1245008500.0 2.1952075111213802 0.6436343367766345
1260008000.0 -0.21457611152474068 -1.3586645786705178
1275007500.0 2.240335768795804 0.7513897229189089
1290007000.0 0.4961797214176582 1.6252637545311315
1305006500.0 -20.845279261725356 7.567578887770229
1320006000.0 -0.485269916705015 1.2042711394754324
1335005500.0 -0.5905657810536977 1.0770591441830641
1350005000.0 -1.5594369348256996 -1.1231921053471077
1365004500.0 0.18929009105144545 0.9949597114064507
1380004000.0 0.20532894236575927 0.489735136640634
1395003500.0 0.7768631593959705 0.4332117022478158
1410003000.0 1.0191151805676955 3.858083984497996
1425002500.0 0.2684746338170592 -0.49650965290090127
1440002000.0 2.3392677664952717 3.6891484050667684
1455001500.0 0.44524432469033554 0.8250821540500616
1470001000.0 -2.0056069045722995 -0.9794252442558263
1485000500.0 0.9333405281040597 1.1189148083344929
1500000000.0 2.2383999424584875 3.0947101963877457
