! Created with skrf 1.8.0 (http://scikit-rf.org).
# Hz S RI R 50.0 
!freq ReS11 ImS11
50000.0 0.013339094 -0.00021253
15049500.0 0.013681028 0.002147834
30049000.0 0.014125434 0.004170466
45048500.0 0.01470432 0.006075351
60048000.0 0.015348666 0.008071093
75047500.0 0.015870988 0.010400988
90047000.0 0.016589952 0.012423878
105046500.0 0.017289126 0.01464222
120046000.0 0.017906066 0.017156842
135045500.0 0.018373966 0.019743038
150045000.0 0.01864734 0.022444604
165044500.0 0.018872084 0.025141386
180044000.0 0.018816042 0.027988934
195043500.0 0.0186298 0.030886338
210043000.0 0.018181406 0.033779892
225042500.0 0.017392956 0.036681952
240042000.0 0.016495004 0.03943926
255041500.0 0.015333424 0.041945796
270041000.0 0.014011902 0.044365324
285040500.0 0.0126303 0.046548248
300040000.0 0.01061821 0.048602656
315039500.0 0.009505446 0.050581556
330039000.0 0.00741775 0.05180108
345038500.0 0.006431496 0.054364608
360038000.0 0.004921148 0.055251328
375037500.0 0.004109855 0.0563943
390037000.0 0.002871252 0.056883816
405036500.0 0.001986442 0.058680092
420036000.0 0.001702956 0.060317704
435035500.0 0.000936487 0.060647108
450035000.0 -0.000288273 0.062427228
465034500.0 -0.000767749 0.063769236
480034000.0 -0.001133386 0.065766796
495033500.0 -0.002336608 0.06817428
510033000.0 -0.003169709 0.069361128
525032500.0 -0.003450754 0.070518224
540032000.0 -0.004074724 0.073646848
555031500.0 -0.005096289 0.075400568
570031000.0 -0.007127462 0.078273032
585030500.0 -0.00883927 0.081585752
600030000.0 -0.010315596 0.084494592
615029500.0 -0.012359338 0.087349384
630029000.0 -0.015697556 0.090119352
645028500.0 -0.020767526 0.092738112
660028000.0 -0.0229784 0.095150456
675027500.0 -0.02720598 0.094834792
690027000.0 -0.030926688 0.096544472
705026500.0 -0.033888532 0.09795908
720026000.0 -0.03816856 0.097238256
735025500.0 -0.042509108 0.09609008
750025000.0 -0.046099568 0.096309336
765024500.0 -0.049732636 0.094428424
780024000.0 -0.052145924 0.09511572
795023500.0 -0.054463608 0.091392056
810023000.0 -0.056957696 0.089353416
825022500.0 -0.058642308 0.088238168
840022000.0 -0.059433588 0.085053472
855021500.0 -0.058343036 0.084517352
870021000.0 -0.0595694 0.082728688
885020500.0 -0.057824888 0.081601856
900020000.0 -0.056770512 0.080307184
915019500.0 -0.056496 0.082371384
930019000.0 -0.053436156 0.087610712
945018500.0 -0.05353974 0.09115148
960018000.0 -0.05842548 0.090946968
975017500.0 -0.054714916 0.089984976
990017000.0 -0.060503868 0.092161192
1005016500.0 -0.053122064 0.095591888
1020016000.0 -0.055215768 0.096378496
1035015500.0 -0.061287708 0.098812456
1050015000.0 -0.060815892 0.093396184
1065014500.0 -0.067620392 0.09832072
1080014000.0 -0.063534164 0.09407884
1095013500.0 -0.074567176 0.100625936
1110013000.0 -0.086121336 0.100314672
1125012500.0 -0.083417768 0.109267104
1140012000.0 -0.088205848 0.112374
1155011500.0 -0.102435824 0.112622128
1170011000.0 -0.103802784 0.115007392
1185010500.0 -0.11288028 0.114104088
1200010000.0 -0.118853072 0.108100888
1215009500.0 -0.134203272 0.097090272
1230009000.0 -0.118667808 0.078451016
1245008500.0 -0.119172496 0.0785616
1260008000.0 -0.12637548 0.080381296
1275007500.0 -0.129262688 0.065667032
1290007000.0 -0.124027264 0.052763556
1305006500.0 -0.12225784 0.054663852
1320006000.0 -0.109870928 0.045024164
1335005500.0 -0.093923696 0.062536932
1350005000.0 -0.101693648 0.07255032
1365004500.0 -0.1099394 0.064326972
1380004000.0 -0.103194088 0.068323584
1395003500.0 -0.079076016 0.075523528
1410003000.0 -0.087670824 0.0824144
1425002500.0 -0.086187648 0.099931784
1440002000.0 -0.103152552 0.109429224
1455001500.0 -0.163257536 0.116674904
1470001000.0 -0.16662128 0.093876848
1485000500.0 -0.1691924 0.121976312
1500000000.0 -0.182610016 0.059379464
