! Created with skrf 1.8.0 (http://scikit-rf.org).
# Hz S RI R 50.0 
!freq ReS11 ImS11
50000.0 0.9972163081755272 0.00040004061187585754
15049500.0 0.9980445363931821 0.020017716533055122
30049000.0 0.9982935394654636 0.03897894077579463
45048500.0 0.9979343968867908 0.05826084222323207
60048000.0 0.9974588672694896 0.07691086481959371
75047500.0 0.9966273989850777 0.09603562535092736
90047000.0 0.9943592688261316 0.11539889064634797
105046500.0 0.9927006883616107 0.13355347366918618
120046000.0 0.9905820953682085 0.15195675821116414
135045500.0 0.9881593823606357 0.1706552966371005
150045000.0 0.9851872637835064 0.18878820659303147
165044500.0 0.9819507367256557 0.20673019152678343
180044000.0 0.9792331542566466 0.22486363942379714
195043500.0 0.9755552845991604 0.24274678217767656
210043000.0 0.9713284128277926 0.2610444766253006
225042500.0 0.9668914913916705 0.27909915664214047
240042000.0 0.9620152257278036 0.29681979038814477
255041500.0 0.9564585216706235 0.3144807208636783
270041000.0 0.9501563642847026 0.3313090185340613
285040500.0 0.946168345094048 0.34959251508474415
300040000.0 0.9396263767789909 0.36538263908321916
315039500.0 0.9340997439354444 0.3818192187526526
330039000.0 0.9281723815377757 0.39948454181476134
345038500.0 0.921234759851758 0.4174343058546317
360038000.0 0.9152742889586375 0.43226786534920036
375037500.0 0.9079040473709533 0.4493347923440616
390037000.0 0.9009058371110542 0.46911519645054367
405036500.0 0.8926397899822408 0.4829989427064835
420036000.0 0.8847185942398262 0.5000840779397107
435035500.0 0.8763035400672744 0.518433640743546
450035000.0 0.8638699204103795 0.5348150087135888
465034500.0 0.8557192508194171 0.5529207796502841
480034000.0 0.8442711338701564 0.5672498941317099
495033500.0 0.8308885673836576 0.5832176315394573
510033000.0 0.8191872761618505 0.5974578645068315
525032500.0 0.8092912475837898 0.6106759152186623
540032000.0 0.7985316537862616 0.626113931677345
555031500.0 0.7888787269991739 0.641919675024599
570031000.0 0.7783085890984895 0.6551150367214391
585030500.0 0.7666932724928492 0.6676663157719734
600030000.0 0.7558905503030048 0.69253653552066
615029500.0 0.7397043517204365 0.7064887460336456
630029000.0 0.7243200530319241 0.7209828979483452
645028500.0 0.7086277531942142 0.7323496747596516
660028000.0 0.6914941084974652 0.7464402157667426
675027500.0 0.6809680023082845 0.7572638540873734
690027000.0 0.6653365221186388 0.7698738663335069
705026500.0 0.6467825417122767 0.7832825221115515
720026000.0 0.6308580501015866 0.7939075621936584
735025500.0 0.6106494882411729 0.8029146706030397
750025000.0 0.591610178641176 0.8138814774597855
765024500.0 0.5737297316341163 0.8236690018274305
780024000.0 0.5514573851765447 0.8388120100603368
795023500.0 0.539227884363371 0.8409060717501197
810023000.0 0.5224648263519068 0.8482297309656498
825022500.0 0.5088203274994884 0.8526808446254397
840022000.0 0.4948034306472108 0.8566653480950119
855021500.0 0.4820193913481833 0.8637138252713777
870021000.0 0.4722449379613241 0.8616574497916367
885020500.0 0.4602425018910294 0.8706763441376505
900020000.0 0.4764967436089253 0.8804759795305752
915019500.0 0.463567909226109 0.8903748642079446
930019000.0 0.45175479564783855 0.9035621477267838
945018500.0 0.434085582523643 0.9143423049321004
960018000.0 0.41579429233563175 0.9201537987487364
975017500.0 0.3932380377762789 0.9250947271629801
990017000.0 0.37760568836989045 0.9176761751995902
1005016500.0 0.3608934364242681 0.9250823736170848
1020016000.0 0.3526950439535306 0.9212247103352256
1035015500.0 0.352252544671504 0.9214459811502544
1050015000.0 0.3443995321433962 0.9479367179633652
1065014500.0 0.3396743923606183 0.9516505354068634
1080014000.0 0.34109012510315107 0.9725983991678284
1095013500.0 0.33900872662718895 0.9880281045680986
1110013000.0 0.3244703590389184 1.0116628253273094
1125012500.0 0.2982841317127902 1.0620126109794343
1140012000.0 0.25973237914616304 1.0757090994368672
1155011500.0 0.189672549201353 1.0733151433676804
1170011000.0 0.16006313579333062 1.083993514265184
1185010500.0 0.11724347902338791 1.0995432596288495
1200010000.0 0.07626378803750852 1.0954041007484456
1215009500.0 0.03819655151409356 1.0800482636614803
1230009000.0 -0.0008634065652206554 1.0510981532765586
1245008500.0 -0.03212159628028462 1.0296116668261996
1260008000.0 -0.04354039692486031 1.0054318219561538
1275007500.0 -0.05050000290933969 0.9735184291525826
1290007000.0 -0.04358095187996996 0.9439530745415983
1305006500.0 -0.029666686016353142 0.937972287798064
1320006000.0 -0.014462473697923894 0.9573507472210443
1335005500.0 0.0031282706957959663 0.9616329987853224
1350005000.0 0.03714417459591861 0.9951631483544562
1365004500.0 0.07000040113040795 1.0737566948543797
1380004000.0 0.06976292219719152 1.1069897048632245
1395003500.0 0.07194962833593405 1.1844252680715206
1410003000.0 0.035409850499364945 1.2930437658774554
1425002500.0 -0.054959387108584466 1.4292954122375119
1440002000.0 -0.20306648690723353 1.517176051251614
1455001500.0 -0.5215900903390985 1.6496100451282119
1470001000.0 -0.8377473581399111 1.533239137422683
1485000500.0 -1.1175885447515335 1.2360647980850903
1500000000.0 -1.1696420327286052 0.8708351270892644
