! Created with skrf 1.8.0 (http://scikit-rf.org).
# Hz S RI R 50.0 
!freq ReS11 ImS11
50000.0 -0.012475718472737311 0.0003497763725613559
15049500.0 -0.0115521251784854 0.001321184627598057
30049000.0 -0.011858547757082954 0.0020843775221510135
45048500.0 -0.012114265699633505 0.0032675937258988823
60048000.0 -0.012223541319613495 0.004212319459631862
75047500.0 -0.01251483372928012 0.005360099026983464
90047000.0 -0.012684322522624804 0.006490995305827569
105046500.0 -0.013147920271696232 0.007596724607838641
120046000.0 -0.013448242660895745 0.009080437113908515
135045500.0 -0.013547618458643712 0.009782690688276951
150045000.0 -0.014254459907327004 0.011748666635806114
165044500.0 -0.014124366223717079 0.013598650047170762
180044000.0 -0.01433999097537036 0.01581332006132942
195043500.0 -0.01485453632657408 0.01764931024964192
210043000.0 -0.014541762969972017 0.018859492154190298
225042500.0 -0.013642998511295218 0.019786568804678373
240042000.0 -0.01258407299299877 0.02179849569220234
255041500.0 -0.011703219584471526 0.023865517421877175
270041000.0 -0.01034869076938324 0.02597398348790055
285040500.0 -0.009810772940227709 0.027019380707697643
300040000.0 -0.008033078566073104 0.02914683659346473
315039500.0 -0.004889887378855796 0.03127984247952989
330039000.0 -0.002231690508657138 0.03320353432962428
345038500.0 -0.0035587281018364856 0.03258825082714844
360038000.0 -0.0013952713951930118 0.03461928100891422
375037500.0 -0.0017712572728696527 0.03430153368113376
390037000.0 0.0031130780784715518 0.03685808118427507
405036500.0 -0.0003138283065278604 0.03540232291955422
420036000.0 -5.9479347142559196e-05 0.036938698450869216
435035500.0 -0.0004949443655842998 0.03579062702216697
450035000.0 -0.0027814745379476417 0.04035333819140452
465034500.0 0.0012958915666954195 0.036096248047950544
480034000.0 0.0001682480614289616 0.03650981678717307
495033500.0 0.0004881607635791865 0.03575988496633892
510033000.0 0.001021319433463366 0.03774600390445281
525032500.0 0.0016994381840546317 0.03776485095826994
540032000.0 -0.0012366959188070265 0.03888098098738352
555031500.0 -0.0014906779310138848 0.04274513700531402
570031000.0 -0.004054954179785048 0.04540573827357953
585030500.0 -0.005107555098693773 0.04748008942946826
600030000.0 -0.0038343494400610596 0.04932310455981717
615029500.0 -0.005505908841891318 0.05056465853909748
630029000.0 -0.0055027973673302324 0.04977970464037117
645028500.0 -0.0055935625804601815 0.04877585923366638
660028000.0 -0.0044536511665545266 0.04867278783828703
675027500.0 -0.0013982712503683408 0.054666149022852974
690027000.0 -0.002136641229897158 0.05591487414408154
705026500.0 -0.0025532831758523075 0.059142518818963916
720026000.0 -0.002229586698489206 0.0664825621426658
735025500.0 0.001971826874934982 0.06938123344207738
750025000.0 -0.0003781872219887678 0.07265655801133153
765024500.0 -0.0009567620755885264 0.07891509733070906
780024000.0 -0.004168475245879855 0.07730336036811594
795023500.0 -0.0056315433374761435 0.08616032669672312
810023000.0 -0.008479745043711304 0.08698539355026737
825022500.0 -0.011447553065391384 0.08579593114886014
840022000.0 -0.01495078458476916 0.083817962895114
855021500.0 -0.018036809242546786 0.08624957718367218
870021000.0 -0.01959943793090877 0.08376906537095027
885020500.0 -0.026795662168722763 0.08484540375049476
900020000.0 -0.015406977591283998 0.09418379808073042
915019500.0 -0.018887669686923857 0.09059177722561257
930019000.0 -0.03364012849225355 0.0811932095068068
945018500.0 -0.04030602739917466 0.07681554868599658
960018000.0 -0.03781287436304201 0.0715257855530749
975017500.0 -0.04719211323976531 0.07721563899238201
990017000.0 -0.04356400749059283 0.05921119592185164
1005016500.0 -0.05212583116953365 0.05943365398869081
1020016000.0 -0.052917626388301546 0.05747134855862628
1035015500.0 -0.04345459780478789 0.052036019817782206
1050015000.0 -0.04160788623732483 0.05040683766175762
1065014500.0 -0.027001537561824072 0.03692424608546889
1080014000.0 -0.027597750834815523 0.0488336631481486
1095013500.0 -0.007281840762276031 0.042047203425588
1110013000.0 8.695830635022401e-05 0.05459787871874202
1125012500.0 -0.002716875213901004 0.06789968476107233
1140012000.0 0.012763542277998492 0.08410652131745106
1155011500.0 -0.013188318775419716 0.07576718804243882
1170011000.0 0.004655466722101846 0.1083275917174039
1185010500.0 -0.01578978274507533 0.13090339829136372
1200010000.0 -0.03376076778204521 0.14741826638236227
1215009500.0 -0.04179362466269371 0.14907416350941577
1230009000.0 -0.03605873269971705 0.16366563426534977
1245008500.0 -0.07114907855047622 0.17001365439776783
1260008000.0 -0.08901739098525276 0.1495978185689248
1275007500.0 -0.08888858236314692 0.12207810404829082
1290007000.0 -0.09748708561080283 0.1059078093950575
1305006500.0 -0.10968076787543322 0.08699491216873866
1320006000.0 -0.10508255930537817 0.06033898511347637
1335005500.0 -0.12861440748053718 0.057367177324699384
1350005000.0 -0.13879747368094153 0.0005852645029164017
1365004500.0 -0.12981155733939065 -0.030055634307819854
1380004000.0 -0.12178280872334282 -0.067947582777772
1395003500.0 -0.13129434482295527 -0.08345100013916862
1410003000.0 -0.10093062018220772 -0.1622015816123387
1425002500.0 -0.052743847421421734 -0.21574283833944566
1440002000.0 0.010931558458346051 -0.24466180671692692
1455001500.0 0.12348382882123468 -0.2731055742620388
1470001000.0 0.2359851410898977 -0.17155186428837715
1485000500.0 0.220531088829984 -0.026293511593883132
1500000000.0 0.14131087804389605 0.01927115583921978
