! Created with skrf 1.8.0 (http://scikit-rf.org).
# Hz S RI R 50.0 
!freq ReS11 ImS11 ReS21 ImS21 ReS12 ImS12 ReS22 ImS22
50000.0 0.0 0.0 -6.0355e-05 -0.00011661 0.0 0.0 0.0 0.0
15049500.0 0.0 0.0 4.2325e-05 -1.792e-06 0.0 0.0 0.0 0.0
30049000.0 0.0 0.0 4.247e-05 5.081e-05 0.0 0.0 0.0 0.0
45048500.0 0.0 0.0 2.3592e-05 3.6958e-05 0.0 0.0 0.0 0.0
60048000.0 0.0 0.0 3.5848e-05 1.6237e-05 0.0 0.0 0.0 0.0
75047500.0 0.0 0.0 6.2135e-05 2.2913e-05 0.0 0.0 0.0 0.0
90047000.0 0.0 0.0 1.8608e-05 6.5099e-05 0.0 0.0 0.0 0.0
105046500.0 0.0 0.0 -4.598e-05 5.0985e-05 0.0 0.0 0.0 0.0
120046000.0 0.0 0.0 -6.4226e-05 8.3147e-05 0.0 0.0 0.0 0.0
135045500.0 0.0 0.0 -8.63e-06 0.00010267 0.0 0.0 0.0 0.0
150045000.0 0.0 0.0 -9.062e-06 0.000120325 0.0 0.0 0.0 0.0
165044500.0 0.0 0.0 3.8282e-05 8.1117e-05 0.0 0.0 0.0 0.0
180044000.0 0.0 0.0 2.683e-06 6.6496e-05 0.0 0.0 0.0 0.0
195043500.0 0.0 0.0 -3.2116e-05 5.9116e-05 0.0 0.0 0.0 0.0
210043000.0 0.0 0.0 -6.5498e-05 8.1196e-05 0.0 0.0 0.0 0.0
225042500.0 0.0 0.0 -5.5174e-05 5.8188e-05 0.0 0.0 0.0 0.0
240042000.0 0.0 0.0 -6.5542e-05 1.672e-05 0.0 0.0 0.0 0.0
255041500.0 0.0 0.0 -8.4007e-05 6.7725e-05 0.0 0.0 0.0 0.0
270041000.0 0.0 0.0 -9.9305e-05 1.7833e-05 0.0 0.0 0.0 0.0
285040500.0 0.0 0.0 -6.2547e-05 3.2315e-05 0.0 0.0 0.0 0.0
300040000.0 0.0 0.0 0.000434868 0.000265952 0.0 0.0 0.0 0.0
315039500.0 0.0 0.0 -0.000345851 -1.128e-05 0.0 0.0 0.0 0.0
330039000.0 0.0 0.0 -0.000462933 0.000380867 0.0 0.0 0.0 0.0
345038500.0 0.0 0.0 1.6269e-05 -0.000142746 0.0 0.0 0.0 0.0
360038000.0 0.0 0.0 9.3334e-05 4.488e-06 0.0 0.0 0.0 0.0
375037500.0 0.0 0.0 -0.000155504 0.000331466 0.0 0.0 0.0 0.0
390037000.0 0.0 0.0 -6.8003e-05 0.000608508 0.0 0.0 0.0 0.0
405036500.0 0.0 0.0 0.000172345 0.000349465 0.0 0.0 0.0 0.0
420036000.0 0.0 0.0 0.000403542 -0.000140774 0.0 0.0 0.0 0.0
435035500.0 0.0 0.0 -0.00061915 -0.000362397 0.0 0.0 0.0 0.0
450035000.0 0.0 0.0 1.0654e-05 -6.4203e-05 0.0 0.0 0.0 0.0
465034500.0 0.0 0.0 5.5681e-05 -9.0917e-05 0.0 0.0 0.0 0.0
480034000.0 0.0 0.0 -0.000272921 -0.000386234 0.0 0.0 0.0 0.0
495033500.0 0.0 0.0 -0.000368729 -0.000216684 0.0 0.0 0.0 0.0
510033000.0 0.0 0.0 0.000201744 -0.000591564 0.0 0.0 0.0 0.0
525032500.0 0.0 0.0 0.000294463 -0.000144895 0.0 0.0 0.0 0.0
540032000.0 0.0 0.0 0.000203312 -0.000249353 0.0 0.0 0.0 0.0
555031500.0 0.0 0.0 0.000430242 -0.000889163 0.0 0.0 0.0 0.0
570031000.0 0.0 0.0 0.000271118 -0.00065537 0.0 0.0 0.0 0.0
585030500.0 0.0 0.0 -0.000201862 -0.000690169 0.0 0.0 0.0 0.0
600030000.0 0.0 0.0 0.000757818 0.000622928 0.0 0.0 0.0 0.0
615029500.0 0.0 0.0 0.001119509 -0.000361138 0.0 0.0 0.0 0.0
630029000.0 0.0 0.0 0.001082395 -0.000604243 0.0 0.0 0.0 0.0
645028500.0 0.0 0.0 0.000683098 -0.000206254 0.0 0.0 0.0 0.0
660028000.0 0.0 0.0 0.000472043 -3.6371e-05 0.0 0.0 0.0 0.0
675027500.0 0.0 0.0 0.000539871 -0.000101553 0.0 0.0 0.0 0.0
690027000.0 0.0 0.0 0.001070874 0.000540207 0.0 0.0 0.0 0.0
705026500.0 0.0 0.0 0.000700697 0.000108148 0.0 0.0 0.0 0.0
720026000.0 0.0 0.0 0.000437992 0.001312449 0.0 0.0 0.0 0.0
735025500.0 0.0 0.0 0.00045244 0.000697642 0.0 0.0 0.0 0.0
750025000.0 0.0 0.0 0.000783364 0.000514079 0.0 0.0 0.0 0.0
765024500.0 0.0 0.0 0.000415078 0.000286283 0.0 0.0 0.0 0.0
780024000.0 0.0 0.0 -5.2127e-05 0.001226682 0.0 0.0 0.0 0.0
795023500.0 0.0 0.0 -3.5994e-05 0.001114266 0.0 0.0 0.0 0.0
810023000.0 0.0 0.0 -0.000157022 0.00077097 0.0 0.0 0.0 0.0
825022500.0 0.0 0.0 -0.000170952 0.000700078 0.0 0.0 0.0 0.0
840022000.0 0.0 0.0 -0.000297863 0.000482561 0.0 0.0 0.0 0.0
855021500.0 0.0 0.0 -0.001063289 -0.000337022 0.0 0.0 0.0 0.0
870021000.0 0.0 0.0 -9.14e-07 0.00063219 0.0 0.0 0.0 0.0
885020500.0 0.0 0.0 -0.000270159 -0.001463226 0.0 0.0 0.0 0.0
900020000.0 0.0 0.0 -3.227e-06 0.003996694 0.0 0.0 0.0 0.0
915019500.0 0.0 0.0 -0.001369013 -0.002517537 0.0 0.0 0.0 0.0
930019000.0 0.0 0.0 0.002037987 -0.001535262 0.0 0.0 0.0 0.0
945018500.0 0.0 0.0 -0.000366187 -0.000775491 0.0 0.0 0.0 0.0
960018000.0 0.0 0.0 -0.000562977 0.000755391 0.0 0.0 0.0 0.0
975017500.0 0.0 0.0 -0.000378939 0.000898723 0.0 0.0 0.0 0.0
990017000.0 0.0 0.0 0.000670798 -0.001584297 0.0 0.0 0.0 0.0
1005016500.0 0.0 0.0 0.002890157 0.000525456 0.0 0.0 0.0 0.0
1020016000.0 0.0 0.0 0.002132978 0.000838456 0.0 0.0 0.0 0.0
1035015500.0 0.0 0.0 0.001256006 0.000692179 0.0 0.0 0.0 0.0
1050015000.0 0.0 0.0 0.004220032 -0.001123691 0.0 0.0 0.0 0.0
1065014500.0 0.0 0.0 0.002489195 -0.000902678 0.0 0.0 0.0 0.0
1080014000.0 0.0 0.0 0.002705183 0.001230383 0.0 0.0 0.0 0.0
1095013500.0 0.0 0.0 0.003919318 -0.001654128 0.0 0.0 0.0 0.0
1110013000.0 0.0 0.0 -0.000564949 0.000148951 0.0 0.0 0.0 0.0
1125012500.0 0.0 0.0 0.003915221 -0.001278028 0.0 0.0 0.0 0.0
1140012000.0 0.0 0.0 0.001501545 -0.000446195 0.0 0.0 0.0 0.0
1155011500.0 0.0 0.0 0.004066014 -0.001653914 0.0 0.0 0.0 0.0
1170011000.0 0.0 0.0 -0.001119731 -0.001651158 0.0 0.0 0.0 0.0
1185010500.0 0.0 0.0 0.003870763 -9.0577e-05 0.0 0.0 0.0 0.0
1200010000.0 0.0 0.0 0.002904945 0.002925934 0.0 0.0 0.0 0.0
1215009500.0 0.0 0.0 8.2874e-05 -0.002450793 0.0 0.0 0.0 0.0
1230009000.0 0.0 0.0 0.003412234 -0.000572208 0.0 0.0 0.0 0.0
1245008500.0 0.0 0.0 0.001794068 -0.000125947 0.0 0.0 0.0 0.0
1260008000.0 0.0 0.0 -0.001109111 -0.002323132 0.0 0.0 0.0 0.0
1275007500.0 0.0 0.0 -0.001858634 -0.002368747 0.0 0.0 0.0 0.0
1290007000.0 0.0 0.0 -0.000222579 -0.000703905 0.0 0.0 0.0 0.0
1305006500.0 0.0 0.0 -0.008380327 0.000510026 0.0 0.0 0.0 0.0
1320006000.0 0.0 0.0 0.00193092 0.002878779 0.0 0.0 0.0 0.0
1335005500.0 0.0 0.0 -0.000729601 -0.00506512 0.0 0.0 0.0 0.0
1350005000.0 0.0 0.0 -0.002298447 -0.000220577 0.0 0.0 0.0 0.0
1365004500.0 0.0 0.0 0.002979572 0.005134259 0.0 0.0 0.0 0.0
1380004000.0 0.0 0.0 -0.002044807 0.003881734 0.0 0.0 0.0 0.0
1395003500.0 0.0 0.0 -0.004971401 0.01371548 0.0 0.0 0.0 0.0
1410003000.0 0.0 0.0 0.002902588 0.012268594 0.0 0.0 0.0 0.0
1425002500.0 0.0 0.0 -0.004322876 0.009491704 0.0 0.0 0.0 0.0
1440002000.0 0.0 0.0 0.00863497 -0.005476242 0.0 0.0 0.0 0.0
1455001500.0 0.0 0.0 -0.01511423 0.007055608 0.0 0.0 0.0 0.0
1470001000.0 0.0 0.0 -0.02080442 -0.001916871 0.0 0.0 0.0 0.0
1485000500.0 0.0 0.0 -0.014214592 -0.000436867 0.0 0.0 0.0 0.0
1500000000.0 0.0 0.0 -0.008369025 -0.01276741 0.0 0.0 0.0 0.0
