! Created with skrf 1.8.0 (http://scikit-rf.org).
# Hz S RI R 50.0 
!freq ReS11 ImS11 ReS21 ImS21 ReS12 ImS12 ReS22 ImS22
50000.0 0.0 0.0 7.0924e-05 0.000119809 0.0 0.0 0.0 0.0
15049500.0 0.0 0.0 5.5734e-05 -1.442e-05 0.0 0.0 0.0 0.0
30049000.0 0.0 0.0 4.2138e-05 1.9641e-05 0.0 0.0 0.0 0.0
45048500.0 0.0 0.0 4.969e-06 3.6632e-05 0.0 0.0 0.0 0.0
60048000.0 0.0 0.0 1.0113e-05 2.7077e-05 0.0 0.0 0.0 0.0
75047500.0 0.0 0.0 3.053e-06 7.6711e-05 0.0 0.0 0.0 0.0
90047000.0 0.0 0.0 7.467e-06 6.1473e-05 0.0 0.0 0.0 0.0
105046500.0 0.0 0.0 3.177e-06 1.0214e-05 0.0 0.0 0.0 0.0
120046000.0 0.0 0.0 -1.8459e-05 1.0833e-05 0.0 0.0 0.0 0.0
135045500.0 0.0 0.0 -3.0657e-05 7.2496e-05 0.0 0.0 0.0 0.0
150045000.0 0.0 0.0 -3.578e-06 8.4392e-05 0.0 0.0 0.0 0.0
165044500.0 0.0 0.0 2.7735e-05 7.1091e-05 0.0 0.0 0.0 0.0
180044000.0 0.0 0.0 -2.2691e-05 5.7395e-05 0.0 0.0 0.0 0.0
195043500.0 0.0 0.0 -3.2608e-05 6.3755e-05 0.0 0.0 0.0 0.0
210043000.0 0.0 0.0 -5.7783e-05 4.3194e-05 0.0 0.0 0.0 0.0
225042500.0 0.0 0.0 -7.4954e-05 6.3034e-05 0.0 0.0 0.0 0.0
240042000.0 0.0 0.0 -5.5369e-05 5.0115e-05 0.0 0.0 0.0 0.0
255041500.0 0.0 0.0 -9.4273e-05 4.778e-06 0.0 0.0 0.0 0.0
270041000.0 0.0 0.0 -9.6351e-05 1.082e-06 0.0 0.0 0.0 0.0
285040500.0 0.0 0.0 -8.2036e-05 1.676e-05 0.0 0.0 0.0 0.0
300040000.0 0.0 0.0 0.00023454 -0.000901973 0.0 0.0 0.0 0.0
315039500.0 0.0 0.0 0.00011509 -9.3966e-05 0.0 0.0 0.0 0.0
330039000.0 0.0 0.0 -0.000188372 0.00056809 0.0 0.0 0.0 0.0
345038500.0 0.0 0.0 -0.000350036 -0.000337796 0.0 0.0 0.0 0.0
360038000.0 0.0 0.0 9.5937e-05 -7.3016e-05 0.0 0.0 0.0 0.0
375037500.0 0.0 0.0 0.000326397 -0.000295717 0.0 0.0 0.0 0.0
390037000.0 0.0 0.0 -0.000415246 0.000630651 0.0 0.0 0.0 0.0
405036500.0 0.0 0.0 -0.000156661 7.854e-06 0.0 0.0 0.0 0.0
420036000.0 0.0 0.0 -0.000372673 -0.000490663 0.0 0.0 0.0 0.0
435035500.0 0.0 0.0 -0.000275604 -0.00032178 0.0 0.0 0.0 0.0
450035000.0 0.0 0.0 0.000492934 -0.000392361 0.0 0.0 0.0 0.0
465034500.0 0.0 0.0 -0.000230839 -0.000729588 0.0 0.0 0.0 0.0
480034000.0 0.0 0.0 -8.5683e-05 -0.000669278 0.0 0.0 0.0 0.0
495033500.0 0.0 0.0 0.000354991 -0.000995581 0.0 0.0 0.0 0.0
510033000.0 0.0 0.0 0.000270787 -0.000913629 0.0 0.0 0.0 0.0
525032500.0 0.0 0.0 4.5412e-05 -0.000837488 0.0 0.0 0.0 0.0
540032000.0 0.0 0.0 -8.345e-06 0.000154544 0.0 0.0 0.0 0.0
555031500.0 0.0 0.0 -0.000124698 -0.000551502 0.0 0.0 0.0 0.0
570031000.0 0.0 0.0 0.000500439 -0.00031473 0.0 0.0 0.0 0.0
585030500.0 0.0 0.0 0.000930972 -0.001228479 0.0 0.0 0.0 0.0
600030000.0 0.0 0.0 0.000263769 -0.000580898 0.0 0.0 0.0 0.0
615029500.0 0.0 0.0 0.000205611 -8.0885e-05 0.0 0.0 0.0 0.0
630029000.0 0.0 0.0 0.000942456 0.000229532 0.0 0.0 0.0 0.0
645028500.0 0.0 0.0 0.000428668 -1.1442e-05 0.0 0.0 0.0 0.0
660028000.0 0.0 0.0 0.000779574 -0.000312174 0.0 0.0 0.0 0.0
675027500.0 0.0 0.0 0.000322756 0.000344724 0.0 0.0 0.0 0.0
690027000.0 0.0 0.0 0.000793757 -8.808e-06 0.0 0.0 0.0 0.0
705026500.0 0.0 0.0 0.000555984 0.000616159 0.0 0.0 0.0 0.0
720026000.0 0.0 0.0 0.000297756 0.001003479 0.0 0.0 0.0 0.0
735025500.0 0.0 0.0 3.1888e-05 0.001326173 0.0 0.0 0.0 0.0
750025000.0 0.0 0.0 0.000303389 0.00076321 0.0 0.0 0.0 0.0
765024500.0 0.0 0.0 -0.000524687 0.001126557 0.0 0.0 0.0 0.0
780024000.0 0.0 0.0 -0.000514455 0.000989861 0.0 0.0 0.0 0.0
795023500.0 0.0 0.0 -0.000323909 0.000958552 0.0 0.0 0.0 0.0
810023000.0 0.0 0.0 -7.54e-06 0.000310825 0.0 0.0 0.0 0.0
825022500.0 0.0 0.0 -0.000412512 0.00062964 0.0 0.0 0.0 0.0
840022000.0 0.0 0.0 -0.00121337 -0.000187708 0.0 0.0 0.0 0.0
855021500.0 0.0 0.0 -0.00095811 -0.00016758 0.0 0.0 0.0 0.0
870021000.0 0.0 0.0 -0.000763191 0.000608938 0.0 0.0 0.0 0.0
885020500.0 0.0 0.0 -0.000755799 -0.000415524 0.0 0.0 0.0 0.0
900020000.0 0.0 0.0 -0.004481164 0.000700107 0.0 0.0 0.0 0.0
915019500.0 0.0 0.0 0.001062628 -0.002592093 0.0 0.0 0.0 0.0
930019000.0 0.0 0.0 0.000844564 -0.004782658 0.0 0.0 0.0 0.0
945018500.0 0.0 0.0 0.001152131 -0.002110176 0.0 0.0 0.0 0.0
960018000.0 0.0 0.0 3.9297e-05 -0.001650105 0.0 0.0 0.0 0.0
975017500.0 0.0 0.0 0.000472635 0.000535374 0.0 0.0 0.0 0.0
990017000.0 0.0 0.0 -0.00031999 -0.000301053 0.0 0.0 0.0 0.0
1005016500.0 0.0 0.0 0.000408101 -0.003503845 0.0 0.0 0.0 0.0
1020016000.0 0.0 0.0 0.000941121 0.001260462 0.0 0.0 0.0 0.0
1035015500.0 0.0 0.0 -0.001085192 -0.000406608 0.0 0.0 0.0 0.0
1050015000.0 0.0 0.0 0.001575913 0.001145569 0.0 0.0 0.0 0.0
1065014500.0 0.0 0.0 0.004637605 0.001148539 0.0 0.0 0.0 0.0
1080014000.0 0.0 0.0 -0.000730183 0.000602653 0.0 0.0 0.0 0.0
1095013500.0 0.0 0.0 0.000755032 -0.001497177 0.0 0.0 0.0 0.0
1110013000.0 0.0 0.0 0.003279711 0.002239168 0.0 0.0 0.0 0.0
1125012500.0 0.0 0.0 0.002182128 0.001231599 0.0 0.0 0.0 0.0
1140012000.0 0.0 0.0 0.002772809 -0.000348449 0.0 0.0 0.0 0.0
1155011500.0 0.0 0.0 -5.7009e-05 0.001693252 0.0 0.0 0.0 0.0
1170011000.0 0.0 0.0 0.002036236 -0.006108964 0.0 0.0 0.0 0.0
1185010500.0 0.0 0.0 0.00545912 0.002344918 0.0 0.0 0.0 0.0
1200010000.0 0.0 0.0 0.007676628 -0.001146129 0.0 0.0 0.0 0.0
1215009500.0 0.0 0.0 0.003445406 0.002665947 0.0 0.0 0.0 0.0
1230009000.0 0.0 0.0 0.006619941 0.001367259 0.0 0.0 0.0 0.0
1245008500.0 0.0 0.0 0.009764514 0.004065832 0.0 0.0 0.0 0.0
1260008000.0 0.0 0.0 0.00130194 0.006505236 0.0 0.0 0.0 0.0
1275007500.0 0.0 0.0 0.004302984 -0.003812747 0.0 0.0 0.0 0.0
1290007000.0 0.0 0.0 -0.004293544 0.002789931 0.0 0.0 0.0 0.0
1305006500.0 0.0 0.0 0.001882317 0.006209892 0.0 0.0 0.0 0.0
1320006000.0 0.0 0.0 -0.003676891 0.002954255 0.0 0.0 0.0 0.0
1335005500.0 0.0 0.0 0.000702953 -0.004863305 0.0 0.0 0.0 0.0
1350005000.0 0.0 0.0 0.00173932 0.004897139 0.0 0.0 0.0 0.0
1365004500.0 0.0 0.0 9.6764e-05 0.003718954 0.0 0.0 0.0 0.0
1380004000.0 0.0 0.0 -0.001206059 0.00166068 0.0 0.0 0.0 0.0
1395003500.0 0.0 0.0 0.007547889 0.00073701 0.0 0.0 0.0 0.0
1410003000.0 0.0 0.0 -0.005690445 0.007721891 0.0 0.0 0.0 0.0
1425002500.0 0.0 0.0 -0.010000284 0.000828481 0.0 0.0 0.0 0.0
1440002000.0 0.0 0.0 0.01582843 0.0229902 0.0 0.0 0.0 0.0
1455001500.0 0.0 0.0 -0.005347473 0.010335272 0.0 0.0 0.0 0.0
1470001000.0 0.0 0.0 -0.015196798 0.016870832 0.0 0.0 0.0 0.0
1485000500.0 0.0 0.0 -0.015049922 0.005402064 0.0 0.0 0.0 0.0
1500000000.0 0.0 0.0 0.015549378 -0.004163373 0.0 0.0 0.0 0.0
