! Created with skrf 1.8.0 (http://scikit-rf.org).
# Hz S RI R 50.0 
!freq ReS11 ImS11 ReS21 ImS21 ReS12 ImS12 ReS22 ImS22
50000.0 0.0 0.0 0.996693504 -0.000325206 0.0 0.0 0.0 0.0
15049500.0 0.0 0.0 0.993702848 -0.002382661 0.0 0.0 0.0 0.0
30049000.0 0.0 0.0 0.992984192 -0.003756684 0.0 0.0 0.0 0.0
45048500.0 0.0 0.0 0.991955328 -0.005251277 0.0 0.0 0.0 0.0
60048000.0 0.0 0.0 0.991781376 -0.006250983 0.0 0.0 0.0 0.0
75047500.0 0.0 0.0 0.991210112 -0.007127093 0.0 0.0 0.0 0.0
90047000.0 0.0 0.0 0.990846784 -0.008451532 0.0 0.0 0.0 0.0
105046500.0 0.0 0.0 0.99080992 -0.00990086 0.0 0.0 0.0 0.0
120046000.0 0.0 0.0 0.990563648 -0.011335632 0.0 0.0 0.0 0.0
135045500.0 0.0 0.0 0.990005888 -0.012463942 0.0 0.0 0.0 0.0
150045000.0 0.0 0.0 0.988621952 -0.01408466 0.0 0.0 0.0 0.0
165044500.0 0.0 0.0 0.987042816 -0.014536944 0.0 0.0 0.0 0.0
180044000.0 0.0 0.0 0.98547968 -0.014410882 0.0 0.0 0.0 0.0
195043500.0 0.0 0.0 0.984386048 -0.013252842 0.0 0.0 0.0 0.0
210043000.0 0.0 0.0 0.984175488 -0.011825552 0.0 0.0 0.0 0.0
225042500.0 0.0 0.0 0.985013504 -0.009758906 0.0 0.0 0.0 0.0
240042000.0 0.0 0.0 0.987406336 -0.008996436 0.0 0.0 0.0 0.0
255041500.0 0.0 0.0 0.990930112 -0.009764428 0.0 0.0 0.0 0.0
270041000.0 0.0 0.0 0.993783552 -0.011731376 0.0 0.0 0.0 0.0
285040500.0 0.0 0.0 0.99685632 -0.015274636 0.0 0.0 0.0 0.0
300040000.0 0.0 0.0 0.994526656 -0.019317478 0.0 0.0 0.0 0.0
315039500.0 0.0 0.0 0.99691488 -0.024119194 0.0 0.0 0.0 0.0
330039000.0 0.0 0.0 0.991325632 -0.029214542 0.0 0.0 0.0 0.0
345038500.0 0.0 0.0 0.988809792 -0.033079672 0.0 0.0 0.0 0.0
360038000.0 0.0 0.0 0.984142912 -0.034890268 0.0 0.0 0.0 0.0
375037500.0 0.0 0.0 0.979593536 -0.03537404 0.0 0.0 0.0 0.0
390037000.0 0.0 0.0 0.975600128 -0.034488408 0.0 0.0 0.0 0.0
405036500.0 0.0 0.0 0.974148544 -0.030185516 0.0 0.0 0.0 0.0
420036000.0 0.0 0.0 0.972827648 -0.027905094 0.0 0.0 0.0 0.0
435035500.0 0.0 0.0 0.972849728 -0.024078426 0.0 0.0 0.0 0.0
450035000.0 0.0 0.0 0.96974048 -0.028999048 0.0 0.0 0.0 0.0
465034500.0 0.0 0.0 0.977173824 -0.024548646 0.0 0.0 0.0 0.0
480034000.0 0.0 0.0 0.975587136 -0.028746128 0.0 0.0 0.0 0.0
495033500.0 0.0 0.0 0.976881536 -0.030938974 0.0 0.0 0.0 0.0
510033000.0 0.0 0.0 0.973809472 -0.032984226 0.0 0.0 0.0 0.0
525032500.0 0.0 0.0 0.97113984 -0.036523904 0.0 0.0 0.0 0.0
540032000.0 0.0 0.0 0.96926496 -0.034828276 0.0 0.0 0.0 0.0
555031500.0 0.0 0.0 0.965999744 -0.032654508 0.0 0.0 0.0 0.0
570031000.0 0.0 0.0 0.963873856 -0.030435328 0.0 0.0 0.0 0.0
585030500.0 0.0 0.0 0.967662592 -0.025594642 0.0 0.0 0.0 0.0
600030000.0 0.0 0.0 0.968134784 -0.02352839 0.0 0.0 0.0 0.0
615029500.0 0.0 0.0 0.975428992 -0.023068774 0.0 0.0 0.0 0.0
630029000.0 0.0 0.0 0.977922752 -0.022972818 0.0 0.0 0.0 0.0
645028500.0 0.0 0.0 0.987315776 -0.028269058 0.0 0.0 0.0 0.0
660028000.0 0.0 0.0 0.992065728 -0.0342901 0.0 0.0 0.0 0.0
675027500.0 0.0 0.0 0.989159168 -0.043666988 0.0 0.0 0.0 0.0
690027000.0 0.0 0.0 0.991375296 -0.048161148 0.0 0.0 0.0 0.0
705026500.0 0.0 0.0 0.985176256 -0.05831518 0.0 0.0 0.0 0.0
720026000.0 0.0 0.0 0.978006144 -0.064238468 0.0 0.0 0.0 0.0
735025500.0 0.0 0.0 0.971678464 -0.066011892 0.0 0.0 0.0 0.0
750025000.0 0.0 0.0 0.96072416 -0.066937596 0.0 0.0 0.0 0.0
765024500.0 0.0 0.0 0.951213568 -0.064708048 0.0 0.0 0.0 0.0
780024000.0 0.0 0.0 0.953364672 -0.05603172 0.0 0.0 0.0 0.0
795023500.0 0.0 0.0 0.941259008 -0.05034478 0.0 0.0 0.0 0.0
810023000.0 0.0 0.0 0.938600896 -0.042718996 0.0 0.0 0.0 0.0
825022500.0 0.0 0.0 0.940236864 -0.037858468 0.0 0.0 0.0 0.0
840022000.0 0.0 0.0 0.945855744 -0.03549166 0.0 0.0 0.0 0.0
855021500.0 0.0 0.0 0.942037504 -0.02848303 0.0 0.0 0.0 0.0
870021000.0 0.0 0.0 0.944920704 -0.033788076 0.0 0.0 0.0 0.0
885020500.0 0.0 0.0 0.943990336 -0.035077304 0.0 0.0 0.0 0.0
900020000.0 0.0 0.0 0.950621568 -0.033246286 0.0 0.0 0.0 0.0
915019500.0 0.0 0.0 0.940451392 -0.03661126 0.0 0.0 0.0 0.0
930019000.0 0.0 0.0 0.934450752 -0.037623668 0.0 0.0 0.0 0.0
945018500.0 0.0 0.0 0.929871232 -0.041566604 0.0 0.0 0.0 0.0
960018000.0 0.0 0.0 0.934560576 -0.04018946 0.0 0.0 0.0 0.0
975017500.0 0.0 0.0 0.929052352 -0.039470148 0.0 0.0 0.0 0.0
990017000.0 0.0 0.0 0.93601632 -0.035242128 0.0 0.0 0.0 0.0
1005016500.0 0.0 0.0 0.935923584 -0.03429456 0.0 0.0 0.0 0.0
1020016000.0 0.0 0.0 0.938711488 -0.030552098 0.0 0.0 0.0 0.0
1035015500.0 0.0 0.0 0.943277568 -0.040438172 0.0 0.0 0.0 0.0
1050015000.0 0.0 0.0 0.93632704 -0.0085626 0.0 0.0 0.0 0.0
1065014500.0 0.0 0.0 0.940492544 -0.047287872 0.0 0.0 0.0 0.0
1080014000.0 0.0 0.0 0.943629952 -0.056525904 0.0 0.0 0.0 0.0
1095013500.0 0.0 0.0 0.933886784 -0.062985116 0.0 0.0 0.0 0.0
1110013000.0 0.0 0.0 0.933607872 -0.067554048 0.0 0.0 0.0 0.0
1125012500.0 0.0 0.0 0.917599552 -0.060636984 0.0 0.0 0.0 0.0
1140012000.0 0.0 0.0 0.906463424 -0.054227048 0.0 0.0 0.0 0.0
1155011500.0 0.0 0.0 0.900048704 -0.029132426 0.0 0.0 0.0 0.0
1170011000.0 0.0 0.0 0.881428352 -0.046864468 0.0 0.0 0.0 0.0
1185010500.0 0.0 0.0 0.88978304 -0.033324864 0.0 0.0 0.0 0.0
1200010000.0 0.0 0.0 0.877685184 -0.024781372 0.0 0.0 0.0 0.0
1215009500.0 0.0 0.0 0.893882176 -0.02037984 0.0 0.0 0.0 0.0
1230009000.0 0.0 0.0 0.899431488 -0.021097032 0.0 0.0 0.0 0.0
1245008500.0 0.0 0.0 0.920907072 0.001820641 0.0 0.0 0.0 0.0
1260008000.0 0.0 0.0 0.927095488 -0.006559091 0.0 0.0 0.0 0.0
1275007500.0 0.0 0.0 0.922996672 -0.012562308 0.0 0.0 0.0 0.0
1290007000.0 0.0 0.0 0.919390976 -0.015083212 0.0 0.0 0.0 0.0
1305006500.0 0.0 0.0 0.923942656 -0.013172662 0.0 0.0 0.0 0.0
1320006000.0 0.0 0.0 0.92518848 -0.021650744 0.0 0.0 0.0 0.0
1335005500.0 0.0 0.0 0.909408896 -0.018130626 0.0 0.0 0.0 0.0
1350005000.0 0.0 0.0 0.916062656 -0.025468352 0.0 0.0 0.0 0.0
1365004500.0 0.0 0.0 0.879939264 -0.007480913 0.0 0.0 0.0 0.0
1380004000.0 0.0 0.0 0.900829824 -0.001066933 0.0 0.0 0.0 0.0
1395003500.0 0.0 0.0 0.896188288 -0.022944486 0.0 0.0 0.0 0.0
1410003000.0 0.0 0.0 0.933548352 0.000238745 0.0 0.0 0.0 0.0
1425002500.0 0.0 0.0 0.915927936 -0.001890631 0.0 0.0 0.0 0.0
1440002000.0 0.0 0.0 0.949477056 -0.033591312 0.0 0.0 0.0 0.0
1455001500.0 0.0 0.0 0.919552128 -0.021003292 0.0 0.0 0.0 0.0
1470001000.0 0.0 0.0 0.91487168 0.027387022 0.0 0.0 0.0 0.0
1485000500.0 0.0 0.0 0.893017664 0.026603476 0.0 0.0 0.0 0.0
1500000000.0 0.0 0.0 0.837836544 0.000853702 0.0 0.0 0.0 0.0
