! Created with skrf 1.8.0 (http://scikit-rf.org).
# Hz S RI R 50.0 
!freq ReS11 ImS11 ReS21 ImS21 ReS12 ImS12 ReS22 ImS22
50000.0 0.999609728 0.001707559 4.1946e-05 -1.6675e-05 0.0 0.0 0.0 0.0
15049500.0 0.977911936 0.220248528 5.3162e-05 5.167e-06 0.0 0.0 0.0 0.0
30049000.0 0.908505984 0.428279488 1.4178e-05 -1.0807e-05 0.0 0.0 0.0 0.0
45048500.0 0.7955312 0.61640224 -2.8461e-05 3.4128e-05 0.0 0.0 0.0 0.0
60048000.0 0.645950464 0.773690048 7.2493e-05 2.8738e-05 0.0 0.0 0.0 0.0
75047500.0 0.466653216 0.897523328 6.4267e-05 3.2137e-05 0.0 0.0 0.0 0.0
90047000.0 0.252836608 0.982823872 3.1239e-05 1.4302e-05 0.0 0.0 0.0 0.0
105046500.0 0.03303476 1.014783144 2.4208e-05 4.5178e-05 0.0 0.0 0.0 0.0
120046000.0 -0.188918096 1.00006187 2.2716e-05 4.2885e-05 0.0 0.0 0.0 0.0
135045500.0 -0.40371296 0.937126144 -1.3813e-05 4.7984e-05 0.0 0.0 0.0 0.0
150045000.0 -0.60184896 0.825311744 -1.5117e-05 9.7688e-05 0.0 0.0 0.0 0.0
165044500.0 -0.770261888 0.672748096 3.173e-06 8.701e-05 0.0 0.0 0.0 0.0
180044000.0 -0.901206464 0.48566992 -1.5696e-05 7.5495e-05 0.0 0.0 0.0 0.0
195043500.0 -0.988274432 0.273860448 -6.5239e-05 4.1122e-05 0.0 0.0 0.0 0.0
210043000.0 -1.026560664 0.045152436 -2.0869e-05 2.4259e-05 0.0 0.0 0.0 0.0
225042500.0 -1.011113048 -0.188246128 -7.4112e-05 9.3727e-05 0.0 0.0 0.0 0.0
240042000.0 -0.941502912 -0.413632416 -8.5924e-05 8.6316e-05 0.0 0.0 0.0 0.0
255041500.0 -0.82155552 -0.618300736 -0.000110076 2.3993e-05 0.0 0.0 0.0 0.0
270041000.0 -0.658385472 -0.788846592 -6.8649e-05 6.6783e-05 0.0 0.0 0.0 0.0
285040500.0 -0.459614688 -0.919504896 -8.1909e-05 3.5254e-05 0.0 0.0 0.0 0.0
300040000.0 -0.23906208 -0.991275136 0.000256129 -0.000571694 0.0 0.0 0.0 0.0
315039500.0 -0.005703542 -1.018427014 -0.000247877 -0.00049657 0.0 0.0 0.0 0.0
330039000.0 0.226660032 -0.992574784 1.2891e-05 0.000319872 0.0 0.0 0.0 0.0
345038500.0 0.447212992 -0.917665856 -0.000119554 0.000350715 0.0 0.0 0.0 0.0
360038000.0 0.644532352 -0.79718304 -0.000242792 0.00037498 0.0 0.0 0.0 0.0
375037500.0 0.807592512 -0.6388192 -0.000401149 -0.000364424 0.0 0.0 0.0 0.0
390037000.0 0.934765696 -0.450682176 0.000116143 8.4902e-05 0.0 0.0 0.0 0.0
405036500.0 1.016049982 -0.239111616 -0.000237046 0.000156502 0.0 0.0 0.0 0.0
420036000.0 1.05614662 -0.01463013 0.000217574 0.000200996 0.0 0.0 0.0 0.0
435035500.0 1.045910956 0.219646416 -0.000100347 -0.00055798 0.0 0.0 0.0 0.0
450035000.0 0.975953152 0.446825024 -0.000204942 -0.000209574 0.0 0.0 0.0 0.0
465034500.0 0.861887872 0.662142208 -0.000434765 -0.000768903 0.0 0.0 0.0 0.0
480034000.0 0.707798464 0.835608768 0.000279655 -0.000707428 0.0 0.0 0.0 0.0
495033500.0 0.515372928 0.96839264 -0.000387175 -0.000654237 0.0 0.0 0.0 0.0
510033000.0 0.298309568 1.052240848 -0.000110337 -0.000948626 0.0 0.0 0.0 0.0
525032500.0 0.077066648 1.089603184 0.000314022 -0.00024834 0.0 0.0 0.0 0.0
540032000.0 -0.146294 1.080317616 0.000394649 -0.000705425 0.0 0.0 0.0 0.0
555031500.0 -0.363188704 1.023261904 0.000364447 -0.000307864 0.0 0.0 0.0 0.0
570031000.0 -0.555297024 0.922966976 0.000342825 -0.000744997 0.0 0.0 0.0 0.0
585030500.0 -0.726933376 0.785929152 0.000911644 -0.000770761 0.0 0.0 0.0 0.0
600030000.0 -0.875269696 0.638294144 0.000698137 -0.001442389 0.0 0.0 0.0 0.0
615029500.0 -0.982883072 0.436404384 -0.00020101 -4.706e-06 0.0 0.0 0.0 0.0
630029000.0 -1.054571748 0.2205964 0.000552268 -0.000359353 0.0 0.0 0.0 0.0
645028500.0 -1.065199376 -0.017539758 0.000630407 -0.000956323 0.0 0.0 0.0 0.0
660028000.0 -1.029983162 -0.25359624 0.000143056 0.0007383 0.0 0.0 0.0 0.0
675027500.0 -0.938789568 -0.474307552 0.000446355 -0.000226967 0.0 0.0 0.0 0.0
690027000.0 -0.796065536 -0.680901184 0.000653715 0.000299161 0.0 0.0 0.0 0.0
705026500.0 -0.612929792 -0.855251904 0.000207156 7.4075e-05 0.0 0.0 0.0 0.0
720026000.0 -0.38523712 -0.981211072 5.9865e-05 0.000428823 0.0 0.0 0.0 0.0
735025500.0 -0.133161232 -1.045654296 0.00055263 0.000917608 0.0 0.0 0.0 0.0
750025000.0 0.13612168 -1.058862448 0.000732901 0.001083874 0.0 0.0 0.0 0.0
765024500.0 0.410250592 -0.993490048 -0.000463473 0.000423252 0.0 0.0 0.0 0.0
780024000.0 0.641930496 -0.835802496 0.000260534 0.000770759 0.0 0.0 0.0 0.0
795023500.0 0.871379712 -0.667391744 -0.000410594 0.001022941 0.0 0.0 0.0 0.0
810023000.0 1.019827128 -0.42729216 -0.001305508 0.000448136 0.0 0.0 0.0 0.0
825022500.0 1.095671296 -0.160725904 -0.001009743 0.000118669 0.0 0.0 0.0 0.0
840022000.0 1.10109532 0.110828536 0.000348095 0.000266207 0.0 0.0 0.0 0.0
855021500.0 1.043926956 0.365620224 -0.001463911 0.000233898 0.0 0.0 0.0 0.0
870021000.0 0.927211136 0.58458528 -0.000185322 -0.000520858 0.0 0.0 0.0 0.0
885020500.0 0.77625184 0.765468416 -0.000904212 -0.000370069 0.0 0.0 0.0 0.0
900020000.0 0.62781632 0.920327552 0.000746206 0.004697405 0.0 0.0 0.0 0.0
915019500.0 0.425211008 1.036847352 -0.000578603 -0.000980564 0.0 0.0 0.0 0.0
930019000.0 0.2266368 1.091451048 -0.001790836 -0.002042225 0.0 0.0 0.0 0.0
945018500.0 0.021518572 1.101699472 -0.002034578 -0.001670667 0.0 0.0 0.0 0.0
960018000.0 -0.172910832 1.089954976 0.000786897 0.001501764 0.0 0.0 0.0 0.0
975017500.0 -0.362481856 1.047162652 0.001048247 0.000832787 0.0 0.0 0.0 0.0
990017000.0 -0.534826272 0.960098048 0.001008705 -0.000999783 0.0 0.0 0.0 0.0
1005016500.0 -0.687778624 0.85499232 0.000424176 0.000773856 0.0 0.0 0.0 0.0
1020016000.0 -0.811960704 0.717325376 0.002227787 -0.000344177 0.0 0.0 0.0 0.0
1035015500.0 -0.95025568 0.568691968 0.001505936 0.001458428 0.0 0.0 0.0 0.0
1050015000.0 -1.030898214 0.370062624 0.001080404 0.00038569 0.0 0.0 0.0 0.0
1065014500.0 -1.098325136 0.188671456 0.001697419 0.004483571 0.0 0.0 0.0 0.0
1080014000.0 -1.109428168 -0.05027564 0.001198861 0.002615782 0.0 0.0 0.0 0.0
1095013500.0 -1.106716992 -0.258601904 0.001734195 0.002926352 0.0 0.0 0.0 0.0
1110013000.0 -1.058614852 -0.484645376 -0.001064378 0.001989705 0.0 0.0 0.0 0.0
1125012500.0 -0.95908352 -0.70587488 -0.000200384 0.000251643 0.0 0.0 0.0 0.0
1140012000.0 -0.774748736 -0.90848064 -0.000730615 0.000386491 0.0 0.0 0.0 0.0
1155011500.0 -0.509376416 -1.091942664 0.001416227 0.001179539 0.0 0.0 0.0 0.0
1170011000.0 -0.296756288 -1.25553096 0.005467 -0.001130104 0.0 0.0 0.0 0.0
1185010500.0 0.042034012 -1.335612192 -0.002109818 0.00161453 0.0 0.0 0.0 0.0
1200010000.0 0.441709312 -1.326490752 -0.000901081 -0.004060495 0.0 0.0 0.0 0.0
1215009500.0 0.871820864 -1.165249344 0.00790374 0.00024508 0.0 0.0 0.0 0.0
1230009000.0 1.25691592 -0.865030528 0.00492416 0.002429949 0.0 0.0 0.0 0.0
1245008500.0 1.450549248 -0.371510624 -0.005717827 0.003622172 0.0 0.0 0.0 0.0
1260008000.0 1.450591072 0.077756992 0.001153476 0.001453535 0.0 0.0 0.0 0.0
1275007500.0 1.255223872 0.471457824 -0.005768705 -0.00407398 0.0 0.0 0.0 0.0
1290007000.0 1.03545308 0.72701952 -0.000357141 0.003141621 0.0 0.0 0.0 0.0
1305006500.0 0.777200768 0.855319424 -0.002569693 0.001981656 0.0 0.0 0.0 0.0
1320006000.0 0.600210944 0.929465792 0.001650031 0.002264314 0.0 0.0 0.0 0.0
1335005500.0 0.422254816 0.976706816 0.001539419 -0.00487475 0.0 0.0 0.0 0.0
1350005000.0 0.297898656 0.992495808 0.000132909 0.006133197 0.0 0.0 0.0 0.0
1365004500.0 0.191069536 1.066743732 0.001732032 0.001805323 0.0 0.0 0.0 0.0
1380004000.0 0.055244296 1.058856128 -0.00483546 0.009795412 0.0 0.0 0.0 0.0
1395003500.0 -0.05961052 1.110835192 0.001323658 0.013615534 0.0 0.0 0.0 0.0
1410003000.0 -0.182243504 1.219355104 0.001046483 0.005306608 0.0 0.0 0.0 0.0
1425002500.0 -0.396903488 1.335563552 -0.006451399 -0.001607609 0.0 0.0 0.0 0.0
1440002000.0 -0.76807616 1.397116544 0.005891755 0.008791902 0.0 0.0 0.0 0.0
1455001500.0 -1.340612064 1.269057984 0.000115192 0.015971512 0.0 0.0 0.0 0.0
1470001000.0 -1.953483136 0.681386944 -0.023548674 -0.002295545 0.0 0.0 0.0 0.0
1485000500.0 -1.747225984 -0.077503208 -0.001953599 -0.00373604 0.0 0.0 0.0 0.0
1500000000.0 -1.39552784 -0.41366752 -0.023338298 0.006110624 0.0 0.0 0.0 0.0
