! Created with skrf 1.8.0 (http://scikit-rf.org).
# Hz S RI R 50.0 
!freq ReS11 ImS11 ReS21 ImS21 ReS12 ImS12 ReS22 ImS22
50000.0 0.998144192 0.002128999 -9.0285e-05 2.5161e-05 0.0 0.0 0.0 0.0
15049500.0 0.977094336 0.220146736 1.5344e-05 -7.11e-07 0.0 0.0 0.0 0.0
30049000.0 0.907764672 0.428091136 1.0299e-05 4.1128e-05 0.0 0.0 0.0 0.0
45048500.0 0.794281728 0.616184064 1.3038e-05 1.491e-06 0.0 0.0 0.0 0.0
60048000.0 0.645245056 0.773266304 4.6046e-05 2.0469e-05 0.0 0.0 0.0 0.0
75047500.0 0.466238848 0.896869632 6.126e-06 4.5252e-05 0.0 0.0 0.0 0.0
90047000.0 0.252652016 0.98236928 -1.7164e-05 9.65e-06 0.0 0.0 0.0 0.0
105046500.0 0.032990526 1.014157892 -2.1135e-05 4.7785e-05 0.0 0.0 0.0 0.0
120046000.0 -0.188738224 0.999081344 -2.72e-05 6.099e-06 0.0 0.0 0.0 0.0
135045500.0 -0.404077408 0.936880768 9.111e-06 8.7663e-05 0.0 0.0 0.0 0.0
150045000.0 -0.601614336 0.824780032 1.6674e-05 7.9195e-05 0.0 0.0 0.0 0.0
165044500.0 -0.7695376 0.672085568 -1.184e-05 7.1486e-05 0.0 0.0 0.0 0.0
180044000.0 -0.900174272 0.4850056 -1.5505e-05 7.7241e-05 0.0 0.0 0.0 0.0
195043500.0 -0.987447232 0.274153568 -5.8693e-05 5.2914e-05 0.0 0.0 0.0 0.0
210043000.0 -1.025687218 0.045387608 -2.4471e-05 8.6194e-05 0.0 0.0 0.0 0.0
225042500.0 -1.009713412 -0.188404848 -6.805e-05 4.7966e-05 0.0 0.0 0.0 0.0
240042000.0 -0.94035008 -0.413279072 -5.1535e-05 4.93e-05 0.0 0.0 0.0 0.0
255041500.0 -0.821483136 -0.617103488 -0.000100738 8.4608e-05 0.0 0.0 0.0 0.0
270041000.0 -0.65774432 -0.78821984 -6.1737e-05 3.8867e-05 0.0 0.0 0.0 0.0
285040500.0 -0.459564128 -0.918718016 -0.000127562 3.0603e-05 0.0 0.0 0.0 0.0
300040000.0 -0.242730848 -0.98864576 -4.786e-06 -0.000445665 0.0 0.0 0.0 0.0
315039500.0 -0.004939755 -1.01819408 -0.000233065 0.000326724 0.0 0.0 0.0 0.0
330039000.0 0.225542768 -0.993168128 -0.000243861 0.000274157 0.0 0.0 0.0 0.0
345038500.0 0.44460896 -0.917734784 -0.000549958 -0.000229463 0.0 0.0 0.0 0.0
360038000.0 0.641320128 -0.797969792 -5.3452e-05 0.000294047 0.0 0.0 0.0 0.0
375037500.0 0.806414976 -0.636443968 -0.000357723 -0.000144154 0.0 0.0 0.0 0.0
390037000.0 0.93476608 -0.447609408 0.000225414 4.4293e-05 0.0 0.0 0.0 0.0
405036500.0 1.014410496 -0.240067056 -0.00010541 -8.7104e-05 0.0 0.0 0.0 0.0
420036000.0 1.05343044 -0.018630342 -0.000248749 -0.000588714 0.0 0.0 0.0 0.0
435035500.0 1.045227168 0.215650416 -0.000139951 -0.00035278 0.0 0.0 0.0 0.0
450035000.0 0.974797952 0.45239664 -0.000512184 2.6625e-05 0.0 0.0 0.0 0.0
465034500.0 0.86430112 0.657735616 -0.000146377 -0.000498763 0.0 0.0 0.0 0.0
480034000.0 0.705774336 0.834711808 3.1771e-05 -0.000267224 0.0 0.0 0.0 0.0
495033500.0 0.516865184 0.967410368 0.000263994 -0.000498669 0.0 0.0 0.0 0.0
510033000.0 0.302232448 1.051296592 0.000104675 -0.000876384 0.0 0.0 0.0 0.0
525032500.0 0.07762452 1.089799408 0.000413974 -0.000853712 0.0 0.0 0.0 0.0
540032000.0 -0.144843872 1.080499648 -9.278e-05 -0.000665358 0.0 0.0 0.0 0.0
555031500.0 -0.360242464 1.024315596 0.000371337 -0.000187356 0.0 0.0 0.0 0.0
570031000.0 -0.552772608 0.923501248 -0.000411495 -0.000260824 0.0 0.0 0.0 0.0
585030500.0 -0.724113472 0.789902592 0.000367978 -6.845e-05 0.0 0.0 0.0 0.0
600030000.0 -0.8768832 0.639085952 0.000973779 -0.00131438 0.0 0.0 0.0 0.0
615029500.0 -0.98314752 0.441506176 0.000134051 -0.00078533 0.0 0.0 0.0 0.0
630029000.0 -1.047737956 0.217359056 0.001064199 -0.000429411 0.0 0.0 0.0 0.0
645028500.0 -1.066024424 -0.014671762 0.000665988 -0.000451526 0.0 0.0 0.0 0.0
660028000.0 -1.033147574 -0.254286352 0.001051464 -0.000470477 0.0 0.0 0.0 0.0
675027500.0 -0.942525312 -0.477593632 0.000557718 -0.000656661 0.0 0.0 0.0 0.0
690027000.0 -0.79766848 -0.684417088 0.000830373 0.000836845 0.0 0.0 0.0 0.0
705026500.0 -0.614354496 -0.849956032 0.000563189 0.00018281 0.0 0.0 0.0 0.0
720026000.0 -0.386542592 -0.978782912 0.000698182 0.000862764 0.0 0.0 0.0 0.0
735025500.0 -0.134343808 -1.042324068 4.4796e-05 0.000649485 0.0 0.0 0.0 0.0
750025000.0 0.139929952 -1.053344368 -7.5065e-05 0.001262821 0.0 0.0 0.0 0.0
765024500.0 0.410712096 -0.991166144 -7.0635e-05 0.000807835 0.0 0.0 0.0 0.0
780024000.0 0.654533952 -0.903898432 -0.000554927 0.000716823 0.0 0.0 0.0 0.0
795023500.0 0.865037248 -0.666141824 -0.000721669 0.000105172 0.0 0.0 0.0 0.0
810023000.0 1.02225995 -0.41915808 -0.000572956 0.000595428 0.0 0.0 0.0 0.0
825022500.0 1.09979808 -0.158042496 -0.001306546 -7.6523e-05 0.0 0.0 0.0 0.0
840022000.0 1.098971248 0.113186552 -0.000451775 -6.2344e-05 0.0 0.0 0.0 0.0
855021500.0 1.03944516 0.371765952 0.000237591 0.000156275 0.0 0.0 0.0 0.0
870021000.0 0.929510976 0.584103488 -0.001114625 -0.000444385 0.0 0.0 0.0 0.0
885020500.0 0.776464064 0.764718208 -0.001107581 -4.7007e-05 0.0 0.0 0.0 0.0
900020000.0 0.617757888 0.919281728 0.001334675 0.002388695 0.0 0.0 0.0 0.0
915019500.0 0.43065936 1.031401396 -0.000275348 -0.002014876 0.0 0.0 0.0 0.0
930019000.0 0.225121088 1.085733176 0.000232211 -0.000363655 0.0 0.0 0.0 0.0
945018500.0 0.019047706 1.105583784 -0.000975858 -0.001517545 0.0 0.0 0.0 0.0
960018000.0 -0.178011264 1.090292576 0.000640386 -0.001024882 0.0 0.0 0.0 0.0
975017500.0 -0.365520128 1.024873376 -0.000595454 0.001250882 0.0 0.0 0.0 0.0
990017000.0 -0.5371456 0.965458176 0.001912872 -0.002601503 0.0 0.0 0.0 0.0
1005016500.0 -0.690838592 0.85486432 -0.000661089 0.000968798 0.0 0.0 0.0 0.0
1020016000.0 -0.821578368 0.71093344 -0.001254802 0.000785393 0.0 0.0 0.0 0.0
1035015500.0 -0.951451264 0.564010816 -0.000171769 0.001065565 0.0 0.0 0.0 0.0
1050015000.0 -1.074261072 0.377883392 0.000577718 0.003218168 0.0 0.0 0.0 0.0
1065014500.0 -1.11003172 0.177913152 0.004709522 -0.001232261 0.0 0.0 0.0 0.0
1080014000.0 -1.125804664 -0.046809096 0.004544231 0.000834254 0.0 0.0 0.0 0.0
1095013500.0 -1.120293616 -0.259612288 0.003860562 0.001054149 0.0 0.0 0.0 0.0
1110013000.0 -1.065986632 -0.491423264 -0.002559519 -0.001621358 0.0 0.0 0.0 0.0
1125012500.0 -0.953174592 -0.71466944 0.00508584 -0.001624835 0.0 0.0 0.0 0.0
1140012000.0 -0.79010048 -0.906703232 0.000682043 0.000583054 0.0 0.0 0.0 0.0
1155011500.0 -0.6092592 -1.108816624 -0.002060694 -0.000789204 0.0 0.0 0.0 0.0
1170011000.0 -0.305617376 -1.228731152 0.002106049 0.004417281 0.0 0.0 0.0 0.0
1185010500.0 0.053831912 -1.351658816 0.000487516 -0.001939739 0.0 0.0 0.0 0.0
1200010000.0 0.440022272 -1.342583776 -0.002673432 0.00266764 0.0 0.0 0.0 0.0
1215009500.0 0.877296768 -1.1809988 -0.000384382 -0.000656522 0.0 0.0 0.0 0.0
1230009000.0 1.251101136 -0.872128448 0.007914788 0.004814419 0.0 0.0 0.0 0.0
1245008500.0 1.441042784 -0.382106112 0.00443495 0.000986547 0.0 0.0 0.0 0.0
1260008000.0 1.452780256 0.123214024 -0.000867828 -0.00448286 0.0 0.0 0.0 0.0
1275007500.0 1.281912096 0.483422624 0.010805158 0.002373362 0.0 0.0 0.0 0.0
1290007000.0 1.029462338 0.732862592 -0.00242714 0.003113834 0.0 0.0 0.0 0.0
1305006500.0 0.792643072 0.85555808 0.001418559 -0.006028737 0.0 0.0 0.0 0.0
1320006000.0 0.59454528 0.939568768 0.003657356 0.000344483 0.0 0.0 0.0 0.0
1335005500.0 0.422634784 0.963454208 -0.000601595 -0.004952957 0.0 0.0 0.0 0.0
1350005000.0 0.277095968 1.001427889 0.000486566 0.000758348 0.0 0.0 0.0 0.0
1365004500.0 0.12821928 1.003886342 -0.001294697 0.000237321 0.0 0.0 0.0 0.0
1380004000.0 0.04654938 1.08053756 -0.004675055 0.001049789 0.0 0.0 0.0 0.0
1395003500.0 -0.057305828 1.125800848 -7.7539e-05 -0.005878317 0.0 0.0 0.0 0.0
1410003000.0 -0.186810864 1.215195184 0.011317862 0.000865773 0.0 0.0 0.0 0.0
1425002500.0 -0.408826528 1.309732448 0.010699456 -0.003156169 0.0 0.0 0.0 0.0
1440002000.0 -0.781577856 1.421400064 -0.006025533 0.019488222 0.0 0.0 0.0 0.0
1455001500.0 -1.370488896 1.278930176 -0.007405801 -0.000489531 0.0 0.0 0.0 0.0
1470001000.0 -1.914789312 0.659305664 -0.013094346 -0.001878865 0.0 0.0 0.0 0.0
1485000500.0 -1.700501312 -0.08414728 -0.021001324 0.004166107 0.0 0.0 0.0 0.0
1500000000.0 -1.342773664 -0.413269728 -0.005925769 0.007987172 0.0 0.0 0.0 0.0
