! Created with skrf 1.8.0 (http://scikit-rf.org).
# Hz S RI R 50.0 
!freq ReS11 ImS11 ReS21 ImS21 ReS12 ImS12 ReS22 ImS22
50000.0 0.999000256 0.001799278 6.8693e-05 -3.288e-05 0.0 0.0 0.0 0.0
15049500.0 0.977110656 0.220337344 2.5865e-05 -7.854e-06 0.0 0.0 0.0 0.0
30049000.0 0.907779776 0.427853152 1.958e-05 5.3081e-05 0.0 0.0 0.0 0.0
45048500.0 0.794854656 0.616113472 8.768e-06 3.246e-06 0.0 0.0 0.0 0.0
60048000.0 0.645661376 0.772912576 1.9905e-05 5.1709e-05 0.0 0.0 0.0 0.0
75047500.0 0.466482336 0.896769856 4.4587e-05 5.5708e-05 0.0 0.0 0.0 0.0
90047000.0 0.252671456 0.982126528 -6.2329e-05 7.3123e-05 0.0 0.0 0.0 0.0
105046500.0 0.033063714 1.014023424 -3.3038e-05 5.8021e-05 0.0 0.0 0.0 0.0
120046000.0 -0.188359216 0.998860992 8.884e-06 5.4565e-05 0.0 0.0 0.0 0.0
135045500.0 -0.403420416 0.934931136 1.0054e-05 7.3435e-05 0.0 0.0 0.0 0.0
150045000.0 -0.60097088 0.825182784 7.4e-06 0.000113636 0.0 0.0 0.0 0.0
165044500.0 -0.769393152 0.672308864 3.8677e-05 6.9263e-05 0.0 0.0 0.0 0.0
180044000.0 -0.900231808 0.485539712 -8.348e-06 4.4214e-05 0.0 0.0 0.0 0.0
195043500.0 -0.987350784 0.273887456 -1.9387e-05 2.8027e-05 0.0 0.0 0.0 0.0
210043000.0 -1.024666548 0.046521676 -2.1125e-05 4.7674e-05 0.0 0.0 0.0 0.0
225042500.0 -1.00973189 -0.186799136 -3.012e-06 4.0451e-05 0.0 0.0 0.0 0.0
240042000.0 -0.94048448 -0.412630816 -4.8019e-05 3.2835e-05 0.0 0.0 0.0 0.0
255041500.0 -0.821763712 -0.616021824 -7.1442e-05 3.6953e-05 0.0 0.0 0.0 0.0
270041000.0 -0.658269888 -0.787416704 -7.8627e-05 5.6328e-05 0.0 0.0 0.0 0.0
285040500.0 -0.460647104 -0.918439424 -6.9377e-05 4.9671e-05 0.0 0.0 0.0 0.0
300040000.0 -0.241860112 -0.98807808 -0.000528634 0.000247398 0.0 0.0 0.0 0.0
315039500.0 -0.008761584 -1.017191768 -0.000106835 0.00019525 0.0 0.0 0.0 0.0
330039000.0 0.225469328 -0.99301472 -4.5462e-05 -0.000189488 0.0 0.0 0.0 0.0
345038500.0 0.44648992 -0.91637856 0.000101976 0.00020677 0.0 0.0 0.0 0.0
360038000.0 0.642260352 -0.796908736 -5.869e-05 -0.000120696 0.0 0.0 0.0 0.0
375037500.0 0.805734528 -0.638749632 8.256e-05 -0.000134733 0.0 0.0 0.0 0.0
390037000.0 0.931430784 -0.457493568 -0.000637938 0.000379078 0.0 0.0 0.0 0.0
405036500.0 1.014467956 -0.241114544 -0.000196795 -0.000244248 0.0 0.0 0.0 0.0
420036000.0 1.054182528 -0.018864916 -0.000453394 -0.000185702 0.0 0.0 0.0 0.0
435035500.0 1.044906616 0.218514976 -7.8545e-05 -0.000566313 0.0 0.0 0.0 0.0
450035000.0 0.984796736 0.455801344 0.000152299 -0.000522788 0.0 0.0 0.0 0.0
465034500.0 0.863791872 0.657276864 -0.000124056 -0.000556612 0.0 0.0 0.0 0.0
480034000.0 0.705326144 0.832769664 -0.000291165 -0.000995231 0.0 0.0 0.0 0.0
495033500.0 0.513585856 0.962745664 3.7106e-05 -0.000904437 0.0 0.0 0.0 0.0
510033000.0 0.302091328 1.051098824 -0.000203774 -0.000857064 0.0 0.0 0.0 0.0
525032500.0 0.078652816 1.087403176 -0.000831967 -0.000239085 0.0 0.0 0.0 0.0
540032000.0 -0.145015792 1.07785976 8.8611e-05 -0.000660195 0.0 0.0 0.0 0.0
555031500.0 -0.35872272 1.022868394 0.000833639 -0.00032185 0.0 0.0 0.0 0.0
570031000.0 -0.55054592 0.922039232 -0.00023567 -0.000606008 0.0 0.0 0.0 0.0
585030500.0 -0.728973376 0.785929024 0.000372631 0.000237752 0.0 0.0 0.0 0.0
600030000.0 -0.871831872 0.639548736 -0.000426494 -0.000290057 0.0 0.0 0.0 0.0
615029500.0 -0.980513024 0.440636096 0.000696511 -0.000130012 0.0 0.0 0.0 0.0
630029000.0 -1.051736476 0.21971792 0.000471198 -0.000516461 0.0 0.0 0.0 0.0
645028500.0 -1.064171912 -0.015440228 0.00095762 -0.000339355 0.0 0.0 0.0 0.0
660028000.0 -1.031067968 -0.249335328 0.000750652 -0.00037325 0.0 0.0 0.0 0.0
675027500.0 -0.942461056 -0.477720096 0.001398298 -0.000195809 0.0 0.0 0.0 0.0
690027000.0 -0.796667072 -0.681810944 0.000249808 0.000389586 0.0 0.0 0.0 0.0
705026500.0 -0.615465472 -0.850240768 0.000746235 0.000978673 0.0 0.0 0.0 0.0
720026000.0 -0.384921984 -0.980715904 0.000867678 -0.000137942 0.0 0.0 0.0 0.0
735025500.0 -0.134304832 -1.0447495 -4.2494e-05 0.000830894 0.0 0.0 0.0 0.0
750025000.0 0.134353168 -1.050349592 0.000117184 0.000611967 0.0 0.0 0.0 0.0
765024500.0 0.406964 -0.986972864 5.754e-06 0.000897858 0.0 0.0 0.0 0.0
780024000.0 0.68665728 -0.877533696 -5.4015e-05 0.001242169 0.0 0.0 0.0 0.0
795023500.0 0.864973952 -0.667092224 -0.000677096 0.000729572 0.0 0.0 0.0 0.0
810023000.0 1.020872354 -0.425479712 -0.001689694 4.2165e-05 0.0 0.0 0.0 0.0
825022500.0 1.092045184 -0.157650976 -0.00058869 -0.00057918 0.0 0.0 0.0 0.0
840022000.0 1.10585916 0.113156616 -0.000775227 0.000870563 0.0 0.0 0.0 0.0
855021500.0 1.042605876 0.368603072 -0.000910711 0.00028967 0.0 0.0 0.0 0.0
870021000.0 0.921281088 0.58589408 -0.000363642 -0.000207693 0.0 0.0 0.0 0.0
885020500.0 0.773191104 0.75828576 -0.000777149 8.4834e-05 0.0 0.0 0.0 0.0
900020000.0 0.620575744 0.929152896 -0.002088964 0.002431328 0.0 0.0 0.0 0.0
915019500.0 0.429764416 1.030009032 0.001284535 -0.002546678 0.0 0.0 0.0 0.0
930019000.0 0.221205136 1.087133768 -0.000803269 0.000306915 0.0 0.0 0.0 0.0
945018500.0 0.015951074 1.109714624 -0.000566591 -6.214e-06 0.0 0.0 0.0 0.0
960018000.0 -0.182855952 1.087448832 -0.001729782 0.001780229 0.0 0.0 0.0 0.0
975017500.0 -0.371519744 1.044981956 0.001322159 -0.000496689 0.0 0.0 0.0 0.0
990017000.0 -0.537018112 0.957204992 0.004765921 -0.004182723 0.0 0.0 0.0 0.0
1005016500.0 -0.690368256 0.86078336 0.001030658 0.000804895 0.0 0.0 0.0 0.0
1020016000.0 -0.825805632 0.714293888 0.002672931 0.002738212 0.0 0.0 0.0 0.0
1035015500.0 -0.957904704 0.567291456 0.004289558 -0.00153691 0.0 0.0 0.0 0.0
1050015000.0 -1.034812452 0.382138432 -0.000265681 -6.0333e-05 0.0 0.0 0.0 0.0
1065014500.0 -1.113801 0.187786896 0.003477826 0.000323103 0.0 0.0 0.0 0.0
1080014000.0 -1.134305008 -0.036877084 -0.002718805 -0.000513706 0.0 0.0 0.0 0.0
1095013500.0 -1.12107432 -0.267037808 -0.000432994 -0.000681349 0.0 0.0 0.0 0.0
1110013000.0 -1.062126756 -0.488292736 0.002834608 -0.001893284 0.0 0.0 0.0 0.0
1125012500.0 -0.958432256 -0.710801792 -0.000528894 -0.003681008 0.0 0.0 0.0 0.0
1140012000.0 -0.792652736 -0.909333696 -0.00390028 0.000675742 0.0 0.0 0.0 0.0
1155011500.0 -0.572304576 -1.075691104 -0.003223361 0.002000081 0.0 0.0 0.0 0.0
1170011000.0 -0.293329088 -1.277195808 -0.003389923 -0.005840036 0.0 0.0 0.0 0.0
1185010500.0 0.04787368 -1.3508848 0.001918102 -0.002129591 0.0 0.0 0.0 0.0
1200010000.0 0.44132016 -1.359808192 -0.005591109 0.004058603 0.0 0.0 0.0 0.0
1215009500.0 0.855450176 -1.214681152 -0.004506524 -0.005755677 0.0 0.0 0.0 0.0
1230009000.0 1.25966072 -0.886693632 0.004103802 0.006880588 0.0 0.0 0.0 0.0
1245008500.0 1.481178656 -0.406687392 0.009316688 -0.004684946 0.0 0.0 0.0 0.0
1260008000.0 1.453073632 0.120491784 0.004873753 -0.004564135 0.0 0.0 0.0 0.0
1275007500.0 1.270469056 0.495388704 0.008244013 -0.006846005 0.0 0.0 0.0 0.0
1290007000.0 1.038680316 0.710780416 -0.002946093 0.00266972 0.0 0.0 0.0 0.0
1305006500.0 0.794041536 0.854189248 -0.003130791 0.005954302 0.0 0.0 0.0 0.0
1320006000.0 0.617019904 0.958468992 0.009450952 0.002452188 0.0 0.0 0.0 0.0
1335005500.0 0.435326048 0.976031296 0.004188261 0.007095198 0.0 0.0 0.0 0.0
1350005000.0 0.308275232 1.003496289 -0.002196464 0.004277895 0.0 0.0 0.0 0.0
1365004500.0 0.16303408 1.01109934 -0.00415344 0.002011823 0.0 0.0 0.0 0.0
1380004000.0 0.081286784 1.067482592 0.006406356 -0.00301556 0.0 0.0 0.0 0.0
1395003500.0 -0.051007792 1.123681072 -0.000345848 0.002162616 0.0 0.0 0.0 0.0
1410003000.0 -0.170263024 1.222140192 -0.002019805 0.01090268 0.0 0.0 0.0 0.0
1425002500.0 -0.393247232 1.344570528 -0.00593052 0.000664068 0.0 0.0 0.0 0.0
1440002000.0 -0.821751168 1.399876832 0.00020952 0.010429202 0.0 0.0 0.0 0.0
1455001500.0 -1.362504608 1.333851104 -0.01451941 -0.006643627 0.0 0.0 0.0 0.0
1470001000.0 -1.957426048 0.64063392 -0.012128716 0.009425242 0.0 0.0 0.0 0.0
1485000500.0 -1.742802048 -0.0797398 -0.009546768 0.003717645 0.0 0.0 0.0 0.0
1500000000.0 -1.405589344 -0.357496736 -0.011689276 -0.009502174 0.0 0.0 0.0 0.0
