! Created with skrf 1.8.0 (http://scikit-rf.org).
# Hz S RI R 50.0 
!freq ReS11 ImS11 ReS21 ImS21 ReS12 ImS12 ReS22 ImS22
50000.0 0.997871296 0.000784279 1.2192e-05 0.000107173 0.0 0.0 0.0 0.0
15049500.0 0.976484224 0.219876784 1.3948e-05 5.9048e-05 0.0 0.0 0.0 0.0
30049000.0 0.906748992 0.4275656 -2.3997e-05 5.1418e-05 0.0 0.0 0.0 0.0
45048500.0 0.793654336 0.615572032 2.4201e-05 1.7289e-05 0.0 0.0 0.0 0.0
60048000.0 0.644509568 0.77232768 4.851e-05 3.2919e-05 0.0 0.0 0.0 0.0
75047500.0 0.465615232 0.89561536 5.9014e-05 6.2265e-05 0.0 0.0 0.0 0.0
90047000.0 0.25273144 0.98079232 -9.273e-06 4.5884e-05 0.0 0.0 0.0 0.0
105046500.0 0.032763836 1.012736798 1.3487e-05 6.0796e-05 0.0 0.0 0.0 0.0
120046000.0 -0.188286944 0.997448896 5.57e-07 4.307e-06 0.0 0.0 0.0 0.0
135045500.0 -0.403970208 0.93483648 -1.533e-06 0.000115242 0.0 0.0 0.0 0.0
150045000.0 -0.600514368 0.823628416 -1.4562e-05 8.8149e-05 0.0 0.0 0.0 0.0
165044500.0 -0.768461184 0.67113152 1.304e-06 9.147e-05 0.0 0.0 0.0 0.0
180044000.0 -0.898462848 0.48438048 2.7933e-05 -1.605e-06 0.0 0.0 0.0 0.0
195043500.0 -0.985791872 0.27373952 -7.062e-05 6.6541e-05 0.0 0.0 0.0 0.0
210043000.0 -1.023678184 0.04605644 -6.8549e-05 9.2775e-05 0.0 0.0 0.0 0.0
225042500.0 -1.00838995 -0.187154832 -0.000101838 3.5565e-05 0.0 0.0 0.0 0.0
240042000.0 -0.939211968 -0.41214192 -4.0898e-05 5.0187e-05 0.0 0.0 0.0 0.0
255041500.0 -0.820602112 -0.616259712 -8.8424e-05 -3.44e-06 0.0 0.0 0.0 0.0
270041000.0 -0.656777408 -0.787211264 -5.1965e-05 2.8903e-05 0.0 0.0 0.0 0.0
285040500.0 -0.457806208 -0.916132096 -9.6526e-05 2.0089e-05 0.0 0.0 0.0 0.0
300040000.0 -0.239681488 -0.986199872 7.1302e-05 -4.4967e-05 0.0 0.0 0.0 0.0
315039500.0 -0.007159487 -1.014157654 -0.000422519 0.000210092 0.0 0.0 0.0 0.0
330039000.0 0.224441968 -0.992695808 0.000107158 0.000134253 0.0 0.0 0.0 0.0
345038500.0 0.445298944 -0.916297152 0.000579101 -7.0789e-05 0.0 0.0 0.0 0.0
360038000.0 0.64390976 -0.79423904 -0.000496606 8.6885e-05 0.0 0.0 0.0 0.0
375037500.0 0.804793792 -0.63478976 7.4377e-05 -0.000928961 0.0 0.0 0.0 0.0
390037000.0 0.933847104 -0.458175488 -0.000328269 -0.000564934 0.0 0.0 0.0 0.0
405036500.0 1.010718942 -0.238924096 -0.000487873 0.00032897 0.0 0.0 0.0 0.0
420036000.0 1.054172396 -0.018866546 -0.000427577 -0.0003825 0.0 0.0 0.0 0.0
435035500.0 1.042585968 0.216466896 -0.000543203 -0.000626982 0.0 0.0 0.0 0.0
450035000.0 0.973511296 0.448426272 0.000250504 -0.000665266 0.0 0.0 0.0 0.0
465034500.0 0.859838784 0.656530816 -0.000411182 -0.001205197 0.0 0.0 0.0 0.0
480034000.0 0.70574944 0.832272128 0.000562493 -0.000530325 0.0 0.0 0.0 0.0
495033500.0 0.513873408 0.96227648 -0.000252838 -0.000435279 0.0 0.0 0.0 0.0
510033000.0 0.300121472 1.048793792 4.5618e-05 -0.000835883 0.0 0.0 0.0 0.0
525032500.0 0.076757344 1.08794212 0.000199735 -0.000435417 0.0 0.0 0.0 0.0
540032000.0 -0.143750864 1.076735016 0.000614241 -0.000801368 0.0 0.0 0.0 0.0
555031500.0 -0.358958368 1.018445134 0.000156704 -0.000926688 0.0 0.0 0.0 0.0
570031000.0 -0.556921664 0.923288832 0.000443941 -0.001210299 0.0 0.0 0.0 0.0
585030500.0 -0.725771008 0.783710272 0.000420948 -0.000548756 0.0 0.0 0.0 0.0
600030000.0 -0.872162944 0.638949504 3.3135e-05 -6.7973e-05 0.0 0.0 0.0 0.0
615029500.0 -0.980884096 0.4362776 0.000886685 -6.0488e-05 0.0 0.0 0.0 0.0
630029000.0 -1.042556168 0.215132656 0.000308137 0.000606247 0.0 0.0 0.0 0.0
645028500.0 -1.0661819 -0.0136841 0.000849209 0.000293622 0.0 0.0 0.0 0.0
660028000.0 -1.029864072 -0.251359824 0.000670596 -0.00014773 0.0 0.0 0.0 0.0
675027500.0 -0.935934272 -0.478351488 0.00071816 -2.5176e-05 0.0 0.0 0.0 0.0
690027000.0 -0.794787392 -0.684790016 0.000675286 0.00014731 0.0 0.0 0.0 0.0
705026500.0 -0.608791872 -0.846924992 0.001458476 0.000289273 0.0 0.0 0.0 0.0
720026000.0 -0.38446576 -0.968433792 0.000929242 0.000860833 0.0 0.0 0.0 0.0
735025500.0 -0.13319224 -1.039680956 0.000734427 0.000596627 0.0 0.0 0.0 0.0
750025000.0 0.135976288 -1.046663164 0.000201786 0.000544666 0.0 0.0 0.0 0.0
765024500.0 0.409143168 -0.983531712 -4.8298e-05 0.000430207 0.0 0.0 0.0 0.0
780024000.0 0.675306496 -0.8280832 -0.0003117 0.000903375 0.0 0.0 0.0 0.0
795023500.0 0.865490112 -0.66183872 0.000488288 0.000915827 0.0 0.0 0.0 0.0
810023000.0 1.018887162 -0.416803584 -0.000186879 0.001039045 0.0 0.0 0.0 0.0
825022500.0 1.092282416 -0.151056304 -0.00091956 0.000644595 0.0 0.0 0.0 0.0
840022000.0 1.107120512 0.12372508 0.000237741 0.000616607 0.0 0.0 0.0 0.0
855021500.0 1.040606976 0.37313856 -0.00032896 1.4297e-05 0.0 0.0 0.0 0.0
870021000.0 0.915163712 0.57956192 -0.001330236 -0.000596958 0.0 0.0 0.0 0.0
885020500.0 0.770979456 0.765923968 -0.000708619 5.3171e-05 0.0 0.0 0.0 0.0
900020000.0 0.614347968 0.926204352 -0.002868541 -0.001338187 0.0 0.0 0.0 0.0
915019500.0 0.422563712 1.035014512 -0.000734367 0.000637932 0.0 0.0 0.0 0.0
930019000.0 0.214175504 1.084625248 -0.002227659 -0.001549205 0.0 0.0 0.0 0.0
945018500.0 0.012500648 1.10888016 -0.000145404 -0.000361163 0.0 0.0 0.0 0.0
960018000.0 -0.181829968 1.095581648 -0.00128715 -0.000194916 0.0 0.0 0.0 0.0
975017500.0 -0.359275968 1.042734744 0.000105595 -0.00192272 0.0 0.0 0.0 0.0
990017000.0 -0.54141632 0.965695104 0.001400278 0.00116309 0.0 0.0 0.0 0.0
1005016500.0 -0.695239872 0.84715296 0.001572006 -0.000272482 0.0 0.0 0.0 0.0
1020016000.0 -0.83559072 0.725805952 -0.000347992 0.001804337 0.0 0.0 0.0 0.0
1035015500.0 -0.954705088 0.56034368 0.004882708 0.002703955 0.0 0.0 0.0 0.0
1050015000.0 -1.063631652 0.36433632 0.001727003 -0.002461926 0.0 0.0 0.0 0.0
1065014500.0 -1.110963704 0.172466576 0.003624899 0.00130265 0.0 0.0 0.0 0.0
1080014000.0 -1.139890432 -0.043224144 0.002059916 0.000234584 0.0 0.0 0.0 0.0
1095013500.0 -1.119604352 -0.267425776 0.000252732 -0.001150651 0.0 0.0 0.0 0.0
1110013000.0 -1.052892088 -0.490326144 0.005161499 -0.002152197 0.0 0.0 0.0 0.0
1125012500.0 -0.950337792 -0.731843328 0.003383403 0.002092863 0.0 0.0 0.0 0.0
1140012000.0 -0.793457472 -0.91926144 0.001212603 0.004233072 0.0 0.0 0.0 0.0
1155011500.0 -0.528832544 -1.128181936 -0.003089816 0.000470994 0.0 0.0 0.0 0.0
1170011000.0 -0.301347168 -1.242593056 -0.001316274 0.005231304 0.0 0.0 0.0 0.0
1185010500.0 0.04913056 -1.368370304 0.003713643 0.003046873 0.0 0.0 0.0 0.0
1200010000.0 0.449766144 -1.353379008 0.004476157 0.003321818 0.0 0.0 0.0 0.0
1215009500.0 0.84956096 -1.19424928 -0.001820187 0.003168174 0.0 0.0 0.0 0.0
1230009000.0 1.270308608 -0.869138752 -0.001575369 0.004104645 0.0 0.0 0.0 0.0
1245008500.0 1.4595288 -0.404329056 -0.003091614 0.003973775 0.0 0.0 0.0 0.0
1260008000.0 1.484378688 0.086491072 -0.006546134 0.004789685 0.0 0.0 0.0 0.0
1275007500.0 1.288025728 0.459904768 0.005761959 -0.003847359 0.0 0.0 0.0 0.0
1290007000.0 1.014497876 0.724862912 0.001271753 0.002042397 0.0 0.0 0.0 0.0
1305006500.0 0.80510816 0.872149056 -0.005556037 -0.000283981 0.0 0.0 0.0 0.0
1320006000.0 0.58714176 0.95095584 0.002179336 -0.005409184 0.0 0.0 0.0 0.0
1335005500.0 0.438431616 0.995805248 0.001629317 0.003857776 0.0 0.0 0.0 0.0
1350005000.0 0.311822848 1.006189347 -0.004710567 -0.005259151 0.0 0.0 0.0 0.0
1365004500.0 0.155137136 1.073500872 0.0022631 -0.002697162 0.0 0.0 0.0 0.0
1380004000.0 0.078378312 1.077239512 -0.00839604 0.008368552 0.0 0.0 0.0 0.0
1395003500.0 -0.045158136 1.138742208 0.000812102 -0.003802386 0.0 0.0 0.0 0.0
1410003000.0 -0.193180688 1.236226672 0.005589187 0.00131428 0.0 0.0 0.0 0.0
1425002500.0 -0.426206624 1.336382016 -0.002089219 0.006646696 0.0 0.0 0.0 0.0
1440002000.0 -0.748121856 1.434850816 0.000594381 0.006258447 0.0 0.0 0.0 0.0
1455001500.0 -1.370076544 1.310366048 -0.021040124 0.023297098 0.0 0.0 0.0 0.0
1470001000.0 -1.82151616 0.673904576 -0.00949173 -0.005139771 0.0 0.0 0.0 0.0
1485000500.0 -1.770088064 -0.105853128 0.004820644 0.006196174 0.0 0.0 0.0 0.0
1500000000.0 -1.384034528 -0.391544576 -0.010464396 0.005078917 0.0 0.0 0.0 0.0
