! Created with skrf 1.8.0 (http://scikit-rf.org).
# Hz S RI R 50.0 
!freq ReS11 ImS11 ReS21 ImS21 ReS12 ImS12 ReS22 ImS22
50000.0 0.999294912 0.001208037 0.000163004 -1.2565e-05 0.0 0.0 0.0 0.0
15049500.0 1.000969052 0.023950772 4.7773e-05 6.76e-05 0.0 0.0 0.0 0.0
30049000.0 1.001455426 0.047016236 3.6198e-05 1.0249e-05 0.0 0.0 0.0 0.0
45048500.0 1.001009584 0.069136832 2.5191e-05 7.276e-06 0.0 0.0 0.0 0.0
60048000.0 0.999952064 0.09034424 5.8849e-05 2.0409e-05 0.0 0.0 0.0 0.0
75047500.0 0.99795008 0.11155536 6.0133e-05 9.872e-06 0.0 0.0 0.0 0.0
90047000.0 0.994172352 0.13237704 -9.685e-06 6.4278e-05 0.0 0.0 0.0 0.0
105046500.0 0.99150112 0.151083696 -1.2574e-05 1.1535e-05 0.0 0.0 0.0 0.0
120046000.0 0.98849824 0.169940736 2.225e-05 8.8506e-05 0.0 0.0 0.0 0.0
135045500.0 0.986154688 0.188650688 7.1646e-05 6.2069e-05 0.0 0.0 0.0 0.0
150045000.0 0.980560064 0.206299024 2.8624e-05 7.7249e-05 0.0 0.0 0.0 0.0
165044500.0 0.976615616 0.22414304 5.2248e-05 8.4513e-05 0.0 0.0 0.0 0.0
180044000.0 0.971986176 0.241697024 5.8e-07 1.8998e-05 0.0 0.0 0.0 0.0
195043500.0 0.96703008 0.259345056 3.7211e-05 7.0495e-05 0.0 0.0 0.0 0.0
210043000.0 0.962526144 0.277083232 -3.563e-06 4.9506e-05 0.0 0.0 0.0 0.0
225042500.0 0.958265536 0.295139264 1.599e-06 7.6622e-05 0.0 0.0 0.0 0.0
240042000.0 0.953746496 0.31468432 7.5e-06 6.2488e-05 0.0 0.0 0.0 0.0
255041500.0 0.948271936 0.33485696 2.5026e-05 3.308e-05 0.0 0.0 0.0 0.0
270041000.0 0.942802432 0.355400544 9.078e-06 8.5104e-05 0.0 0.0 0.0 0.0
285040500.0 0.93695968 0.375941952 1.1958e-05 0.000108854 0.0 0.0 0.0 0.0
300040000.0 0.931556224 0.398292096 0.000449831 0.00015717 0.0 0.0 0.0 0.0
315039500.0 0.926795264 0.421211776 0.000346141 0.000110328 0.0 0.0 0.0 0.0
330039000.0 0.920858176 0.447834944 0.000213786 -2.51e-07 0.0 0.0 0.0 0.0
345038500.0 0.913156352 0.469129568 -0.000332965 -6.2189e-05 0.0 0.0 0.0 0.0
360038000.0 0.90672736 0.49120224 0.000202272 -0.000152721 0.0 0.0 0.0 0.0
375037500.0 0.897994304 0.515569984 -4.2623e-05 7.273e-05 0.0 0.0 0.0 0.0
390037000.0 0.892147648 0.537816576 -0.000630153 -9.571e-05 0.0 0.0 0.0 0.0
405036500.0 0.880413248 0.562820544 0.000235715 -0.00054034 0.0 0.0 0.0 0.0
420036000.0 0.868280064 0.588445248 -1.0219e-05 -0.000848409 0.0 0.0 0.0 0.0
435035500.0 0.857437568 0.609340672 0.000155692 -0.000340217 0.0 0.0 0.0 0.0
450035000.0 0.846050816 0.639772224 -0.00012906 -0.000216906 0.0 0.0 0.0 0.0
465034500.0 0.833225024 0.653297472 0.000103522 -0.000503733 0.0 0.0 0.0 0.0
480034000.0 0.819293184 0.669088512 -8.7943e-05 -2.039e-06 0.0 0.0 0.0 0.0
495033500.0 0.80551104 0.68836096 0.000313851 -0.000684083 0.0 0.0 0.0 0.0
510033000.0 0.791759872 0.701127104 -0.000666093 -0.000549498 0.0 0.0 0.0 0.0
525032500.0 0.774140928 0.713061952 -0.000374205 -0.000175764 0.0 0.0 0.0 0.0
540032000.0 0.76019744 0.7245984 -1.7791e-05 -0.000854181 0.0 0.0 0.0 0.0
555031500.0 0.747653632 0.734004992 0.000541581 -0.000618648 0.0 0.0 0.0 0.0
570031000.0 0.734593152 0.74548736 0.00058849 0.000362536 0.0 0.0 0.0 0.0
585030500.0 0.72070752 0.755464192 0.000323999 -0.000833181 0.0 0.0 0.0 0.0
600030000.0 0.707998656 0.774257216 -0.000478036 -0.001201854 0.0 0.0 0.0 0.0
615029500.0 0.692431488 0.782525568 0.000597065 -0.000695628 0.0 0.0 0.0 0.0
630029000.0 0.676841152 0.788316032 0.000824074 -0.000399857 0.0 0.0 0.0 0.0
645028500.0 0.66418464 0.798251392 0.000716143 -0.000528595 0.0 0.0 0.0 0.0
660028000.0 0.647357056 0.807087872 0.000629681 -0.000130126 0.0 0.0 0.0 0.0
675027500.0 0.632162432 0.815199808 0.000899535 0.000637518 0.0 0.0 0.0 0.0
690027000.0 0.615920064 0.828549632 0.000700816 -0.000160103 0.0 0.0 0.0 0.0
705026500.0 0.597916928 0.840350656 0.000510666 0.000213836 0.0 0.0 0.0 0.0
720026000.0 0.574004096 0.85267904 0.000431433 0.000732881 0.0 0.0 0.0 0.0
735025500.0 0.54960768 0.870486784 0.000369436 0.000171971 0.0 0.0 0.0 0.0
750025000.0 0.525416672 0.884568704 -0.000417117 0.000671341 0.0 0.0 0.0 0.0
765024500.0 0.498851392 0.896500288 -0.000445455 0.000135243 0.0 0.0 0.0 0.0
780024000.0 0.473332992 0.908087488 -0.000354492 0.000400155 0.0 0.0 0.0 0.0
795023500.0 0.450697536 0.92187744 -0.000858513 0.000332681 0.0 0.0 0.0 0.0
810023000.0 0.42543024 0.932496 -0.00068016 0.00029334 0.0 0.0 0.0 0.0
825022500.0 0.40179072 0.937506176 -0.000436791 0.000690196 0.0 0.0 0.0 0.0
840022000.0 0.384692544 0.94914336 -0.001034919 -0.000253033 0.0 0.0 0.0 0.0
855021500.0 0.365445984 0.949731264 -0.001042224 0.000856762 0.0 0.0 0.0 0.0
870021000.0 0.346233504 0.958038784 4.5204e-05 -0.000187857 0.0 0.0 0.0 0.0
885020500.0 0.336840256 0.963803648 -0.000718414 0.000681553 0.0 0.0 0.0 0.0
900020000.0 0.334296128 0.985772928 -0.00286467 -0.00318478 0.0 0.0 0.0 0.0
915019500.0 0.320248096 0.998917888 -0.003710552 -0.001966583 0.0 0.0 0.0 0.0
930019000.0 0.306090528 1.001579285 -8.9077e-05 -0.001386188 0.0 0.0 0.0 0.0
945018500.0 0.291346528 0.998041728 0.00133725 -0.002635022 0.0 0.0 0.0 0.0
960018000.0 0.270770432 1.000461936 0.003389077 -0.000814054 0.0 0.0 0.0 0.0
975017500.0 0.252927456 1.000161648 0.000998753 -0.000143733 0.0 0.0 0.0 0.0
990017000.0 0.241947536 0.987410752 0.001743523 0.000834954 0.0 0.0 0.0 0.0
1005016500.0 0.235541568 0.976654784 0.001130395 -0.000110144 0.0 0.0 0.0 0.0
1020016000.0 0.234329648 0.97011904 0.003507272 -0.000763927 0.0 0.0 0.0 0.0
1035015500.0 0.239818624 0.970387392 0.000960132 0.001327156 0.0 0.0 0.0 0.0
1050015000.0 0.237577888 0.961641152 0.004382995 -0.000865054 0.0 0.0 0.0 0.0
1065014500.0 0.258250944 0.986472768 -0.002225692 -0.000520177 0.0 0.0 0.0 0.0
1080014000.0 0.261246496 1.012019516 0.004505647 0.000722219 0.0 0.0 0.0 0.0
1095013500.0 0.251102656 1.035433412 0.00165866 0.000387734 0.0 0.0 0.0 0.0
1110013000.0 0.229153344 1.063066124 -0.001429097 0.003180814 0.0 0.0 0.0 0.0
1125012500.0 0.188262768 1.115914584 0.002961537 0.001467689 0.0 0.0 0.0 0.0
1140012000.0 0.1653904 1.135109904 -0.002741997 -0.001207046 0.0 0.0 0.0 0.0
1155011500.0 0.07013696 1.118579152 0.002209567 -0.001009913 0.0 0.0 0.0 0.0
1170011000.0 0.043717796 1.143793232 0.003927108 -0.001993753 0.0 0.0 0.0 0.0
1185010500.0 -0.045967184 1.128183128 0.0014051 -0.005576119 0.0 0.0 0.0 0.0
1200010000.0 -0.099269976 1.109677552 0.000782942 -0.002528756 0.0 0.0 0.0 0.0
1215009500.0 -0.146217968 1.057552932 0.002326626 -0.002574864 0.0 0.0 0.0 0.0
1230009000.0 -0.173899216 1.036685108 0.001392465 -0.001034243 0.0 0.0 0.0 0.0
1245008500.0 -0.203150288 1.012738586 -0.000184224 -5.4647e-05 0.0 0.0 0.0 0.0
1260008000.0 -0.213429712 0.962163968 0.007395283 -0.000647652 0.0 0.0 0.0 0.0
1275007500.0 -0.213487936 0.925550464 0.002698021 0.002256808 0.0 0.0 0.0 0.0
1290007000.0 -0.21012144 0.9177616 -0.001302657 0.004429728 0.0 0.0 0.0 0.0
1305006500.0 -0.167643344 0.906425984 0.00089343 0.000978975 0.0 0.0 0.0 0.0
1320006000.0 -0.139430288 0.893808704 0.0101755 -0.001453115 0.0 0.0 0.0 0.0
1335005500.0 -0.111634448 0.937928128 -0.005537169 -0.005732754 0.0 0.0 0.0 0.0
1350005000.0 -0.044490256 0.94500736 0.005969011 -0.002297326 0.0 0.0 0.0 0.0
1365004500.0 -0.02850549 1.011825086 -0.002612619 0.01149345 0.0 0.0 0.0 0.0
1380004000.0 0.04592056 1.067022084 0.005339139 0.013266752 0.0 0.0 0.0 0.0
1395003500.0 0.089133608 1.12250948 0.006947115 0.003624962 0.0 0.0 0.0 0.0
1410003000.0 0.145334208 1.215790272 0.001677357 0.016303336 0.0 0.0 0.0 0.0
1425002500.0 0.149208944 1.378820064 -0.015487722 0.017415928 0.0 0.0 0.0 0.0
1440002000.0 0.091346352 1.623820544 0.001475756 7.098e-06 0.0 0.0 0.0 0.0
1455001500.0 -0.158415712 1.965276608 -0.014820064 0.006659241 0.0 0.0 0.0 0.0
1470001000.0 -0.644494208 2.248582832 -0.019078568 0.008602078 0.0 0.0 0.0 0.0
1485000500.0 -1.52254368 1.744739904 -0.027135988 0.006626952 0.0 0.0 0.0 0.0
1500000000.0 -1.515440704 1.0295465 -0.00062742 -0.002348275 0.0 0.0 0.0 0.0
