! Created with skrf 1.8.0 (http://scikit-rf.org).
# Hz S RI R 50.0 
!freq ReS11 ImS11 ReS21 ImS21 ReS12 ImS12 ReS22 ImS22
50000.0 0.010090232 -0.005254162 0.994504768 0.001518372 0.0 0.0 0.0 0.0
15049500.0 0.013075886 0.004932415 0.999804544 0.026782916 0.0 0.0 0.0 0.0
30049000.0 0.01384769 0.008252132 0.99895072 0.052999012 0.0 0.0 0.0 0.0
45048500.0 0.014084728 0.011819684 0.997072256 0.079092776 0.0 0.0 0.0 0.0
60048000.0 0.01392791 0.015753742 0.995082688 0.104709632 0.0 0.0 0.0 0.0
75047500.0 0.013735502 0.020552928 0.992782784 0.130660264 0.0 0.0 0.0 0.0
90047000.0 0.014023398 0.025958288 0.9882752 0.157759776 0.0 0.0 0.0 0.0
105046500.0 0.014672344 0.03174362 0.9844768 0.181985088 0.0 0.0 0.0 0.0
120046000.0 0.016221456 0.038300084 0.980006016 0.206992208 0.0 0.0 0.0 0.0
135045500.0 0.018851426 0.044764976 0.97406496 0.231617824 0.0 0.0 0.0 0.0
150045000.0 0.022377356 0.051153736 0.966551488 0.256209648 0.0 0.0 0.0 0.0
165044500.0 0.026616008 0.056639832 0.959607424 0.281585088 0.0 0.0 0.0 0.0
180044000.0 0.031400312 0.061198944 0.950725824 0.306975584 0.0 0.0 0.0 0.0
195043500.0 0.0365268 0.064504324 0.942031424 0.33323136 0.0 0.0 0.0 0.0
210043000.0 0.041490472 0.06632764 0.933030016 0.359755008 0.0 0.0 0.0 0.0
225042500.0 0.046165292 0.066697248 0.925135936 0.387053664 0.0 0.0 0.0 0.0
240042000.0 0.050027972 0.065394132 0.916988032 0.413738368 0.0 0.0 0.0 0.0
255041500.0 0.052839524 0.062653848 0.908938176 0.439202336 0.0 0.0 0.0 0.0
270041000.0 0.053983216 0.058856796 0.902374912 0.462429984 0.0 0.0 0.0 0.0
285040500.0 0.053489148 0.05432436 0.893361344 0.484045248 0.0 0.0 0.0 0.0
300040000.0 0.0509765 0.048896588 0.884574464 0.504144672 0.0 0.0 0.0 0.0
315039500.0 0.04678872 0.044303352 0.876807488 0.523058112 0.0 0.0 0.0 0.0
330039000.0 0.04189532 0.039022632 0.86279424 0.5378176 0.0 0.0 0.0 0.0
345038500.0 0.033760124 0.035592876 0.84819904 0.560020544 0.0 0.0 0.0 0.0
360038000.0 0.025138248 0.033451804 0.831049344 0.577859264 0.0 0.0 0.0 0.0
375037500.0 0.015235594 0.032316804 0.812224896 0.5964736 0.0 0.0 0.0 0.0
390037000.0 0.002504352 0.031620558 0.791111616 0.61965184 0.0 0.0 0.0 0.0
405036500.0 -0.008520182 0.036243476 0.773724928 0.6411808 0.0 0.0 0.0 0.0
420036000.0 -0.020065344 0.04150054 0.755997312 0.664415488 0.0 0.0 0.0 0.0
435035500.0 -0.030977732 0.049303536 0.73669216 0.690428288 0.0 0.0 0.0 0.0
450035000.0 -0.040854604 0.057092128 0.721413312 0.707753536 0.0 0.0 0.0 0.0
465034500.0 -0.048959368 0.067555064 0.703111552 0.731391232 0.0 0.0 0.0 0.0
480034000.0 -0.055747232 0.080321032 0.683018432 0.748748608 0.0 0.0 0.0 0.0
495033500.0 -0.060914188 0.093894784 0.663464896 0.764858048 0.0 0.0 0.0 0.0
510033000.0 -0.063100464 0.107859744 0.642829952 0.781992832 0.0 0.0 0.0 0.0
525032500.0 -0.06394296 0.122196968 0.621037504 0.796892928 0.0 0.0 0.0 0.0
540032000.0 -0.063034416 0.136512864 0.597104576 0.814107904 0.0 0.0 0.0 0.0
555031500.0 -0.059181912 0.151160336 0.568443456 0.827178368 0.0 0.0 0.0 0.0
570031000.0 -0.054692176 0.162612544 0.54373792 0.844600128 0.0 0.0 0.0 0.0
585030500.0 -0.049694188 0.17456208 0.518610112 0.86284128 0.0 0.0 0.0 0.0
600030000.0 -0.041516872 0.18591856 0.498087584 0.89010656 0.0 0.0 0.0 0.0
615029500.0 -0.032426252 0.193004672 0.478101376 0.911014016 0.0 0.0 0.0 0.0
630029000.0 -0.024077258 0.196064416 0.45807376 0.929276032 0.0 0.0 0.0 0.0
645028500.0 -0.014586614 0.197667008 0.44030432 0.944313088 0.0 0.0 0.0 0.0
660028000.0 -0.006837581 0.194938608 0.425299584 0.958754688 0.0 0.0 0.0 0.0
675027500.0 0.001666548 0.188953216 0.406723904 0.969333568 0.0 0.0 0.0 0.0
690027000.0 0.00936938 0.180741312 0.389013568 0.977041088 0.0 0.0 0.0 0.0
705026500.0 0.014261708 0.170243792 0.370080832 0.981084416 0.0 0.0 0.0 0.0
720026000.0 0.016398994 0.15893136 0.340490016 0.983168512 0.0 0.0 0.0 0.0
735025500.0 0.017545048 0.14288152 0.31779328 0.982622144 0.0 0.0 0.0 0.0
750025000.0 0.016563778 0.126934904 0.287115424 0.97997248 0.0 0.0 0.0 0.0
765024500.0 0.013492654 0.110875552 0.253281392 0.982421056 0.0 0.0 0.0 0.0
780024000.0 0.00321124 0.095898456 0.238819104 0.984098816 0.0 0.0 0.0 0.0
795023500.0 -0.002904073 0.076936632 0.187080224 0.98281312 0.0 0.0 0.0 0.0
810023000.0 -0.01311231 0.061693804 0.154511344 0.981256576 0.0 0.0 0.0 0.0
825022500.0 -0.027567978 0.050555976 0.125502808 0.983755904 0.0 0.0 0.0 0.0
840022000.0 -0.040258452 0.039139176 0.101216192 0.98433792 0.0 0.0 0.0 0.0
855021500.0 -0.056703312 0.033153024 0.080323016 0.985457856 0.0 0.0 0.0 0.0
870021000.0 -0.073694704 0.027353652 0.061678016 0.983766976 0.0 0.0 0.0 0.0
885020500.0 -0.090086944 0.027937076 0.046634476 0.980628096 0.0 0.0 0.0 0.0
900020000.0 -0.095648456 0.041793456 0.045022992 0.974871872 0.0 0.0 0.0 0.0
915019500.0 -0.116531848 0.047593076 0.020124922 0.970863616 0.0 0.0 0.0 0.0
930019000.0 -0.128293232 0.06109504 -0.006819541 0.967418688 0.0 0.0 0.0 0.0
945018500.0 -0.1407716 0.07804912 -0.029036714 0.964764224 0.0 0.0 0.0 0.0
960018000.0 -0.149237808 0.091515672 -0.062127384 0.96006304 0.0 0.0 0.0 0.0
975017500.0 -0.158951376 0.11696592 -0.07706936 0.970250624 0.0 0.0 0.0 0.0
990017000.0 -0.164176816 0.131934968 -0.110110728 0.9579936 0.0 0.0 0.0 0.0
1005016500.0 -0.173955328 0.14977368 -0.13028628 0.95946752 0.0 0.0 0.0 0.0
1020016000.0 -0.170471424 0.171156832 -0.147446304 0.954656 0.0 0.0 0.0 0.0
1035015500.0 -0.164956144 0.192185584 -0.16446888 0.965214208 0.0 0.0 0.0 0.0
1050015000.0 -0.161768992 0.205883584 -0.190745072 0.960802816 0.0 0.0 0.0 0.0
1065014500.0 -0.15308384 0.223557552 -0.188666416 0.96169888 0.0 0.0 0.0 0.0
1080014000.0 -0.136886992 0.236149936 -0.198874848 0.963776128 0.0 0.0 0.0 0.0
1095013500.0 -0.122057456 0.259304016 -0.216918464 0.960061888 0.0 0.0 0.0 0.0
1110013000.0 -0.128938008 0.265415616 -0.220777392 0.94624768 0.0 0.0 0.0 0.0
1125012500.0 -0.115022944 0.273363104 -0.239486752 0.955625024 0.0 0.0 0.0 0.0
1140012000.0 -0.107483408 0.277460064 -0.258505136 0.93761472 0.0 0.0 0.0 0.0
1155011500.0 -0.09823944 0.280255776 -0.299689856 0.951137408 0.0 0.0 0.0 0.0
1170011000.0 -0.086924968 0.27118032 -0.319001952 0.92688768 0.0 0.0 0.0 0.0
1185010500.0 -0.085365424 0.26164344 -0.354265888 0.916914944 0.0 0.0 0.0 0.0
1200010000.0 -0.091270864 0.234980768 -0.380090464 0.904027072 0.0 0.0 0.0 0.0
1215009500.0 -0.083248424 0.22201016 -0.419190816 0.910455552 0.0 0.0 0.0 0.0
1230009000.0 -0.07945648 0.17982208 -0.436744544 0.920221888 0.0 0.0 0.0 0.0
1245008500.0 -0.073990648 0.147504304 -0.461525664 0.920583744 0.0 0.0 0.0 0.0
1260008000.0 -0.061846308 0.129703056 -0.476624832 0.922705024 0.0 0.0 0.0 0.0
1275007500.0 -0.071825032 0.097986488 -0.478712288 0.923206592 0.0 0.0 0.0 0.0
1290007000.0 -0.0718476 0.068452672 -0.493727552 0.940216 0.0 0.0 0.0 0.0
1305006500.0 -0.058270676 0.030132652 -0.48420112 0.948530112 0.0 0.0 0.0 0.0
1320006000.0 -0.073948816 0.040945932 -0.504287712 0.948234624 0.0 0.0 0.0 0.0
1335005500.0 -0.071283216 0.026889184 -0.501476224 0.962464448 0.0 0.0 0.0 0.0
1350005000.0 -0.099977136 0.017347492 -0.533652672 0.963806848 0.0 0.0 0.0 0.0
1365004500.0 -0.11008112 0.003856363 -0.495914816 1.003899098 0.0 0.0 0.0 0.0
1380004000.0 -0.13996632 0.021266058 -0.555484608 1.0281744 0.0 0.0 0.0 0.0
1395003500.0 -0.152052384 0.031276088 -0.607074688 1.044041276 0.0 0.0 0.0 0.0
1410003000.0 -0.189064144 0.051364048 -0.622997952 1.103756904 0.0 0.0 0.0 0.0
1425002500.0 -0.211942352 0.063480096 -0.722998912 1.145175456 0.0 0.0 0.0 0.0
1440002000.0 -0.293067616 0.126085032 -0.789770432 1.194149856 0.0 0.0 0.0 0.0
1455001500.0 -0.305451296 0.094600864 -0.912266432 1.197780496 0.0 0.0 0.0 0.0
1470001000.0 -0.459624032 0.09253068 -1.053047776 1.164587504 0.0 0.0 0.0 0.0
1485000500.0 -0.466862752 0.039402032 -1.19378472 1.063535332 0.0 0.0 0.0 0.0
1500000000.0 -0.456489696 -0.01311861 -1.29517232 0.905218752 0.0 0.0 0.0 0.0
