! Created with skrf 1.8.0 (http://scikit-rf.org).
# Hz S RI R 50.0 
!freq ReS11 ImS11 ReS21 ImS21 ReS12 ImS12 ReS22 ImS22
50000.0 0.9978352 0.00186686 2.8108607731142153e-05 -3.2197342458916934e-05 0.0 0.0 0.0 0.0
15049500.0 0.976736448 0.219938128 3.616233308351458e-05 4.420168799895483e-05 0.0 0.0 0.0 0.0
30049000.0 0.906873344 0.427886048 1.346761392919874e-05 4.906570704732636e-05 0.0 0.0 0.0 0.0
45048500.0 0.794061504 0.61540512 2.694576742509875e-05 1.4134078670804374e-05 0.0 0.0 0.0 0.0
60048000.0 0.644542336 0.772686656 5.691759317949589e-05 3.140559051591617e-05 0.0 0.0 0.0 0.0
75047500.0 0.465608544 0.895878656 4.188587794779167e-05 5.364206216713428e-05 0.0 0.0 0.0 0.0
90047000.0 0.252437856 0.981613824 -2.0786475202036758e-05 3.393521718915485e-05 0.0 0.0 0.0 0.0
105046500.0 0.032477506 1.013467908 3.1744304293494664e-05 4.278056459330587e-05 0.0 0.0 0.0 0.0
120046000.0 -0.189130864 0.998168 -2.8738082604892753e-05 6.965530132153876e-05 0.0 0.0 0.0 0.0
135045500.0 -0.403462592 0.933494016 -5.455266946962383e-05 0.00011425064119617874 0.0 0.0 0.0 0.0
150045000.0 -0.60148736 0.82361184 -3.7086777968933784e-05 0.00012103050826912611 0.0 0.0 0.0 0.0
165044500.0 -0.76921568 0.671468672 2.228701965262153e-05 9.792312586413725e-05 0.0 0.0 0.0 0.0
180044000.0 -0.89924384 0.48436736 6.640207794507697e-06 6.073922393680841e-05 0.0 0.0 0.0 0.0
195043500.0 -0.986752576 0.273015744 -3.7855822253785184e-05 6.045170114636827e-05 0.0 0.0 0.0 0.0
210043000.0 -1.024263978 0.044762456 -5.3528191005929795e-05 5.134864011473621e-05 0.0 0.0 0.0 0.0
225042500.0 -1.008731962 -0.188283424 -4.9758397273842783e-05 8.030585837744613e-05 0.0 0.0 0.0 0.0
240042000.0 -0.93969952 -0.413456 -7.744127515533675e-05 6.286948690195763e-05 0.0 0.0 0.0 0.0
255041500.0 -0.819682816 -0.617611648 -5.567740319329595e-05 4.891828281584665e-05 0.0 0.0 0.0 0.0
270041000.0 -0.65588512 -0.78753824 -5.7851516174421394e-05 4.00695949358196e-05 0.0 0.0 0.0 0.0
285040500.0 -0.458366976 -0.919172032 -8.385682093356362e-05 7.705235749745913e-05 0.0 0.0 0.0 0.0
300040000.0 -0.238786608 -0.989164224 -0.0004715806857057508 -6.26930931553824e-06 0.0 0.0 0.0 0.0
315039500.0 -0.005316716 -1.01487887 -0.0006339858020040141 -0.00015267773269644457 0.0 0.0 0.0 0.0
330039000.0 0.226580384 -0.990878272 -0.000153025046158778 -1.350427007976174e-06 0.0 0.0 0.0 0.0
345038500.0 0.447425792 -0.916147648 -0.0003678127599577725 0.0003178719891799936 0.0 0.0 0.0 0.0
360038000.0 0.643454208 -0.794708672 -0.0004522194882757517 0.0003321011853511175 0.0 0.0 0.0 0.0
375037500.0 0.808091456 -0.635741248 -0.0005254736125879016 6.884942592948644e-05 0.0 0.0 0.0 0.0
390037000.0 0.934124224 -0.438656864 -0.0003378846575680353 -0.0003798774097391572 0.0 0.0 0.0 0.0
405036500.0 1.012585044 -0.240651728 0.0001292301979556452 -0.0003809423115516899 0.0 0.0 0.0 0.0
420036000.0 1.055529596 -0.015485276 -0.0004267920319329742 -0.00030887293588711056 0.0 0.0 0.0 0.0
435035500.0 1.04558766 0.217550864 -5.012014226058718e-05 -0.0003093212863751515 0.0 0.0 0.0 0.0
450035000.0 0.975713472 0.451741056 0.00014469512794304328 -0.0005289343030826667 0.0 0.0 0.0 0.0
465034500.0 0.864076096 0.658955136 -0.00023692345231257042 8.666768965027948e-06 0.0 0.0 0.0 0.0
480034000.0 0.705941824 0.832486784 -0.00023872609059664214 -0.00038080730246339004 0.0 0.0 0.0 0.0
495033500.0 0.5127344 0.966046528 -1.7625891020419768e-05 -0.0001909968745575076 0.0 0.0 0.0 0.0
510033000.0 0.298735296 1.053768516 -3.3449153355108334e-05 -0.0003486265075576246 0.0 0.0 0.0 0.0
525032500.0 0.079167784 1.0895462 -6.12187062222113e-05 -0.0005586146026667031 0.0 0.0 0.0 0.0
540032000.0 -0.1475688 1.078682664 0.0007045055542491995 -0.0013105187093254442 0.0 0.0 0.0 0.0
555031500.0 -0.359806336 1.02381146 -0.0005828113758628459 -0.0015059212005250663 0.0 0.0 0.0 0.0
570031000.0 -0.557564608 0.92090112 0.0007012580573221307 -0.000785536453877725 0.0 0.0 0.0 0.0
585030500.0 -0.720837248 0.778022016 0.00041531433546132274 -0.0007463664495864748 0.0 0.0 0.0 0.0
600030000.0 -0.873634432 0.636142272 -0.0003365977802253002 -0.0005388027198441007 0.0 0.0 0.0 0.0
615029500.0 -0.981824064 0.438158368 0.000445238840258428 -0.00028328210920975944 0.0 0.0 0.0 0.0
630029000.0 -1.054088712 0.218124784 0.0004972595922328878 -0.00033475830120010777 0.0 0.0 0.0 0.0
645028500.0 -1.063198208 -0.017018452 0.0007601300992836678 -0.00012876704244099626 0.0 0.0 0.0 0.0
660028000.0 -1.027247786 -0.25119608 0.000689242029288207 -0.000168986093755298 0.0 0.0 0.0 0.0
675027500.0 -0.939940544 -0.4765512 0.0012748339371287827 -0.00026678737456020446 0.0 0.0 0.0 0.0
690027000.0 -0.796861632 -0.680407872 0.0007575606379384626 -0.000285733684367576 0.0 0.0 0.0 0.0
705026500.0 -0.616679744 -0.849808512 0.0006423319553456809 0.0005038727819041172 0.0 0.0 0.0 0.0
720026000.0 -0.385603488 -0.973177088 0.0008584790793383315 0.0009752772517409656 0.0 0.0 0.0 0.0
735025500.0 -0.129610584 -1.043972136 0.00018318321744220076 0.0004840099063960606 0.0 0.0 0.0 0.0
750025000.0 0.136446768 -1.052708148 0.0006092165808274359 -0.00011599501318991337 0.0 0.0 0.0 0.0
765024500.0 0.409696192 -0.989723264 0.0006751108482428791 0.0007702668308545945 0.0 0.0 0.0 0.0
780024000.0 0.650514752 -0.823888128 -0.0009026986705172207 0.0005809244439507105 0.0 0.0 0.0 0.0
795023500.0 0.869740352 -0.666145728 0.00021940414224030393 0.0010151304852795016 0.0 0.0 0.0 0.0
810023000.0 1.017426014 -0.424751296 -0.0004047333378236158 0.0005618493511913625 0.0 0.0 0.0 0.0
825022500.0 1.096672656 -0.158387232 -0.0009155619825221767 0.0010755865267030177 0.0 0.0 0.0 0.0
840022000.0 1.097432968 0.113746032 -0.0006157283070062158 -0.00043597051280477595 0.0 0.0 0.0 0.0
855021500.0 1.03532064 0.370625952 2.7235515422954736e-05 -0.00014127324804663477 0.0 0.0 0.0 0.0
870021000.0 0.926492352 0.583479552 -0.0006496506797247804 0.0007942227053755961 0.0 0.0 0.0 0.0
885020500.0 0.774662848 0.760565184 -0.0002978594259056311 -0.0005079261553928562 0.0 0.0 0.0 0.0
900020000.0 0.618826304 0.928646592 -0.004115215582654968 0.000718186399714401 0.0 0.0 0.0 0.0
915019500.0 0.426125056 1.03846538 0.0006273432713883742 0.0011222689109673012 0.0 0.0 0.0 0.0
930019000.0 0.228426976 1.090950016 -0.0026198184476601684 -0.0012038700245547548 0.0 0.0 0.0 0.0
945018500.0 0.015167252 1.107127312 0.0017052349656191327 -0.000364501743857166 0.0 0.0 0.0 0.0
960018000.0 -0.172338288 1.084422824 -0.00112789611478412 -0.0010296259525186255 0.0 0.0 0.0 0.0
975017500.0 -0.365179968 1.04000342 -0.000412556143311676 0.0016791517827060172 0.0 0.0 0.0 0.0
990017000.0 -0.5373344 0.959910208 0.0009970446115113432 -0.0015770030543648906 0.0 0.0 0.0 0.0
1005016500.0 -0.68952 0.847773568 0.0018128671005430783 0.002062811362928402 0.0 0.0 0.0 0.0
1020016000.0 -0.824733952 0.727320064 -6.300426742579362e-05 -0.0035781211911507607 0.0 0.0 0.0 0.0
1035015500.0 -0.958772544 0.56178656 -3.444274561442841e-05 -0.0015095358853261952 0.0 0.0 0.0 0.0
1050015000.0 -1.040685772 0.347512224 -0.0026540848533609528 -0.0007605209066245129 0.0 0.0 0.0 0.0
1065014500.0 -1.110061768 0.176415184 0.0015881580134229092 -0.0011756235149679502 0.0 0.0 0.0 0.0
1080014000.0 -1.132881048 -0.040465484 0.0032591517319121794 0.0008335756199522873 0.0 0.0 0.0 0.0
1095013500.0 -1.105947376 -0.267246064 0.0031248549634593204 -0.003296810332476627 0.0 0.0 0.0 0.0
1110013000.0 -1.049885036 -0.4769984 0.001029772846545724 -0.002490397807944971 0.0 0.0 0.0 0.0
1125012500.0 -0.95220256 -0.71108032 0.003798520048573546 -0.002282228102150577 0.0 0.0 0.0 0.0
1140012000.0 -0.775458688 -0.91547232 0.0009964469924347852 -0.00027981125583627115 0.0 0.0 0.0 0.0
1155011500.0 -0.588047296 -1.04351306 0.0014466914097344481 0.0013400452981942642 0.0 0.0 0.0 0.0
1170011000.0 -0.274087008 -1.2636776 0.002911480895462526 0.0021920555488604138 0.0 0.0 0.0 0.0
1185010500.0 0.041729368 -1.355517376 -0.0005450553778692565 -0.0019770926070259843 0.0 0.0 0.0 0.0
1200010000.0 0.440914272 -1.345968608 -0.0009596539474659461 -0.0003718206313816206 0.0 0.0 0.0 0.0
1215009500.0 0.849055936 -1.186485888 0.001461591222648377 2.2503880492544412e-05 0.0 0.0 0.0 0.0
1230009000.0 1.273078208 -0.86109504 0.0037371363256121105 -0.009670691562487732 0.0 0.0 0.0 0.0
1245008500.0 1.433667072 -0.363682464 0.004803007375823889 0.004909364644920085 0.0 0.0 0.0 0.0
1260008000.0 1.434388512 0.139338032 0.006387285921991128 -0.003130285024035982 0.0 0.0 0.0 0.0
1275007500.0 1.265976544 0.477048256 0.005642186029126843 0.0028618287737981222 0.0 0.0 0.0 0.0
1290007000.0 1.021545886 0.733394624 0.005301275515855417 -0.005376782611812465 0.0 0.0 0.0 0.0
1305006500.0 0.802580864 0.857065024 0.009523281328996559 0.004196815841687069 0.0 0.0 0.0 0.0
1320006000.0 0.598008896 0.951508672 0.009529182146784825 -0.0047843254283205265 0.0 0.0 0.0 0.0
1335005500.0 0.427104096 0.966898048 0.004460747776999021 0.001677237378305258 0.0 0.0 0.0 0.0
1350005000.0 0.289035424 0.987892416 -0.004215784389889969 0.00901846167813037 0.0 0.0 0.0 0.0
1365004500.0 0.212183088 1.06361246 0.008227846556266656 -0.0007224138805365959 0.0 0.0 0.0 0.0
1380004000.0 0.063109808 1.058660508 0.0034233762660970386 0.0050771493183821665 0.0 0.0 0.0 0.0
1395003500.0 -0.068006704 1.11879516 -0.0006361789522600967 0.0009696189452765687 0.0 0.0 0.0 0.0
1410003000.0 -0.177934272 1.228364832 -0.0005319548358020448 0.010508001677363342 0.0 0.0 0.0 0.0
1425002500.0 -0.42614992 1.32273232 0.00391954333157745 0.004920327461292057 0.0 0.0 0.0 0.0
1440002000.0 -0.796776256 1.412355648 -0.002387234395683876 0.01740397629686414 0.0 0.0 0.0 0.0
1455001500.0 -1.338470112 1.31850672 -0.011535063351715148 0.011112409063188685 0.0 0.0 0.0 0.0
1470001000.0 -1.946721792 0.682097024 0.009745989388282719 0.001872899643367109 0.0 0.0 0.0 0.0
1485000500.0 -1.755588416 -0.115264152 0.007397984686952542 0.009030844058159829 0.0 0.0 0.0 0.0
1500000000.0 -1.365286592 -0.43169936 -0.001228745723575803 -0.007520152623676343 0.0 0.0 0.0 0.0
