! Created with skrf 1.8.0 (http://scikit-rf.org).
# Hz S RI R 50.0 
!freq ReS11 ImS11 ReS21 ImS21 ReS12 ImS12 ReS22 ImS22
50000.0 1.001602292 0.001511042 1.5885e-05 6.341e-06 0.0 0.0 0.0 0.0
15049500.0 0.978658368 0.220112432 3.9613e-05 4.974e-06 0.0 0.0 0.0 0.0
30049000.0 0.909860352 0.428370144 1.1343e-05 3.2321e-05 0.0 0.0 0.0 0.0
45048500.0 0.796317952 0.617020928 3.4522e-05 1.119e-05 0.0 0.0 0.0 0.0
60048000.0 0.647097664 0.774290624 6.1379e-05 3.5976e-05 0.0 0.0 0.0 0.0
75047500.0 0.46828288 0.898151104 3.0164e-05 5.491e-05 0.0 0.0 0.0 0.0
90047000.0 0.25412888 0.9839184 5.949e-05 5.9515e-05 0.0 0.0 0.0 0.0
105046500.0 0.034644892 1.016396166 5.48e-07 5.8857e-05 0.0 0.0 0.0 0.0
120046000.0 -0.18761808 1.001655221 -6.1102e-05 5.36e-06 0.0 0.0 0.0 0.0
135045500.0 -0.403806112 0.93863872 3.9627e-05 6.8401e-05 0.0 0.0 0.0 0.0
150045000.0 -0.601209792 0.827313536 -9.611e-06 8.3938e-05 0.0 0.0 0.0 0.0
165044500.0 -0.77075616 0.675354048 -1.1164e-05 9.1715e-05 0.0 0.0 0.0 0.0
180044000.0 -0.901679488 0.488389088 -8.561e-06 7.3033e-05 0.0 0.0 0.0 0.0
195043500.0 -0.989819328 0.27655632 -5.9599e-05 6.4571e-05 0.0 0.0 0.0 0.0
210043000.0 -1.02855146 0.047824156 -2.5405e-05 9.39e-05 0.0 0.0 0.0 0.0
225042500.0 -1.013284206 -0.18640288 -5.1357e-05 7.5463e-05 0.0 0.0 0.0 0.0
240042000.0 -0.944139072 -0.412242016 -0.000102142 3.6335e-05 0.0 0.0 0.0 0.0
255041500.0 -0.825470272 -0.617006656 -4.7126e-05 5.1078e-05 0.0 0.0 0.0 0.0
270041000.0 -0.661926592 -0.788327488 -0.000100063 2.1169e-05 0.0 0.0 0.0 0.0
285040500.0 -0.46514352 -0.92076864 -8.621e-05 4.582e-06 0.0 0.0 0.0 0.0
300040000.0 -0.244050784 -0.989567232 -0.000287974 0.000471682 0.0 0.0 0.0 0.0
315039500.0 -0.00974007 -1.018959046 -8.2911e-05 0.000153212 0.0 0.0 0.0 0.0
330039000.0 0.222959808 -0.994692288 -2.7131e-05 -0.000123979 0.0 0.0 0.0 0.0
345038500.0 0.446195296 -0.92201568 0.000153126 -0.000221313 0.0 0.0 0.0 0.0
360038000.0 0.64372224 -0.800641024 -0.000260867 -0.000123576 0.0 0.0 0.0 0.0
375037500.0 0.807619584 -0.64295008 -0.0003715 -5.1614e-05 0.0 0.0 0.0 0.0
390037000.0 0.926270592 -0.452498624 7.1113e-05 -0.00034861 0.0 0.0 0.0 0.0
405036500.0 1.018387794 -0.24543576 -0.000363707 1.3276e-05 0.0 0.0 0.0 0.0
420036000.0 1.06048286 -0.021411006 0.000158157 0.000136767 0.0 0.0 0.0 0.0
435035500.0 1.049873472 0.21696688 -0.000433569 -0.000484105 0.0 0.0 0.0 0.0
450035000.0 0.993181888 0.450957216 -2.2366e-05 -0.000174828 0.0 0.0 0.0 0.0
465034500.0 0.871322304 0.66270688 -0.000518666 -0.001022965 0.0 0.0 0.0 0.0
480034000.0 0.712910144 0.837144384 -0.000128765 -0.000772247 0.0 0.0 0.0 0.0
495033500.0 0.521908032 0.967835776 -9.739e-06 -0.000741956 0.0 0.0 0.0 0.0
510033000.0 0.306443232 1.058683156 1.0834e-05 -0.000595311 0.0 0.0 0.0 0.0
525032500.0 0.082124008 1.096260784 0.000261575 -0.000916877 0.0 0.0 0.0 0.0
540032000.0 -0.142340768 1.087172984 -0.000390027 -0.000411931 0.0 0.0 0.0 0.0
555031500.0 -0.358287232 1.030536174 0.000455459 -0.001139817 0.0 0.0 0.0 0.0
570031000.0 -0.556533184 0.930356352 0.000199942 -0.000723427 0.0 0.0 0.0 0.0
585030500.0 -0.726618048 0.797209408 0.001046074 -0.000955326 0.0 0.0 0.0 0.0
600030000.0 -0.875806208 0.647951872 0.000800951 -0.00064924 0.0 0.0 0.0 0.0
615029500.0 -0.989333824 0.450241664 0.000176612 5.5733e-05 0.0 0.0 0.0 0.0
630029000.0 -1.0580585 0.224125568 0.001199708 -0.000216447 0.0 0.0 0.0 0.0
645028500.0 -1.074501512 -0.007468545 0.001077968 -6.0848e-05 0.0 0.0 0.0 0.0
660028000.0 -1.042255044 -0.24502448 0.001116369 0.000135552 0.0 0.0 0.0 0.0
675027500.0 -0.9569024 -0.475254528 0.000966244 0.000450142 0.0 0.0 0.0 0.0
690027000.0 -0.813242368 -0.68482784 0.000199347 -0.000237444 0.0 0.0 0.0 0.0
705026500.0 -0.626032128 -0.856434688 0.000733456 5.1221e-05 0.0 0.0 0.0 0.0
720026000.0 -0.4033608 -0.9799648 0.000102152 0.001099821 0.0 0.0 0.0 0.0
735025500.0 -0.145962496 -1.052932976 -0.000223411 -0.000264026 0.0 0.0 0.0 0.0
750025000.0 0.121082864 -1.061160684 -5.504e-05 0.000862858 0.0 0.0 0.0 0.0
765024500.0 0.397504768 -1.00797391 0.000406078 0.000636448 0.0 0.0 0.0 0.0
780024000.0 0.686731264 -0.863800256 -0.001150263 0.000635436 0.0 0.0 0.0 0.0
795023500.0 0.866335808 -0.683722688 0.000497228 0.000462358 0.0 0.0 0.0 0.0
810023000.0 1.02266574 -0.4465648 -0.000422701 0.000442401 0.0 0.0 0.0 0.0
825022500.0 1.106683848 -0.174722048 -0.000324146 -0.000241026 0.0 0.0 0.0 0.0
840022000.0 1.114547488 0.102355768 -0.000858727 -0.000257745 0.0 0.0 0.0 0.0
855021500.0 1.052367808 0.356424768 -0.001195716 0.000244185 0.0 0.0 0.0 0.0
870021000.0 0.938703232 0.574042432 -0.001456334 -6.0312e-05 0.0 0.0 0.0 0.0
885020500.0 0.78699296 0.75506752 -0.000652414 -0.000682341 0.0 0.0 0.0 0.0
900020000.0 0.637959488 0.931972544 -0.001261897 -0.00453233 0.0 0.0 0.0 0.0
915019500.0 0.44090208 1.026527762 0.00039724 0.002532976 0.0 0.0 0.0 0.0
930019000.0 0.244632192 1.091770768 0.002390219 -0.00045838 0.0 0.0 0.0 0.0
945018500.0 0.03783164 1.105885384 0.001657725 0.000534158 0.0 0.0 0.0 0.0
960018000.0 -0.163778256 1.098183752 -4.8797e-05 -0.000574685 0.0 0.0 0.0 0.0
975017500.0 -0.348868096 1.05551362 0.001182579 0.00124211 0.0 0.0 0.0 0.0
990017000.0 -0.522825952 0.971399872 0.001209622 0.001142546 0.0 0.0 0.0 0.0
1005016500.0 -0.677252224 0.862155904 0.001771069 0.0005178 0.0 0.0 0.0 0.0
1020016000.0 -0.834172032 0.728713856 0.003700728 0.002266734 0.0 0.0 0.0 0.0
1035015500.0 -0.944773568 0.581850752 0.001729306 -0.002273117 0.0 0.0 0.0 0.0
1050015000.0 -1.047199964 0.421615136 0.004551121 -3.9639e-05 0.0 0.0 0.0 0.0
1065014500.0 -1.101793888 0.194987392 0.00501756 -0.001885564 0.0 0.0 0.0 0.0
1080014000.0 -1.134850384 -0.024416112 0.006189396 -0.002167708 0.0 0.0 0.0 0.0
1095013500.0 -1.120239376 -0.243125456 0.002695096 0.001932579 0.0 0.0 0.0 0.0
1110013000.0 -1.070698024 -0.47536672 0.002638208 -0.001318201 0.0 0.0 0.0 0.0
1125012500.0 -0.979478336 -0.70002368 0.002253953 0.001629339 0.0 0.0 0.0 0.0
1140012000.0 -0.79633632 -0.895042304 0.003341452 0.001386761 0.0 0.0 0.0 0.0
1155011500.0 -0.5470432 -1.069446088 0.002009428 -0.001494523 0.0 0.0 0.0 0.0
1170011000.0 -0.266063744 -1.310272448 0.00208978 -0.001747194 0.0 0.0 0.0 0.0
1185010500.0 0.036913672 -1.346516384 0.006094664 3.3359e-05 0.0 0.0 0.0 0.0
1200010000.0 0.440287424 -1.327250496 -0.000781711 0.004462344 0.0 0.0 0.0 0.0
1215009500.0 0.872823296 -1.196855776 0.001656322 0.000552807 0.0 0.0 0.0 0.0
1230009000.0 1.244649168 -0.8541376 0.001340736 0.001830653 0.0 0.0 0.0 0.0
1245008500.0 1.438175552 -0.363252768 0.003381176 0.000480218 0.0 0.0 0.0 0.0
1260008000.0 1.45279968 0.067443144 0.001465225 0.008822062 0.0 0.0 0.0 0.0
1275007500.0 1.274107808 0.4826736 -0.002721177 -0.004048256 0.0 0.0 0.0 0.0
1290007000.0 1.024379968 0.734429952 -0.001307985 -0.004541571 0.0 0.0 0.0 0.0
1305006500.0 0.781417152 0.850439616 -0.005597139 -3.4552e-05 0.0 0.0 0.0 0.0
1320006000.0 0.562393024 0.944774656 -0.003426995 0.002955988 0.0 0.0 0.0 0.0
1335005500.0 0.426309984 0.984877952 -0.000464985 0.002298674 0.0 0.0 0.0 0.0
1350005000.0 0.292782656 1.008023262 0.000504124 0.00541847 0.0 0.0 0.0 0.0
1365004500.0 0.153186768 1.0797472 -0.002531009 0.001451066 0.0 0.0 0.0 0.0
1380004000.0 0.054178916 1.076654792 0.006211168 0.005517567 0.0 0.0 0.0 0.0
1395003500.0 -0.060790468 1.140429728 -0.001604507 -0.003953014 0.0 0.0 0.0 0.0
1410003000.0 -0.193364464 1.211364384 0.009850992 -0.002316458 0.0 0.0 0.0 0.0
1425002500.0 -0.40885296 1.322427616 -0.004001523 0.014019928 0.0 0.0 0.0 0.0
1440002000.0 -0.823702528 1.411352768 0.000818212 0.005467662 0.0 0.0 0.0 0.0
1455001500.0 -1.437121504 1.280882944 -0.00335554 0.011176548 0.0 0.0 0.0 0.0
1470001000.0 -1.883660416 0.618118912 -0.000466326 -0.007362839 0.0 0.0 0.0 0.0
1485000500.0 -1.78851296 -0.089793304 -0.018278972 0.007112533 0.0 0.0 0.0 0.0
1500000000.0 -1.360751872 -0.433681664 -0.013301034 -0.005294428 0.0 0.0 0.0 0.0
