! Created with skrf 1.8.0 (http://scikit-rf.org).
# Hz S RI R 50.0 
!freq ReS11 ImS11 ReS21 ImS21 ReS12 ImS12 ReS22 ImS22
50000.0 0.9983904 0.001479648 9.915e-05 -0.000104517 0.0 0.0 0.0 0.0
15049500.0 0.976395264 0.220107248 6.2627e-05 1.712e-06 0.0 0.0 0.0 0.0
30049000.0 0.9074864 0.427649344 1.9556e-05 4.0303e-05 0.0 0.0 0.0 0.0
45048500.0 0.79410016 0.61596608 4.276e-06 1.256e-06 0.0 0.0 0.0 0.0
60048000.0 0.64536032 0.773115776 1.2865e-05 2.0784e-05 0.0 0.0 0.0 0.0
75047500.0 0.466053056 0.896240128 3.489e-05 3.0902e-05 0.0 0.0 0.0 0.0
90047000.0 0.25258848 0.981603584 1.0277e-05 3.3392e-05 0.0 0.0 0.0 0.0
105046500.0 0.032954342 1.013572694 -2.3825e-05 3.1623e-05 0.0 0.0 0.0 0.0
120046000.0 -0.188459632 0.998653888 1.3128e-05 5.8303e-05 0.0 0.0 0.0 0.0
135045500.0 -0.403605728 0.934394368 8.413e-06 0.000101865 0.0 0.0 0.0 0.0
150045000.0 -0.600656128 0.824539328 -2.884e-05 9.5382e-05 0.0 0.0 0.0 0.0
165044500.0 -0.769270656 0.672161792 -9.754e-06 6.5927e-05 0.0 0.0 0.0 0.0
180044000.0 -0.899442048 0.485473696 8.072e-06 4.739e-05 0.0 0.0 0.0 0.0
195043500.0 -0.986222464 0.274173696 -5.5769e-05 3.0108e-05 0.0 0.0 0.0 0.0
210043000.0 -1.024556876 0.046270864 -7.0525e-05 1.4418e-05 0.0 0.0 0.0 0.0
225042500.0 -1.009162784 -0.18658192 -7.1871e-05 4.814e-05 0.0 0.0 0.0 0.0
240042000.0 -0.939979712 -0.411816448 -9.2938e-05 -1.0131e-05 0.0 0.0 0.0 0.0
255041500.0 -0.821336064 -0.616311424 -7.76e-05 2.186e-05 0.0 0.0 0.0 0.0
270041000.0 -0.65856032 -0.787646336 -7.0225e-05 1.1301e-05 0.0 0.0 0.0 0.0
285040500.0 -0.460789952 -0.918339904 -8.6774e-05 3.5993e-05 0.0 0.0 0.0 0.0
300040000.0 -0.240966016 -0.986723904 -7.3093e-05 -0.000518208 0.0 0.0 0.0 0.0
315039500.0 -0.004896635 -1.01586795 7.0894e-05 0.00069806 0.0 0.0 0.0 0.0
330039000.0 0.225978416 -0.995166592 -0.000382033 -2.2707e-05 0.0 0.0 0.0 0.0
345038500.0 0.44439088 -0.916453056 -0.000419828 -0.000377416 0.0 0.0 0.0 0.0
360038000.0 0.641536384 -0.796099392 -0.00027457 0.000248083 0.0 0.0 0.0 0.0
375037500.0 0.804988352 -0.639080064 0.000418594 -0.000370441 0.0 0.0 0.0 0.0
390037000.0 0.932901952 -0.453884672 -0.000455511 -0.000131378 0.0 0.0 0.0 0.0
405036500.0 1.014602304 -0.24110736 -0.000352957 -0.000256067 0.0 0.0 0.0 0.0
420036000.0 1.054820896 -0.018774172 -0.000448238 -0.000568725 0.0 0.0 0.0 0.0
435035500.0 1.041505576 0.215421952 -0.000852199 -0.000262552 0.0 0.0 0.0 0.0
450035000.0 0.9872368 0.443382464 0.000100236 0.000329 0.0 0.0 0.0 0.0
465034500.0 0.867629888 0.656661248 3.222e-05 -0.000188977 0.0 0.0 0.0 0.0
480034000.0 0.70453568 0.829204032 -0.000788787 -0.000673091 0.0 0.0 0.0 0.0
495033500.0 0.516237984 0.963193984 0.000342313 -0.000523768 0.0 0.0 0.0 0.0
510033000.0 0.303178048 1.051791312 0.000316124 -0.00050825 0.0 0.0 0.0 0.0
525032500.0 0.078719528 1.084370848 -0.000272085 -0.000465104 0.0 0.0 0.0 0.0
540032000.0 -0.142802992 1.077223896 0.000196928 -0.000773093 0.0 0.0 0.0 0.0
555031500.0 -0.357343296 1.020771384 0.000646065 -0.000631202 0.0 0.0 0.0 0.0
570031000.0 -0.55325152 0.920972672 0.001121181 -0.000891216 0.0 0.0 0.0 0.0
585030500.0 -0.723455552 0.78097344 0.00134518 -0.00106704 0.0 0.0 0.0 0.0
600030000.0 -0.872271104 0.637007872 0.000320649 0.000405061 0.0 0.0 0.0 0.0
615029500.0 -0.981707456 0.434844448 0.001194791 -0.00098445 0.0 0.0 0.0 0.0
630029000.0 -1.045697688 0.221559792 0.000741878 -0.000505996 0.0 0.0 0.0 0.0
645028500.0 -1.063785076 -0.01456904 0.000886763 7.7336e-05 0.0 0.0 0.0 0.0
660028000.0 -1.027852178 -0.254197024 0.000588746 0.000725393 0.0 0.0 0.0 0.0
675027500.0 -0.938553472 -0.470870272 0.000818907 0.000298921 0.0 0.0 0.0 0.0
690027000.0 -0.800752896 -0.682326464 0.001049208 5.1466e-05 0.0 0.0 0.0 0.0
705026500.0 -0.60903904 -0.849479104 0.000940782 0.000420698 0.0 0.0 0.0 0.0
720026000.0 -0.38687632 -0.971172224 0.000473446 0.000482041 0.0 0.0 0.0 0.0
735025500.0 -0.131167144 -1.041036844 0.000615267 0.000279498 0.0 0.0 0.0 0.0
750025000.0 0.139669184 -1.048093916 2.7025e-05 0.000880809 0.0 0.0 0.0 0.0
765024500.0 0.406859744 -0.985580224 1.1925e-05 0.000147852 0.0 0.0 0.0 0.0
780024000.0 0.682164992 -0.837372992 2.7133e-05 0.001862063 0.0 0.0 0.0 0.0
795023500.0 0.859093248 -0.668072704 -0.000534378 0.000997879 0.0 0.0 0.0 0.0
810023000.0 1.017246604 -0.417291328 -0.001682177 0.000987013 0.0 0.0 0.0 0.0
825022500.0 1.092197176 -0.155884064 -0.000500348 -0.000139724 0.0 0.0 0.0 0.0
840022000.0 1.095491048 0.115089888 -0.000925885 0.000769133 0.0 0.0 0.0 0.0
855021500.0 1.038750768 0.370997664 -0.000956634 0.000552176 0.0 0.0 0.0 0.0
870021000.0 0.928215872 0.585338688 -0.001074566 -0.000894861 0.0 0.0 0.0 0.0
885020500.0 0.775527872 0.755424512 -0.000376734 -0.000404826 0.0 0.0 0.0 0.0
900020000.0 0.619081088 0.9340144 0.00372615 -0.000217753 0.0 0.0 0.0 0.0
915019500.0 0.421394752 1.033657192 2.3472e-05 7.8196e-05 0.0 0.0 0.0 0.0
930019000.0 0.211520336 1.093311784 -0.000258256 -0.000384861 0.0 0.0 0.0 0.0
945018500.0 0.020579038 1.110649824 0.001431081 -0.000984898 0.0 0.0 0.0 0.0
960018000.0 -0.177771408 1.09015012 0.001734495 0.001005296 0.0 0.0 0.0 0.0
975017500.0 -0.379570368 1.04470432 -0.000705641 -0.004203149 0.0 0.0 0.0 0.0
990017000.0 -0.542606976 0.966010112 0.001054975 -0.000379796 0.0 0.0 0.0 0.0
1005016500.0 -0.69603584 0.859680832 0.000534126 -0.001775327 0.0 0.0 0.0 0.0
1020016000.0 -0.849167936 0.716859584 0.003193704 -0.002669886 0.0 0.0 0.0 0.0
1035015500.0 -0.959227584 0.56875648 0.001176701 0.000272154 0.0 0.0 0.0 0.0
1050015000.0 -1.062233092 0.416478688 0.001707616 0.002553054 0.0 0.0 0.0 0.0
1065014500.0 -1.11962628 0.178093504 0.004976868 0.000916183 0.0 0.0 0.0 0.0
1080014000.0 -1.135418528 -0.032106768 0.001319242 0.001383746 0.0 0.0 0.0 0.0
1095013500.0 -1.122397184 -0.265617072 0.000673881 -0.000855893 0.0 0.0 0.0 0.0
1110013000.0 -1.061907172 -0.49653728 -0.000980925 -0.000113216 0.0 0.0 0.0 0.0
1125012500.0 -0.94660416 -0.721221184 0.000376928 -0.000437448 0.0 0.0 0.0 0.0
1140012000.0 -0.796985152 -0.9213216 0.002404948 -0.004097506 0.0 0.0 0.0 0.0
1155011500.0 -0.608461888 -1.081105112 -0.000970774 -0.004485276 0.0 0.0 0.0 0.0
1170011000.0 -0.277468128 -1.262041216 -0.000179735 -0.003018185 0.0 0.0 0.0 0.0
1185010500.0 0.032044486 -1.359983328 0.003820971 0.000809212 0.0 0.0 0.0 0.0
1200010000.0 0.429534496 -1.353035328 0.00024154 0.002667016 0.0 0.0 0.0 0.0
1215009500.0 0.869026752 -1.22634136 0.010621976 -0.002499194 0.0 0.0 0.0 0.0
1230009000.0 1.295439008 -0.871927232 -0.00308876 -0.004217151 0.0 0.0 0.0 0.0
1245008500.0 1.498846048 -0.396964288 0.002672238 0.002205556 0.0 0.0 0.0 0.0
1260008000.0 1.442735904 0.083655704 0.01040409 -0.00329287 0.0 0.0 0.0 0.0
1275007500.0 1.278391488 0.471489536 0.001505412 0.004958095 0.0 0.0 0.0 0.0
1290007000.0 1.065597176 0.737792512 -0.00238593 -0.003825523 0.0 0.0 0.0 0.0
1305006500.0 0.818171776 0.882849216 0.00368986 -0.000954252 0.0 0.0 0.0 0.0
1320006000.0 0.586535808 0.95531392 0.00193942 -0.001168738 0.0 0.0 0.0 0.0
1335005500.0 0.424812896 0.974250176 -0.000997193 0.005206898 0.0 0.0 0.0 0.0
1350005000.0 0.291852896 1.01788187 0.000432696 -0.002366995 0.0 0.0 0.0 0.0
1365004500.0 0.189672224 1.058763148 0.003062306 -0.001663009 0.0 0.0 0.0 0.0
1380004000.0 0.062685324 1.093963264 0.006485754 -0.000801077 0.0 0.0 0.0 0.0
1395003500.0 -0.053142608 1.148492576 -0.010908308 0.004805996 0.0 0.0 0.0 0.0
1410003000.0 -0.186072384 1.224017024 -0.005267327 -0.003371983 0.0 0.0 0.0 0.0
1425002500.0 -0.43456336 1.363906848 -0.000763803 -0.000878434 0.0 0.0 0.0 0.0
1440002000.0 -0.779853632 1.426272992 -0.000288584 0.019987968 0.0 0.0 0.0 0.0
1455001500.0 -1.351089824 1.331527712 -0.023092556 -0.006766713 0.0 0.0 0.0 0.0
1470001000.0 -1.9295248 0.620412864 -0.00925002 0.01906715 0.0 0.0 0.0 0.0
1485000500.0 -1.736949568 -0.1087456 -0.007024863 0.000344611 0.0 0.0 0.0 0.0
1500000000.0 -1.395522464 -0.400372192 -0.003645883 -0.005715214 0.0 0.0 0.0 0.0
