! Created with skrf 1.8.0 (http://scikit-rf.org).
# Hz S RI R 50.0 
!freq ReS11 ImS11 ReS21 ImS21 ReS12 ImS12 ReS22 ImS22
50000.0 0.999092224 0.00232872 9.8183e-05 -5.6578e-05 0.0 0.0 0.0 0.0
15049500.0 0.977679872 0.22037304 1.0548e-05 -2.0723e-05 0.0 0.0 0.0 0.0
30049000.0 0.908127104 0.428375968 1.239e-06 1.5968e-05 0.0 0.0 0.0 0.0
45048500.0 0.794588352 0.616118848 4.6876e-05 5.3234e-05 0.0 0.0 0.0 0.0
60048000.0 0.645423744 0.773552192 5.994e-06 1.71e-06 0.0 0.0 0.0 0.0
75047500.0 0.466297568 0.8972576 8.2395e-05 6.7477e-05 0.0 0.0 0.0 0.0
90047000.0 0.252511264 0.982695744 -2.3886e-05 2.978e-05 0.0 0.0 0.0 0.0
105046500.0 0.032521628 1.014478804 -3.9837e-05 4.4246e-05 0.0 0.0 0.0 0.0
120046000.0 -0.188964464 0.999513344 -5.6602e-05 8.3782e-05 0.0 0.0 0.0 0.0
135045500.0 -0.403435328 0.935729664 -5.0764e-05 5.6252e-05 0.0 0.0 0.0 0.0
150045000.0 -0.602330944 0.825673472 -2.3089e-05 0.000116833 0.0 0.0 0.0 0.0
165044500.0 -0.77077824 0.6723792 1.1015e-05 0.000109198 0.0 0.0 0.0 0.0
180044000.0 -0.900788864 0.485162496 2.3248e-05 5.6181e-05 0.0 0.0 0.0 0.0
195043500.0 -0.988502912 0.273258368 4.63e-06 4.5337e-05 0.0 0.0 0.0 0.0
210043000.0 -1.026434422 0.044575204 -3.205e-05 5.1441e-05 0.0 0.0 0.0 0.0
225042500.0 -1.0107646 -0.18932608 -6.6402e-05 7.3368e-05 0.0 0.0 0.0 0.0
240042000.0 -0.94051232 -0.414719744 -0.000100787 3.864e-05 0.0 0.0 0.0 0.0
255041500.0 -0.821497216 -0.618546048 -0.000107744 4.8492e-05 0.0 0.0 0.0 0.0
270041000.0 -0.657718144 -0.7900912 -6.2622e-05 4.9585e-05 0.0 0.0 0.0 0.0
285040500.0 -0.459409376 -0.92060128 -4.2341e-05 4.3073e-05 0.0 0.0 0.0 0.0
300040000.0 -0.238229088 -0.990775808 0.000328522 0.000205377 0.0 0.0 0.0 0.0
315039500.0 -0.004520501 -1.017173528 0.000389748 0.000429597 0.0 0.0 0.0 0.0
330039000.0 0.226041376 -0.993998592 -2.5162e-05 0.00035965 0.0 0.0 0.0 0.0
345038500.0 0.447661024 -0.918212544 -5.0051e-05 -1.6635e-05 0.0 0.0 0.0 0.0
360038000.0 0.64537216 -0.796661696 -0.000132886 0.000129292 0.0 0.0 0.0 0.0
375037500.0 0.809564288 -0.637275776 0.000138523 0.000349345 0.0 0.0 0.0 0.0
390037000.0 0.945654208 -0.455961856 0.000445176 -0.00021681 0.0 0.0 0.0 0.0
405036500.0 1.015595078 -0.2419612 -0.000296175 -0.000861206 0.0 0.0 0.0 0.0
420036000.0 1.056883456 -0.015497412 -0.000280977 -0.000821727 0.0 0.0 0.0 0.0
435035500.0 1.047762036 0.218838192 0.000606219 -0.000239353 0.0 0.0 0.0 0.0
450035000.0 0.985804224 0.448504992 0.00013771 -0.000373349 0.0 0.0 0.0 0.0
465034500.0 0.864541952 0.66054752 0.000138838 -0.000874058 0.0 0.0 0.0 0.0
480034000.0 0.70544864 0.835013568 0.000571739 -0.000634676 0.0 0.0 0.0 0.0
495033500.0 0.5156632 0.9705504 0.000245423 -0.000657327 0.0 0.0 0.0 0.0
510033000.0 0.297921632 1.055598856 0.000899475 -0.000498999 0.0 0.0 0.0 0.0
525032500.0 0.07729268 1.093868136 0.000241349 -0.000619294 0.0 0.0 0.0 0.0
540032000.0 -0.148484384 1.08349836 -0.000336601 -0.001051065 0.0 0.0 0.0 0.0
555031500.0 -0.362630464 1.024469614 -0.000822038 -0.00048942 0.0 0.0 0.0 0.0
570031000.0 -0.559382528 0.927848896 0.000296612 -0.000330829 0.0 0.0 0.0 0.0
585030500.0 -0.731951488 0.789385856 0.000427891 -0.000904696 0.0 0.0 0.0 0.0
600030000.0 -0.879052352 0.637338432 0.000354548 -0.000872201 0.0 0.0 0.0 0.0
615029500.0 -0.98914688 0.436224512 0.000854482 -0.000310325 0.0 0.0 0.0 0.0
630029000.0 -1.051727772 0.218673248 0.000982151 -0.000998483 0.0 0.0 0.0 0.0
645028500.0 -1.07556784 -0.018283182 0.001044912 -0.000586364 0.0 0.0 0.0 0.0
660028000.0 -1.036849616 -0.256345696 0.00078804 0.000423578 0.0 0.0 0.0 0.0
675027500.0 -0.942601984 -0.477137568 0.001175094 -0.000280495 0.0 0.0 0.0 0.0
690027000.0 -0.80242016 -0.689341888 0.000583942 0.000682903 0.0 0.0 0.0 0.0
705026500.0 -0.617769664 -0.85502272 0.00099582 9.9447e-05 0.0 0.0 0.0 0.0
720026000.0 -0.391519936 -0.980761472 0.000674657 -0.000427275 0.0 0.0 0.0 0.0
735025500.0 -0.134693888 -1.045974492 -0.000240011 0.000443035 0.0 0.0 0.0 0.0
750025000.0 0.138517904 -1.06040132 0.000303733 0.000658167 0.0 0.0 0.0 0.0
765024500.0 0.40483168 -0.996510272 0.000544522 0.000472688 0.0 0.0 0.0 0.0
780024000.0 0.63183904 -0.858266944 -0.000598553 0.000470288 0.0 0.0 0.0 0.0
795023500.0 0.871813824 -0.677012992 0.000350673 0.000745038 0.0 0.0 0.0 0.0
810023000.0 1.017291546 -0.428609568 -0.000773733 0.00047461 0.0 0.0 0.0 0.0
825022500.0 1.100524424 -0.160675312 -0.00067461 -0.000364244 0.0 0.0 0.0 0.0
840022000.0 1.103276256 0.106947192 -0.000734745 0.000457748 0.0 0.0 0.0 0.0
855021500.0 1.047053336 0.363844384 -0.001087151 0.000257513 0.0 0.0 0.0 0.0
870021000.0 0.919836928 0.584069824 -0.001166445 -0.000912741 0.0 0.0 0.0 0.0
885020500.0 0.779918784 0.757384128 -0.000705456 -0.000201969 0.0 0.0 0.0 0.0
900020000.0 0.627500736 0.924049408 0.000839994 0.000883242 0.0 0.0 0.0 0.0
915019500.0 0.426403168 1.02578628 -0.000917781 0.000985183 0.0 0.0 0.0 0.0
930019000.0 0.229100032 1.08845532 0.000276906 -0.0001169 0.0 0.0 0.0 0.0
945018500.0 0.023891414 1.10787976 -7.7566e-05 -0.004506589 0.0 0.0 0.0 0.0
960018000.0 -0.172954896 1.087850928 0.001060698 3.368e-05 0.0 0.0 0.0 0.0
975017500.0 -0.360244416 1.029959678 0.003173061 -0.000624429 0.0 0.0 0.0 0.0
990017000.0 -0.532503072 0.95810432 0.004513772 -0.001411764 0.0 0.0 0.0 0.0
1005016500.0 -0.68330496 0.856847168 0.005295385 0.000112568 0.0 0.0 0.0 0.0
1020016000.0 -0.819844288 0.731358592 0.001628726 0.003191043 0.0 0.0 0.0 0.0
1035015500.0 -0.950573184 0.57298336 0.003596562 -0.001847544 0.0 0.0 0.0 0.0
1050015000.0 -1.010514022 0.395438752 0.003384202 -0.001574324 0.0 0.0 0.0 0.0
1065014500.0 -1.10423052 0.194492448 0.002888847 -0.001937114 0.0 0.0 0.0 0.0
1080014000.0 -1.127434848 -0.021307586 0.006392643 -0.000998344 0.0 0.0 0.0 0.0
1095013500.0 -1.105867384 -0.23512064 0.002959834 0.001505326 0.0 0.0 0.0 0.0
1110013000.0 -1.041895388 -0.467385408 0.00206045 -0.004066427 0.0 0.0 0.0 0.0
1125012500.0 -0.949060608 -0.705509824 0.003133055 4.2581e-05 0.0 0.0 0.0 0.0
1140012000.0 -0.765138944 -0.898352064 0.003088173 -0.003187321 0.0 0.0 0.0 0.0
1155011500.0 -0.588086208 -1.11779296 0.001334241 -0.000663051 0.0 0.0 0.0 0.0
1170011000.0 -0.302212032 -1.187548272 -0.000535854 -0.000582656 0.0 0.0 0.0 0.0
1185010500.0 0.056732064 -1.321570048 0.001789757 -0.001502434 0.0 0.0 0.0 0.0
1200010000.0 0.453498912 -1.311080352 -4.7386e-05 0.00299768 0.0 0.0 0.0 0.0
1215009500.0 0.83928608 -1.162632352 0.002255713 -0.000877302 0.0 0.0 0.0 0.0
1230009000.0 1.223877792 -0.843215872 0.002563131 -0.002450751 0.0 0.0 0.0 0.0
1245008500.0 1.434523232 -0.368008352 0.002775131 0.002642547 0.0 0.0 0.0 0.0
1260008000.0 1.430928 0.108781592 0.003355897 0.00332581 0.0 0.0 0.0 0.0
1275007500.0 1.249134784 0.464603136 -0.004113671 0.000193132 0.0 0.0 0.0 0.0
1290007000.0 1.006030321 0.718938432 0.002818047 0.000294236 0.0 0.0 0.0 0.0
1305006500.0 0.77739808 0.85276064 0.002631764 -0.000567354 0.0 0.0 0.0 0.0
1320006000.0 0.565728576 0.921634496 0.003231037 0.001174296 0.0 0.0 0.0 0.0
1335005500.0 0.420099488 0.962793536 0.000318333 0.003732545 0.0 0.0 0.0 0.0
1350005000.0 0.287765376 0.971185088 -0.002229616 0.005498429 0.0 0.0 0.0 0.0
1365004500.0 0.21731168 1.013418556 -0.00113006 0.000314737 0.0 0.0 0.0 0.0
1380004000.0 0.061430324 1.064843176 0.002206461 0.005030659 0.0 0.0 0.0 0.0
1395003500.0 -0.067017792 1.109205008 0.003739499 0.003109079 0.0 0.0 0.0 0.0
1410003000.0 -0.182215888 1.21415984 -0.003273093 0.000522541 0.0 0.0 0.0 0.0
1425002500.0 -0.391662656 1.317908512 0.003927992 0.012317736 0.0 0.0 0.0 0.0
1440002000.0 -0.784577216 1.423089024 -0.007067288 0.000612489 0.0 0.0 0.0 0.0
1455001500.0 -1.355200992 1.298514976 -0.008120006 0.014336842 0.0 0.0 0.0 0.0
1470001000.0 -1.901591424 0.635403328 -0.013821444 0.011363994 0.0 0.0 0.0 0.0
1485000500.0 -1.738878976 -0.091033872 -0.017271554 0.00790572 0.0 0.0 0.0 0.0
1500000000.0 -1.398599264 -0.407610688 -0.010775426 0.014981796 0.0 0.0 0.0 0.0
