! Created with skrf 1.8.0 (http://scikit-rf.org).
# Hz S RI R 50.0 
!freq ReS11 ImS11 ReS21 ImS21 ReS12 ImS12 ReS22 ImS22
50000.0 0.008708548 -0.004572055 0.99596288 -0.000148112 0.0 0.0 0.0 0.0
15049500.0 0.012989466 0.005588142 0.999966208 0.026576532 0.0 0.0 0.0 0.0
30049000.0 0.013273408 0.009346318 0.999164416 0.052704084 0.0 0.0 0.0 0.0
45048500.0 0.01264912 0.013120386 0.997436032 0.078193648 0.0 0.0 0.0 0.0
60048000.0 0.011236092 0.017177954 0.995487552 0.103233344 0.0 0.0 0.0 0.0
75047500.0 0.009630648 0.022198386 0.993055488 0.1289998 0.0 0.0 0.0 0.0
90047000.0 0.00826632 0.027133452 0.988330048 0.155956112 0.0 0.0 0.0 0.0
105046500.0 0.007341682 0.03243618 0.985137344 0.18051192 0.0 0.0 0.0 0.0
120046000.0 0.007345045 0.038167684 0.98034848 0.205039344 0.0 0.0 0.0 0.0
135045500.0 0.008630704 0.043847276 0.97395744 0.228835712 0.0 0.0 0.0 0.0
150045000.0 0.01085584 0.049115872 0.967357184 0.254119392 0.0 0.0 0.0 0.0
165044500.0 0.014036166 0.053463824 0.959514432 0.278553504 0.0 0.0 0.0 0.0
180044000.0 0.018338514 0.056823592 0.951120512 0.304035232 0.0 0.0 0.0 0.0
195043500.0 0.023264776 0.059001304 0.94275712 0.32994704 0.0 0.0 0.0 0.0
210043000.0 0.028597638 0.05998 0.933730048 0.356048448 0.0 0.0 0.0 0.0
225042500.0 0.033802072 0.059543156 0.925702976 0.382652544 0.0 0.0 0.0 0.0
240042000.0 0.038606516 0.057811044 0.918387008 0.40869232 0.0 0.0 0.0 0.0
255041500.0 0.042754664 0.05512792 0.911101376 0.434098816 0.0 0.0 0.0 0.0
270041000.0 0.045494352 0.051510412 0.903261504 0.457300416 0.0 0.0 0.0 0.0
285040500.0 0.046684852 0.047657272 0.896855616 0.479965088 0.0 0.0 0.0 0.0
300040000.0 0.046047668 0.043069664 0.88671296 0.497840832 0.0 0.0 0.0 0.0
315039500.0 0.044264604 0.039628192 0.876932224 0.51817776 0.0 0.0 0.0 0.0
330039000.0 0.040106172 0.036907612 0.862710208 0.532998336 0.0 0.0 0.0 0.0
345038500.0 0.033694536 0.034839368 0.8492128 0.552717888 0.0 0.0 0.0 0.0
360038000.0 0.025223134 0.03462878 0.8341424 0.570180416 0.0 0.0 0.0 0.0
375037500.0 0.015841072 0.03502126 0.813808 0.59032352 0.0 0.0 0.0 0.0
390037000.0 0.00314611 0.037089264 0.799882368 0.611530048 0.0 0.0 0.0 0.0
405036500.0 -0.007980266 0.042660012 0.77704992 0.63273824 0.0 0.0 0.0 0.0
420036000.0 -0.019968986 0.049620776 0.759613184 0.656458304 0.0 0.0 0.0 0.0
435035500.0 -0.032265782 0.058182336 0.73983392 0.681484416 0.0 0.0 0.0 0.0
450035000.0 -0.04235536 0.067085148 0.726940544 0.701896832 0.0 0.0 0.0 0.0
465034500.0 -0.052873904 0.077025856 0.706789376 0.724109632 0.0 0.0 0.0 0.0
480034000.0 -0.061795316 0.088905704 0.68938432 0.742546816 0.0 0.0 0.0 0.0
495033500.0 -0.06851868 0.100341552 0.668558912 0.757042048 0.0 0.0 0.0 0.0
510033000.0 -0.073315896 0.11178892 0.648738432 0.773131072 0.0 0.0 0.0 0.0
525032500.0 -0.077035424 0.12368224 0.624543872 0.789500544 0.0 0.0 0.0 0.0
540032000.0 -0.076184016 0.134672192 0.600128128 0.806125312 0.0 0.0 0.0 0.0
555031500.0 -0.07433548 0.146699632 0.5743072 0.8216464 0.0 0.0 0.0 0.0
570031000.0 -0.069587808 0.156270928 0.549722432 0.838913856 0.0 0.0 0.0 0.0
585030500.0 -0.064963228 0.161973072 0.524815552 0.858457984 0.0 0.0 0.0 0.0
600030000.0 -0.056517028 0.172032112 0.507316544 0.88789824 0.0 0.0 0.0 0.0
615029500.0 -0.04672392 0.175184192 0.48746784 0.907351104 0.0 0.0 0.0 0.0
630029000.0 -0.038206864 0.176417744 0.467037632 0.925753088 0.0 0.0 0.0 0.0
645028500.0 -0.026809806 0.174153216 0.449650368 0.942843136 0.0 0.0 0.0 0.0
660028000.0 -0.015236132 0.170709952 0.4353672 0.95627104 0.0 0.0 0.0 0.0
675027500.0 -0.004950647 0.164141024 0.416541024 0.965988352 0.0 0.0 0.0 0.0
690027000.0 0.005557207 0.157498544 0.396881056 0.974325504 0.0 0.0 0.0 0.0
705026500.0 0.01295638 0.147496256 0.378651616 0.976483648 0.0 0.0 0.0 0.0
720026000.0 0.019807884 0.13695824 0.35731456 0.978584448 0.0 0.0 0.0 0.0
735025500.0 0.023755692 0.126082584 0.328677952 0.979363456 0.0 0.0 0.0 0.0
750025000.0 0.023912184 0.112948928 0.294127488 0.980237248 0.0 0.0 0.0 0.0
765024500.0 0.02169164 0.100501424 0.263835456 0.981680768 0.0 0.0 0.0 0.0
780024000.0 0.014220894 0.09214092 0.242865824 0.983325888 0.0 0.0 0.0 0.0
795023500.0 0.009357446 0.077796 0.194866448 0.97980256 0.0 0.0 0.0 0.0
810023000.0 -0.000136326 0.067086504 0.165397584 0.982989056 0.0 0.0 0.0 0.0
825022500.0 -0.015277626 0.057237192 0.135472576 0.9830544 0.0 0.0 0.0 0.0
840022000.0 -0.030637412 0.050194792 0.1086186 0.985718784 0.0 0.0 0.0 0.0
855021500.0 -0.047498124 0.044856308 0.089727056 0.984719168 0.0 0.0 0.0 0.0
870021000.0 -0.06467212 0.04163564 0.070805168 0.983042432 0.0 0.0 0.0 0.0
885020500.0 -0.085042464 0.044281336 0.053245292 0.981252032 0.0 0.0 0.0 0.0
900020000.0 -0.097816424 0.059229372 0.054424536 0.973113088 0.0 0.0 0.0 0.0
915019500.0 -0.110161408 0.0617763 0.03419518 0.970065856 0.0 0.0 0.0 0.0
930019000.0 -0.13179368 0.067438912 0.004153941 0.966253888 0.0 0.0 0.0 0.0
945018500.0 -0.147945344 0.081551064 -0.01843517 0.965892224 0.0 0.0 0.0 0.0
960018000.0 -0.16180512 0.099454928 -0.043031252 0.965508224 0.0 0.0 0.0 0.0
975017500.0 -0.170546304 0.11242748 -0.070814104 0.968765504 0.0 0.0 0.0 0.0
990017000.0 -0.182506688 0.122139144 -0.093298456 0.962345472 0.0 0.0 0.0 0.0
1005016500.0 -0.181289632 0.138216352 -0.116967256 0.968213952 0.0 0.0 0.0 0.0
1020016000.0 -0.186690368 0.152397536 -0.130323384 0.970511552 0.0 0.0 0.0 0.0
1035015500.0 -0.174807296 0.161010784 -0.1465908 0.976664 0.0 0.0 0.0 0.0
1050015000.0 -0.167278784 0.179412576 -0.148382368 0.963797248 0.0 0.0 0.0 0.0
1065014500.0 -0.160145216 0.185375968 -0.169630352 0.975526144 0.0 0.0 0.0 0.0
1080014000.0 -0.141630496 0.195015904 -0.1758692 0.986967424 0.0 0.0 0.0 0.0
1095013500.0 -0.127212376 0.207380848 -0.197204912 0.97272352 0.0 0.0 0.0 0.0
1110013000.0 -0.121674296 0.218774464 -0.200817056 0.966098816 0.0 0.0 0.0 0.0
1125012500.0 -0.11076552 0.230480528 -0.23050264 0.976263424 0.0 0.0 0.0 0.0
1140012000.0 -0.095792816 0.22876576 -0.248872032 0.952250624 0.0 0.0 0.0 0.0
1155011500.0 -0.085003048 0.218017488 -0.24141912 0.950093056 0.0 0.0 0.0 0.0
1170011000.0 -0.07622816 0.219405696 -0.300948576 0.9577216 0.0 0.0 0.0 0.0
1185010500.0 -0.071863544 0.197022208 -0.33297408 0.928554688 0.0 0.0 0.0 0.0
1200010000.0 -0.06243714 0.192984512 -0.362125344 0.937153728 0.0 0.0 0.0 0.0
1215009500.0 -0.057787208 0.170512528 -0.39509072 0.94409504 0.0 0.0 0.0 0.0
1230009000.0 -0.045278472 0.165992336 -0.420755232 0.928535232 0.0 0.0 0.0 0.0
1245008500.0 -0.043669112 0.152626224 -0.442789344 0.955943424 0.0 0.0 0.0 0.0
1260008000.0 -0.05836306 0.1223682 -0.458618144 0.948008768 0.0 0.0 0.0 0.0
1275007500.0 -0.053127824 0.094202976 -0.466577152 0.956583744 0.0 0.0 0.0 0.0
1290007000.0 -0.065532148 0.076732472 -0.498656256 0.949222464 0.0 0.0 0.0 0.0
1305006500.0 -0.075611672 0.039465544 -0.4890656 0.960944768 0.0 0.0 0.0 0.0
1320006000.0 -0.090364904 0.038732916 -0.497540736 0.968132928 0.0 0.0 0.0 0.0
1335005500.0 -0.07740172 0.034005352 -0.50604016 0.954068096 0.0 0.0 0.0 0.0
1350005000.0 -0.107238272 0.04153964 -0.53676832 0.984758912 0.0 0.0 0.0 0.0
1365004500.0 -0.112220464 0.030488604 -0.545201984 0.99317184 0.0 0.0 0.0 0.0
1380004000.0 -0.148775504 0.026697354 -0.5765296 1.034528852 0.0 0.0 0.0 0.0
1395003500.0 -0.176373504 0.051949412 -0.581465344 1.08024812 0.0 0.0 0.0 0.0
1410003000.0 -0.183375504 0.071629664 -0.681910016 1.070433024 0.0 0.0 0.0 0.0
1425002500.0 -0.247215392 0.077876744 -0.720126336 1.139554736 0.0 0.0 0.0 0.0
1440002000.0 -0.28745632 0.095239056 -0.806157568 1.178473952 0.0 0.0 0.0 0.0
1455001500.0 -0.331236128 0.11788688 -0.932892096 1.155018928 0.0 0.0 0.0 0.0
1470001000.0 -0.425926944 -0.031371382 -1.06557536 1.14980912 0.0 0.0 0.0 0.0
1485000500.0 -0.429295072 0.003423338 -1.216666704 1.070308208 0.0 0.0 0.0 0.0
1500000000.0 -0.427285984 -0.003629455 -1.338673472 0.910756992 0.0 0.0 0.0 0.0
