! Created with skrf 1.8.0 (http://scikit-rf.org).
# Hz S RI R 50.0 
!freq ReS11 ImS11 ReS21 ImS21 ReS12 ImS12 ReS22 ImS22
50000.0 -0.991382272 -0.00033588 -4.1691e-05 0.00016135 0.0 0.0 0.0 0.0
15049500.0 -0.988712512 -0.01066492 -1.2622e-05 -3.1019e-05 0.0 0.0 0.0 0.0
30049000.0 -0.987615168 -0.023777152 -1.9576e-05 7.05e-07 0.0 0.0 0.0 0.0
45048500.0 -0.986764992 -0.037236528 7.138e-06 3.1139e-05 0.0 0.0 0.0 0.0
60048000.0 -0.985863552 -0.050605264 -1.5048e-05 5.3657e-05 0.0 0.0 0.0 0.0
75047500.0 -0.985723904 -0.065359144 3.8978e-05 1.5507e-05 0.0 0.0 0.0 0.0
90047000.0 -0.984123648 -0.08119168 2.3329e-05 5.1248e-05 0.0 0.0 0.0 0.0
105046500.0 -0.983596928 -0.09638324 -1.3044e-05 6.3448e-05 0.0 0.0 0.0 0.0
120046000.0 -0.98248288 -0.112552208 1.5422e-05 6.4322e-05 0.0 0.0 0.0 0.0
135045500.0 -0.98232224 -0.128999992 -8.6548e-05 4.7633e-05 0.0 0.0 0.0 0.0
150045000.0 -0.979762688 -0.145413344 -2.0575e-05 0.000121115 0.0 0.0 0.0 0.0
165044500.0 -0.97852832 -0.16201568 -1.1556e-05 8.35e-05 0.0 0.0 0.0 0.0
180044000.0 -0.977284992 -0.178856976 -4.6365e-05 2.0011e-05 0.0 0.0 0.0 0.0
195043500.0 -0.975784448 -0.19479344 -4.8788e-05 4.0089e-05 0.0 0.0 0.0 0.0
210043000.0 -0.971786112 -0.211579728 -4.0972e-05 5.7706e-05 0.0 0.0 0.0 0.0
225042500.0 -0.96767488 -0.227308624 -8.1403e-05 2.2257e-05 0.0 0.0 0.0 0.0
240042000.0 -0.962396864 -0.241618544 -7.5949e-05 7.0193e-05 0.0 0.0 0.0 0.0
255041500.0 -0.957526528 -0.254715776 -8.0929e-05 4.3062e-05 0.0 0.0 0.0 0.0
270041000.0 -0.95263456 -0.26759312 -7.7316e-05 1.1883e-05 0.0 0.0 0.0 0.0
285040500.0 -0.947514368 -0.278261984 -5.3152e-05 8.9594e-05 0.0 0.0 0.0 0.0
300040000.0 -0.942597632 -0.288240384 0.000741929 0.000196957 0.0 0.0 0.0 0.0
315039500.0 -0.935235584 -0.29490112 -0.000623883 0.000328939 0.0 0.0 0.0 0.0
330039000.0 -0.930575872 -0.302229632 0.000505279 -0.000177045 0.0 0.0 0.0 0.0
345038500.0 -0.924473408 -0.311588992 -0.000370883 -0.000297495 0.0 0.0 0.0 0.0
360038000.0 -0.917778048 -0.319598272 -3.9569e-05 -0.000359391 0.0 0.0 0.0 0.0
375037500.0 -0.911179328 -0.328401728 0.000301819 -8.5598e-05 0.0 0.0 0.0 0.0
390037000.0 -0.90146752 -0.334129024 -0.000930499 -0.000300567 0.0 0.0 0.0 0.0
405036500.0 -0.898155008 -0.345789952 -0.000242594 -1.2035e-05 0.0 0.0 0.0 0.0
420036000.0 -0.8927088 -0.354104512 -0.000107222 -0.000395991 0.0 0.0 0.0 0.0
435035500.0 -0.886583488 -0.367534272 -0.00032255 0.000269363 0.0 0.0 0.0 0.0
450035000.0 -0.874751488 -0.37982528 0.000397728 -0.000298987 0.0 0.0 0.0 0.0
465034500.0 -0.871672064 -0.389962816 0.000265847 -0.000605195 0.0 0.0 0.0 0.0
480034000.0 -0.864534336 -0.401082912 0.000308203 -0.001040507 0.0 0.0 0.0 0.0
495033500.0 -0.856852672 -0.416081632 -0.000494416 -4.624e-05 0.0 0.0 0.0 0.0
510033000.0 -0.847955072 -0.42823552 -0.000203206 -0.000690563 0.0 0.0 0.0 0.0
525032500.0 -0.843517632 -0.44199584 -6.6646e-05 -0.00098405 0.0 0.0 0.0 0.0
540032000.0 -0.838555968 -0.458695936 0.000207626 -0.001185202 0.0 0.0 0.0 0.0
555031500.0 -0.831498176 -0.474677792 -8.024e-05 -0.000614504 0.0 0.0 0.0 0.0
570031000.0 -0.829041472 -0.49240832 0.000200059 -0.000685139 0.0 0.0 0.0 0.0
585030500.0 -0.822934784 -0.50862992 0.000310622 -0.000146664 0.0 0.0 0.0 0.0
600030000.0 -0.815076096 -0.536718592 -0.000172509 -0.000122217 0.0 0.0 0.0 0.0
615029500.0 -0.803971904 -0.554885504 0.000448593 0.000319919 0.0 0.0 0.0 0.0
630029000.0 -0.79084 -0.572728192 0.000680169 -0.000145303 0.0 0.0 0.0 0.0
645028500.0 -0.77985376 -0.593061568 0.000959801 -0.000653991 0.0 0.0 0.0 0.0
660028000.0 -0.763773184 -0.60530304 0.000101351 -4.9153e-05 0.0 0.0 0.0 0.0
675027500.0 -0.7535024 -0.625521216 -0.000302256 -9.8015e-05 0.0 0.0 0.0 0.0
690027000.0 -0.741400896 -0.635315648 0.001177127 0.000419927 0.0 0.0 0.0 0.0
705026500.0 -0.72610592 -0.640712128 0.001071371 0.000447802 0.0 0.0 0.0 0.0
720026000.0 -0.719831552 -0.650505984 0.000655951 0.001169712 0.0 0.0 0.0 0.0
735025500.0 -0.706668096 -0.655579584 -9.958e-05 0.000379517 0.0 0.0 0.0 0.0
750025000.0 -0.691024704 -0.662616768 0.000260484 0.000957556 0.0 0.0 0.0 0.0
765024500.0 -0.684462528 -0.66561312 -6.1074e-05 0.000387454 0.0 0.0 0.0 0.0
780024000.0 -0.685099968 -0.6674 0.000544323 0.001272953 0.0 0.0 0.0 0.0
795023500.0 -0.670574528 -0.66815968 -0.000267222 0.000657512 0.0 0.0 0.0 0.0
810023000.0 -0.659097024 -0.668962624 0.00054943 0.000706948 0.0 0.0 0.0 0.0
825022500.0 -0.653022336 -0.669219072 -0.000730867 0.000655656 0.0 0.0 0.0 0.0
840022000.0 -0.64588352 -0.670540544 -0.000365204 0.00091492 0.0 0.0 0.0 0.0
855021500.0 -0.637488896 -0.668747328 -0.000875546 -4.3921e-05 0.0 0.0 0.0 0.0
870021000.0 -0.63266368 -0.671845824 -0.000458548 8.0724e-05 0.0 0.0 0.0 0.0
885020500.0 -0.624906688 -0.676576256 -0.000171123 0.000575076 0.0 0.0 0.0 0.0
900020000.0 -0.649163264 -0.660761216 -0.003717133 -0.000250711 0.0 0.0 0.0 0.0
915019500.0 -0.641868992 -0.678370816 -0.002245073 -0.002812421 0.0 0.0 0.0 0.0
930019000.0 -0.635747136 -0.692928384 0.001436468 0.000194715 0.0 0.0 0.0 0.0
945018500.0 -0.626839552 -0.706463296 0.002236054 -0.000170726 0.0 0.0 0.0 0.0
960018000.0 -0.6161136 -0.73123712 -0.000147005 -0.000545425 0.0 0.0 0.0 0.0
975017500.0 -0.598907264 -0.74685248 0.000832908 0.002004676 0.0 0.0 0.0 0.0
990017000.0 -0.571072192 -0.760125696 0.000437345 0.000322062 0.0 0.0 0.0 0.0
1005016500.0 -0.557745792 -0.76702016 0.004170701 -0.002348687 0.0 0.0 0.0 0.0
1020016000.0 -0.534867168 -0.78279072 0.001192349 0.001508517 0.0 0.0 0.0 0.0
1035015500.0 -0.525303008 -0.789726336 0.006710247 -0.002214203 0.0 0.0 0.0 0.0
1050015000.0 -0.468480672 -0.80198592 0.004181284 0.001679844 0.0 0.0 0.0 0.0
1065014500.0 -0.50231488 -0.819951744 -9.9229e-05 0.00043317 0.0 0.0 0.0 0.0
1080014000.0 -0.485735616 -0.842929344 0.00168566 -0.003498278 0.0 0.0 0.0 0.0
1095013500.0 -0.48366128 -0.872654784 -0.000340523 0.000646292 0.0 0.0 0.0 0.0
1110013000.0 -0.488319712 -0.882698048 0.000216726 -0.001814307 0.0 0.0 0.0 0.0
1125012500.0 -0.468431744 -0.920999744 0.0032853 -0.002578893 0.0 0.0 0.0 0.0
1140012000.0 -0.458886336 -0.936764032 -0.000922147 -0.000939722 0.0 0.0 0.0 0.0
1155011500.0 -0.481497248 -0.949281216 -0.001576662 -0.002249788 0.0 0.0 0.0 0.0
1170011000.0 -0.421684224 -0.992735872 0.00906498 -0.001536072 0.0 0.0 0.0 0.0
1185010500.0 -0.381347648 -0.966897792 0.000530798 0.003123276 0.0 0.0 0.0 0.0
1200010000.0 -0.350712352 -0.994046272 -3.764e-05 -0.001625669 0.0 0.0 0.0 0.0
1215009500.0 -0.340336448 -0.97276608 0.001267392 -0.001165414 0.0 0.0 0.0 0.0
1230009000.0 -0.30909648 -0.980505984 0.002199561 0.001446261 0.0 0.0 0.0 0.0
1245008500.0 -0.280570016 -0.955904832 0.001288503 -0.003815649 0.0 0.0 0.0 0.0
1260008000.0 -0.27008432 -0.960545408 -0.003314515 0.004410438 0.0 0.0 0.0 0.0
1275007500.0 -0.233885392 -0.926908224 -0.002449639 0.003237589 0.0 0.0 0.0 0.0
1290007000.0 -0.238507664 -0.923517376 0.000492599 0.001323475 0.0 0.0 0.0 0.0
1305006500.0 -0.252307088 -0.911681728 -0.002452354 -0.000460242 0.0 0.0 0.0 0.0
1320006000.0 -0.238544752 -0.909646272 0.001119624 -0.003011343 0.0 0.0 0.0 0.0
1335005500.0 -0.218378256 -0.934310464 0.002984344 0.001182019 0.0 0.0 0.0 0.0
1350005000.0 -0.220754144 -0.948884992 0.005293118 -0.001437356 0.0 0.0 0.0 0.0
1365004500.0 -0.275437952 -0.928749248 -0.005890988 0.003331387 0.0 0.0 0.0 0.0
1380004000.0 -0.15256352 -1.082669136 0.003275083 -0.004166128 0.0 0.0 0.0 0.0
1395003500.0 -0.145302528 -1.174843312 -0.005745921 0.001248684 0.0 0.0 0.0 0.0
1410003000.0 0.050722228 -1.205717808 -0.006549204 -0.003922125 0.0 0.0 0.0 0.0
1425002500.0 0.102128256 -1.245265488 -0.007242928 -0.000639649 0.0 0.0 0.0 0.0
1440002000.0 0.329066912 -1.213519456 -0.013689754 0.007482968 0.0 0.0 0.0 0.0
1455001500.0 0.425377152 -1.090983984 -0.0185757 0.009627432 0.0 0.0 0.0 0.0
1470001000.0 0.573388928 -0.950186368 -0.016491982 -0.007649728 0.0 0.0 0.0 0.0
1485000500.0 0.576945856 -0.874978688 -0.01664241 0.006879062 0.0 0.0 0.0 0.0
1500000000.0 0.679928832 -0.595968512 -0.00883846 0.001388165 0.0 0.0 0.0 0.0
