! Created with skrf 1.8.0 (http://scikit-rf.org).
# Hz S RI R 50.0 
!freq ReS11 ImS11 ReS21 ImS21 ReS12 ImS12 ReS22 ImS22
50000.0 0.999900288 0.001400266 -6.0355e-05 -0.00011661 0.0 0.0 0.0 0.0
15049500.0 0.977892992 0.220273696 4.2325e-05 -1.792e-06 0.0 0.0 0.0 0.0
30049000.0 0.908350592 0.42797152 4.247e-05 5.081e-05 0.0 0.0 0.0 0.0
45048500.0 0.795059648 0.61667744 2.3592e-05 3.6958e-05 0.0 0.0 0.0 0.0
60048000.0 0.645700736 0.773907584 3.5848e-05 1.6237e-05 0.0 0.0 0.0 0.0
75047500.0 0.466650144 0.897697792 6.2135e-05 2.2913e-05 0.0 0.0 0.0 0.0
90047000.0 0.252654016 0.982893376 1.8608e-05 6.5099e-05 0.0 0.0 0.0 0.0
105046500.0 0.03291877 1.014801502 -4.598e-05 5.0985e-05 0.0 0.0 0.0 0.0
120046000.0 -0.18868192 0.999713984 -6.4226e-05 8.3147e-05 0.0 0.0 0.0 0.0
135045500.0 -0.40405312 0.935530432 -8.63e-06 0.00010267 0.0 0.0 0.0 0.0
150045000.0 -0.60193664 0.82551936 -9.062e-06 0.000120325 0.0 0.0 0.0 0.0
165044500.0 -0.770108416 0.672508224 3.8282e-05 8.1117e-05 0.0 0.0 0.0 0.0
180044000.0 -0.900609728 0.485845376 2.683e-06 6.6496e-05 0.0 0.0 0.0 0.0
195043500.0 -0.988019776 0.273709984 -3.2116e-05 5.9116e-05 0.0 0.0 0.0 0.0
210043000.0 -1.026281356 0.045248968 -6.5498e-05 8.1196e-05 0.0 0.0 0.0 0.0
225042500.0 -1.010586262 -0.18819624 -5.5174e-05 5.8188e-05 0.0 0.0 0.0 0.0
240042000.0 -0.940961344 -0.414065152 -6.5542e-05 1.672e-05 0.0 0.0 0.0 0.0
255041500.0 -0.821395904 -0.617770432 -8.4007e-05 6.7725e-05 0.0 0.0 0.0 0.0
270041000.0 -0.657351232 -0.78961344 -9.9305e-05 1.7833e-05 0.0 0.0 0.0 0.0
285040500.0 -0.459155232 -0.919112832 -6.2547e-05 3.2315e-05 0.0 0.0 0.0 0.0
300040000.0 -0.240786432 -0.990314368 0.000434868 0.000265952 0.0 0.0 0.0 0.0
315039500.0 -0.005139658 -1.017439126 -0.000345851 -1.128e-05 0.0 0.0 0.0 0.0
330039000.0 0.225993712 -0.990499904 -0.000462933 0.000380867 0.0 0.0 0.0 0.0
345038500.0 0.446804576 -0.91968384 1.6269e-05 -0.000142746 0.0 0.0 0.0 0.0
360038000.0 0.646396416 -0.79778976 9.3334e-05 4.488e-06 0.0 0.0 0.0 0.0
375037500.0 0.80827264 -0.635937792 -0.000155504 0.000331466 0.0 0.0 0.0 0.0
390037000.0 0.937661248 -0.44682592 -6.8003e-05 0.000608508 0.0 0.0 0.0 0.0
405036500.0 1.016352892 -0.240703488 0.000172345 0.000349465 0.0 0.0 0.0 0.0
420036000.0 1.053868652 -0.016347298 0.000403542 -0.000140774 0.0 0.0 0.0 0.0
435035500.0 1.044925212 0.22003696 -0.00061915 -0.000362397 0.0 0.0 0.0 0.0
450035000.0 0.987233856 0.44901344 1.0654e-05 -6.4203e-05 0.0 0.0 0.0 0.0
465034500.0 0.864281472 0.661004352 5.5681e-05 -9.0917e-05 0.0 0.0 0.0 0.0
480034000.0 0.7039664 0.834894976 -0.000272921 -0.000386234 0.0 0.0 0.0 0.0
495033500.0 0.514432736 0.966387904 -0.000368729 -0.000216684 0.0 0.0 0.0 0.0
510033000.0 0.3009616 1.052122356 0.000201744 -0.000591564 0.0 0.0 0.0 0.0
525032500.0 0.078925712 1.091312528 0.000294463 -0.000144895 0.0 0.0 0.0 0.0
540032000.0 -0.143743264 1.079898592 0.000203312 -0.000249353 0.0 0.0 0.0 0.0
555031500.0 -0.358324064 1.025002122 0.000430242 -0.000889163 0.0 0.0 0.0 0.0
570031000.0 -0.554202368 0.928088 0.000271118 -0.00065537 0.0 0.0 0.0 0.0
585030500.0 -0.7295008 0.787473152 -0.000201862 -0.000690169 0.0 0.0 0.0 0.0
600030000.0 -0.878577024 0.637282176 0.000757818 0.000622928 0.0 0.0 0.0 0.0
615029500.0 -0.982765632 0.440901824 0.001119509 -0.000361138 0.0 0.0 0.0 0.0
630029000.0 -1.050114036 0.218454368 0.001082395 -0.000604243 0.0 0.0 0.0 0.0
645028500.0 -1.068722728 -0.015678342 0.000683098 -0.000206254 0.0 0.0 0.0 0.0
660028000.0 -1.030936002 -0.253525056 0.000472043 -3.6371e-05 0.0 0.0 0.0 0.0
675027500.0 -0.945560896 -0.479054912 0.000539871 -0.000101553 0.0 0.0 0.0 0.0
690027000.0 -0.80480896 -0.682633856 0.001070874 0.000540207 0.0 0.0 0.0 0.0
705026500.0 -0.6108 -0.855066304 0.000700697 0.000108148 0.0 0.0 0.0 0.0
720026000.0 -0.390341856 -0.975082368 0.000437992 0.001312449 0.0 0.0 0.0 0.0
735025500.0 -0.129249784 -1.04445982 0.00045244 0.000697642 0.0 0.0 0.0 0.0
750025000.0 0.132653488 -1.055945516 0.000783364 0.000514079 0.0 0.0 0.0 0.0
765024500.0 0.413398432 -0.990411328 0.000415078 0.000286283 0.0 0.0 0.0 0.0
780024000.0 0.68690272 -0.874566592 -5.2127e-05 0.001226682 0.0 0.0 0.0 0.0
795023500.0 0.86638112 -0.670749824 -3.5994e-05 0.001114266 0.0 0.0 0.0 0.0
810023000.0 1.021639348 -0.424945824 -0.000157022 0.00077097 0.0 0.0 0.0 0.0
825022500.0 1.096727728 -0.157003728 -0.000170952 0.000700078 0.0 0.0 0.0 0.0
840022000.0 1.10544956 0.12025612 -0.000297863 0.000482561 0.0 0.0 0.0 0.0
855021500.0 1.042747736 0.367051968 -0.001063289 -0.000337022 0.0 0.0 0.0 0.0
870021000.0 0.924460288 0.586566592 -9.14e-07 0.00063219 0.0 0.0 0.0 0.0
885020500.0 0.775940736 0.755891904 -0.000270159 -0.001463226 0.0 0.0 0.0 0.0
900020000.0 0.620907392 0.930654208 -3.227e-06 0.003996694 0.0 0.0 0.0 0.0
915019500.0 0.414805696 1.032653094 -0.001369013 -0.002517537 0.0 0.0 0.0 0.0
930019000.0 0.227115504 1.090950608 0.002037987 -0.001535262 0.0 0.0 0.0 0.0
945018500.0 0.021067406 1.1098448 -0.000366187 -0.000775491 0.0 0.0 0.0 0.0
960018000.0 -0.180260336 1.085571528 -0.000562977 0.000755391 0.0 0.0 0.0 0.0
975017500.0 -0.352305984 1.037508728 -0.000378939 0.000898723 0.0 0.0 0.0 0.0
990017000.0 -0.533065856 0.959717696 0.000670798 -0.001584297 0.0 0.0 0.0 0.0
1005016500.0 -0.691393152 0.853530368 0.002890157 0.000525456 0.0 0.0 0.0 0.0
1020016000.0 -0.814987136 0.717381824 0.002132978 0.000838456 0.0 0.0 0.0 0.0
1035015500.0 -0.959849152 0.563102016 0.001256006 0.000692179 0.0 0.0 0.0 0.0
1050015000.0 -1.020997048 0.386768608 0.004220032 -0.001123691 0.0 0.0 0.0 0.0
1065014500.0 -1.110065576 0.18066672 0.002489195 -0.000902678 0.0 0.0 0.0 0.0
1080014000.0 -1.1217916 -0.022995892 0.002705183 0.001230383 0.0 0.0 0.0 0.0
1095013500.0 -1.114842176 -0.260862592 0.003919318 -0.001654128 0.0 0.0 0.0 0.0
1110013000.0 -1.041006564 -0.48086496 -0.000564949 0.000148951 0.0 0.0 0.0 0.0
1125012500.0 -0.9529312 -0.712930112 0.003915221 -0.001278028 0.0 0.0 0.0 0.0
1140012000.0 -0.78203808 -0.910714368 0.001501545 -0.000446195 0.0 0.0 0.0 0.0
1155011500.0 -0.532013184 -1.122833136 0.004066014 -0.001653914 0.0 0.0 0.0 0.0
1170011000.0 -0.331348736 -1.208778736 -0.001119731 -0.001651158 0.0 0.0 0.0 0.0
1185010500.0 0.032635536 -1.341889984 0.003870763 -9.0577e-05 0.0 0.0 0.0 0.0
1200010000.0 0.4242416 -1.336129312 0.002904945 0.002925934 0.0 0.0 0.0 0.0
1215009500.0 0.873779392 -1.185101632 8.2874e-05 -0.002450793 0.0 0.0 0.0 0.0
1230009000.0 1.263353712 -0.859272768 0.003412234 -0.000572208 0.0 0.0 0.0 0.0
1245008500.0 1.460154048 -0.391931168 0.001794068 -0.000125947 0.0 0.0 0.0 0.0
1260008000.0 1.465649856 0.093086552 -0.001109111 -0.002323132 0.0 0.0 0.0 0.0
1275007500.0 1.260236624 0.496634848 -0.001858634 -0.002368747 0.0 0.0 0.0 0.0
1290007000.0 1.026339054 0.74228128 -0.000222579 -0.000703905 0.0 0.0 0.0 0.0
1305006500.0 0.794840256 0.84328192 -0.008380327 0.000510026 0.0 0.0 0.0 0.0
1320006000.0 0.576641856 0.961548864 0.00193092 0.002878779 0.0 0.0 0.0 0.0
1335005500.0 0.42766752 0.98017728 -0.000729601 -0.00506512 0.0 0.0 0.0 0.0
1350005000.0 0.28554912 1.002611041 -0.002298447 -0.000220577 0.0 0.0 0.0 0.0
1365004500.0 0.195848608 1.003013015 0.002979572 0.005134259 0.0 0.0 0.0 0.0
1380004000.0 0.07242344 1.076661112 -0.002044807 0.003881734 0.0 0.0 0.0 0.0
1395003500.0 -0.027907578 1.11770856 -0.004971401 0.01371548 0.0 0.0 0.0 0.0
1410003000.0 -0.178126944 1.221354368 0.002902588 0.012268594 0.0 0.0 0.0 0.0
1425002500.0 -0.398784704 1.321180832 -0.004322876 0.009491704 0.0 0.0 0.0 0.0
1440002000.0 -0.807301184 1.405911072 0.00863497 -0.005476242 0.0 0.0 0.0 0.0
1455001500.0 -1.361535776 1.33133792 -0.01511423 0.007055608 0.0 0.0 0.0 0.0
1470001000.0 -1.845631936 0.6576768 -0.02080442 -0.001916871 0.0 0.0 0.0 0.0
1485000500.0 -1.727665216 -0.086780248 -0.014214592 -0.000436867 0.0 0.0 0.0 0.0
1500000000.0 -1.375254048 -0.397238304 -0.008369025 -0.01276741 0.0 0.0 0.0 0.0
