! Created with skrf 1.8.0 (http://scikit-rf.org).
# Hz S RI R 50.0 
!freq ReS11 ImS11 ReS21 ImS21 ReS12 ImS12 ReS22 ImS22
50000.0 0.997259648 0.001831565 3.638344330426623e-05 -4.5693443274995646e-05 0.0 0.0 0.0 0.0
15049500.0 0.976197632 0.219422128 7.581944317981958e-05 2.2343116297913986e-05 0.0 0.0 0.0 0.0
30049000.0 0.907240448 0.427847776 2.628016232666918e-05 -1.6599865001978724e-05 0.0 0.0 0.0 0.0
45048500.0 0.79399136 0.615539456 -3.2276801536696804e-05 6.852241755484615e-05 0.0 0.0 0.0 0.0
60048000.0 0.644772736 0.772654912 3.7258134022402444e-05 4.060821653518777e-05 0.0 0.0 0.0 0.0
75047500.0 0.465687808 0.895895744 6.227008065306573e-05 4.537294316507018e-05 0.0 0.0 0.0 0.0
90047000.0 0.252181584 0.981474304 -5.416806338824204e-06 1.8002763920226048e-06 0.0 0.0 0.0 0.0
105046500.0 0.032423754 1.013419272 2.7414895592214724e-05 3.7818744131289786e-05 0.0 0.0 0.0 0.0
120046000.0 -0.189055376 0.998268032 2.1724628629807762e-05 7.427539297032992e-05 0.0 0.0 0.0 0.0
135045500.0 -0.404029984 0.934206144 1.549909092115584e-05 6.68902891055028e-05 0.0 0.0 0.0 0.0
150045000.0 -0.60112 0.823468928 -1.2706669496253177e-05 8.280680252438797e-05 0.0 0.0 0.0 0.0
165044500.0 -0.769553344 0.67156032 3.732535887335834e-05 6.457354466013934e-05 0.0 0.0 0.0 0.0
180044000.0 -0.899464192 0.4848016 -6.6472574981753854e-06 1.703591781363573e-05 0.0 0.0 0.0 0.0
195043500.0 -0.986580608 0.272939616 -5.3359369007124575e-05 6.657615443356212e-05 0.0 0.0 0.0 0.0
210043000.0 -1.024160028 0.044484756 -1.7010655062018204e-05 9.770917717574453e-05 0.0 0.0 0.0 0.0
225042500.0 -1.008340359 -0.188556 -5.787543523107723e-05 0.00012128833599655569 0.0 0.0 0.0 0.0
240042000.0 -0.939528192 -0.413382656 -7.273209750734098e-05 5.5926329775720545e-05 0.0 0.0 0.0 0.0
255041500.0 -0.820259904 -0.616885888 -7.344410969490603e-05 8.013294254626253e-05 0.0 0.0 0.0 0.0
270041000.0 -0.65614912 -0.787751872 -0.00010796112059535551 4.347379436850552e-05 0.0 0.0 0.0 0.0
285040500.0 -0.45708864 -0.917105472 -4.46435106158892e-05 3.7898590961788926e-05 0.0 0.0 0.0 0.0
300040000.0 -0.238209296 -0.987662208 -0.00012910461823647978 8.282966457744962e-05 0.0 0.0 0.0 0.0
315039500.0 -0.005606173 -1.016960382 -0.00010066845516227246 0.00040169917529818443 0.0 0.0 0.0 0.0
330039000.0 0.228751744 -0.99245024 -0.00015727647574456235 -0.00010640943838480723 0.0 0.0 0.0 0.0
345038500.0 0.444950848 -0.917365056 0.0001650202836932711 0.0004825748973193616 0.0 0.0 0.0 0.0
360038000.0 0.642286976 -0.794899904 -0.00023733619457075807 -0.0002975396312471186 0.0 0.0 0.0 0.0
375037500.0 0.805307584 -0.636996288 -0.00021480131171369403 6.270175323766028e-05 0.0 0.0 0.0 0.0
390037000.0 0.93009472 -0.459300768 -0.00016763951725495192 -0.00028694561008059817 0.0 0.0 0.0 0.0
405036500.0 1.010988474 -0.240855552 0.0004799290988673345 -0.00012387000018320915 0.0 0.0 0.0 0.0
420036000.0 1.054296972 -0.015759692 -0.00040675096274673834 -0.0001363255839547424 0.0 0.0 0.0 0.0
435035500.0 1.043868184 0.217528432 0.00016611414192952532 -0.0003667141592235259 0.0 0.0 0.0 0.0
450035000.0 0.978293312 0.447722432 0.00012242312467647038 -0.00038900439463385167 0.0 0.0 0.0 0.0
465034500.0 0.866569536 0.660156736 -0.0001686942975670052 -0.00025982282441189557 0.0 0.0 0.0 0.0
480034000.0 0.707743872 0.833682176 -0.0006787270489976036 -0.0007563152662554186 0.0 0.0 0.0 0.0
495033500.0 0.51334448 0.9646528 0.0001457826582921885 -0.0014829414377534478 0.0 0.0 0.0 0.0
510033000.0 0.303643648 1.049583436 -2.3908036449310904e-05 -0.0003807701190720438 0.0 0.0 0.0 0.0
525032500.0 0.077550376 1.087258216 0.0010919596449214513 -0.0009484568609694477 0.0 0.0 0.0 0.0
540032000.0 -0.147469648 1.076259848 0.00042091310595545245 -0.0007018055655271865 0.0 0.0 0.0 0.0
555031500.0 -0.3600616 1.020329714 5.1699363697215574e-05 -0.0007107184908761718 0.0 0.0 0.0 0.0
570031000.0 -0.55999264 0.92329664 0.0005049348274563207 -0.000795832392302962 0.0 0.0 0.0 0.0
585030500.0 -0.727449792 0.781973632 0.0001126511666363778 -0.00042059866548583224 0.0 0.0 0.0 0.0
600030000.0 -0.872410816 0.636262336 -0.0004231623604617809 -0.0005559078888137978 0.0 0.0 0.0 0.0
615029500.0 -0.983058496 0.437561728 0.0005017814768837164 -0.000546501279173614 0.0 0.0 0.0 0.0
630029000.0 -1.048531292 0.218727248 0.0006991601912019864 -0.00038226762392648637 0.0 0.0 0.0 0.0
645028500.0 -1.065203188 -0.017654576 0.0008577538965080287 -0.000470759098829002 0.0 0.0 0.0 0.0
660028000.0 -1.029157162 -0.256920688 0.0008612844748809531 6.778547615854756e-05 0.0 0.0 0.0 0.0
675027500.0 -0.939730496 -0.479643776 0.001097481288695394 -0.00040412607835364637 0.0 0.0 0.0 0.0
690027000.0 -0.800852608 -0.683315648 0.0008936303686237001 4.8532374467668214e-05 0.0 0.0 0.0 0.0
705026500.0 -0.609196992 -0.848759808 0.0008788283532901423 -0.0002561187308717129 0.0 0.0 0.0 0.0
720026000.0 -0.381362976 -0.979542144 -3.763768813185649e-06 0.000367962650526274 0.0 0.0 0.0 0.0
735025500.0 -0.129012432 -1.04244256 0.0005460945434330128 0.0011931126461154828 0.0 0.0 0.0 0.0
750025000.0 0.139574464 -1.047058584 0.000809237353935925 0.00016395221297616657 0.0 0.0 0.0 0.0
765024500.0 0.408166336 -0.9864272 0.0007023612515068437 0.00047422878238961874 0.0 0.0 0.0 0.0
780024000.0 0.627230912 -0.859198144 -0.00034066122554727495 0.0009913452746594543 0.0 0.0 0.0 0.0
795023500.0 0.865205888 -0.668006272 -0.0003723474442205494 0.0009317446240915078 0.0 0.0 0.0 0.0
810023000.0 1.022639632 -0.415368576 -0.0013834702725373476 5.811101230780221e-05 0.0 0.0 0.0 0.0
825022500.0 1.093904616 -0.156374656 -0.0012946624246075846 -0.0002688695681872722 0.0 0.0 0.0 0.0
840022000.0 1.108326672 0.119498912 -0.0004392524539704029 0.0005000118080305496 0.0 0.0 0.0 0.0
855021500.0 1.038397432 0.37129648 -0.0008119908641377132 -4.845869826862879e-05 0.0 0.0 0.0 0.0
870021000.0 0.92533376 0.585524736 -0.0007693305616096694 -0.00045392454706300105 0.0 0.0 0.0 0.0
885020500.0 0.772442112 0.762776768 -0.0003752627298781665 0.0004246577511931064 0.0 0.0 0.0 0.0
900020000.0 0.620002048 0.925427392 -0.000669053761247714 0.0033113898317264443 0.0 0.0 0.0 0.0
915019500.0 0.416516512 1.03342855 -0.0008641142761200296 -0.0020774655221251106 0.0 0.0 0.0 0.0
930019000.0 0.224434208 1.088092208 -0.0009498185870700215 1.2732779952077735e-05 0.0 0.0 0.0 0.0
945018500.0 0.017156194 1.105325816 0.0018931996148098627 -0.0023336300812510508 0.0 0.0 0.0 0.0
960018000.0 -0.17657552 1.090257528 -0.0015722846122402318 0.001367627933258744 0.0 0.0 0.0 0.0
975017500.0 -0.370222592 1.037511468 -0.0017130090944533069 -0.0008110564622917828 0.0 0.0 0.0 0.0
990017000.0 -0.539334656 0.95647808 0.0026148687109289275 0.002291831252876592 0.0 0.0 0.0 0.0
1005016500.0 -0.689252288 0.852442112 0.0004118534258376567 0.00042698717975576955 0.0 0.0 0.0 0.0
1020016000.0 -0.820506496 0.728497408 0.0036759219916429535 -0.0008593788492979716 0.0 0.0 0.0 0.0
1035015500.0 -0.948055168 0.563824704 -0.00038383867161902163 -0.000964900869195766 0.0 0.0 0.0 0.0
1050015000.0 -1.013201476 0.390025536 0.0014312385640743016 -0.0013241983033898401 0.0 0.0 0.0 0.0
1065014500.0 -1.10954928 0.169291872 0.005203569879913425 -0.0005614701361637904 0.0 0.0 0.0 0.0
1080014000.0 -1.132714984 -0.05159398 0.0015672218302778516 0.0001207995455518814 0.0 0.0 0.0 0.0
1095013500.0 -1.116862896 -0.260144144 0.006205518213904758 -0.0009770176265125902 0.0 0.0 0.0 0.0
1110013000.0 -1.056046128 -0.490577536 0.0026838949207848755 -0.00298207972613982 0.0 0.0 0.0 0.0
1125012500.0 -0.94572288 -0.718861376 0.0029470415742351994 0.0013928709005066903 0.0 0.0 0.0 0.0
1140012000.0 -0.78126304 -0.922428672 0.00169657409137833 -0.0034522469186819174 0.0 0.0 0.0 0.0
1155011500.0 -0.554986176 -1.1400168 0.001029350864604545 0.000988032055926768 0.0 0.0 0.0 0.0
1170011000.0 -0.25991624 -1.273286208 0.005990054925817387 -0.0006916607626726095 0.0 0.0 0.0 0.0
1185010500.0 0.047584532 -1.339930048 -0.0007754339984728356 0.0023530557985456764 0.0 0.0 0.0 0.0
1200010000.0 0.444956608 -1.323716288 0.003920450746352777 -0.0031973875805053655 0.0 0.0 0.0 0.0
1215009500.0 0.859759744 -1.202975984 0.002819290305209251 -0.007050165721865985 0.0 0.0 0.0 0.0
1230009000.0 1.249003168 -0.858420032 -0.003893686237790248 0.0038986418902032826 0.0 0.0 0.0 0.0
1245008500.0 1.463607424 -0.38861264 0.003568422367471256 -0.0004274284550469659 0.0 0.0 0.0 0.0
1260008000.0 1.414762016 0.14530416 0.0020484804220830505 0.0037139323693313867 0.0 0.0 0.0 0.0
1275007500.0 1.288092032 0.491982048 -0.0007578346264989663 -0.005699103436092748 0.0 0.0 0.0 0.0
1290007000.0 1.007983804 0.708765696 -0.003509407031034703 0.0003089925505723284 0.0 0.0 0.0 0.0
1305006500.0 0.782913472 0.861637952 0.004094962249130689 0.004745224836588833 0.0 0.0 0.0 0.0
1320006000.0 0.588153472 0.938351296 0.006545412525801155 0.005444227291039138 0.0 0.0 0.0 0.0
1335005500.0 0.422264128 0.976531904 -6.731039456701627e-05 0.00454530646322041 0.0 0.0 0.0 0.0
1350005000.0 0.306219008 1.014464618 0.0031520258294109593 0.004724338096725102 0.0 0.0 0.0 0.0
1365004500.0 0.175594896 1.013787986 -0.0010229535787967877 0.00565750972022354 0.0 0.0 0.0 0.0
1380004000.0 0.069249784 1.073452352 0.0026055973240844714 0.010162047219651946 0.0 0.0 0.0 0.0
1395003500.0 -0.045800716 1.10819936 0.0022988580146650604 -0.0036675853091477253 0.0 0.0 0.0 0.0
1410003000.0 -0.196442016 1.22759104 0.001208620131949764 -0.0006004466092457638 0.0 0.0 0.0 0.0
1425002500.0 -0.45310208 1.32286752 -0.001113301320082491 0.003927320418435397 0.0 0.0 0.0 0.0
1440002000.0 -0.815846848 1.437335136 0.0014767236302206319 0.014013981290938596 0.0 0.0 0.0 0.0
1455001500.0 -1.410793312 1.282115712 -0.01596766418782944 0.01889776901020841 0.0 0.0 0.0 0.0
1470001000.0 -1.914064768 0.659995392 -0.0060679935238781004 -0.00036463903348712826 0.0 0.0 0.0 0.0
1485000500.0 -1.740101248 -0.078691504 -0.015565786142992 0.004942876291425701 0.0 0.0 0.0 0.0
1500000000.0 -1.39585136 -0.418746016 -0.00483569087127936 -0.002962531775155071 0.0 0.0 0.0 0.0
