! Created with skrf 1.8.0 (http://scikit-rf.org).
# Hz S RI R 50.0 
!freq ReS11 ImS11 ReS21 ImS21 ReS12 ImS12 ReS22 ImS22
50000.0 0.0 0.0 0.9936051377906058 0.0014541885778719674 0.0 0.0 0.0 0.0
15049500.0 0.0 0.0 0.9915166339063736 -0.005720319679452993 0.0 0.0 0.0 0.0
30049000.0 0.0 0.0 0.990663489631254 -0.010295913259157526 0.0 0.0 0.0 0.0
45048500.0 0.0 0.0 0.9900611934276614 -0.014522940729662013 0.0 0.0 0.0 0.0
60048000.0 0.0 0.0 0.9891671802104307 -0.01913377473592969 0.0 0.0 0.0 0.0
75047500.0 0.0 0.0 0.9889422092484158 -0.023465992028207684 0.0 0.0 0.0 0.0
90047000.0 0.0 0.0 0.9889116751307262 -0.027655077453237958 0.0 0.0 0.0 0.0
105046500.0 0.0 0.0 0.9886053375140795 -0.03215945455418822 0.0 0.0 0.0 0.0
120046000.0 0.0 0.0 0.9878462108230982 -0.03670990826415122 0.0 0.0 0.0 0.0
135045500.0 0.0 0.0 0.988140437087558 -0.04174191154890725 0.0 0.0 0.0 0.0
150045000.0 0.0 0.0 0.9855575900163479 -0.04625098895920427 0.0 0.0 0.0 0.0
165044500.0 0.0 0.0 0.9835519886754337 -0.05003149310194405 0.0 0.0 0.0 0.0
180044000.0 0.0 0.0 0.9825100347131198 -0.05292239167290541 0.0 0.0 0.0 0.0
195043500.0 0.0 0.0 0.9814834056832754 -0.05510211764047786 0.0 0.0 0.0 0.0
210043000.0 0.0 0.0 0.981765137541513 -0.05639681342213164 0.0 0.0 0.0 0.0
225042500.0 0.0 0.0 0.982929733070323 -0.05808993925901151 0.0 0.0 0.0 0.0
240042000.0 0.0 0.0 0.9845891954992165 -0.060873118124864956 0.0 0.0 0.0 0.0
255041500.0 0.0 0.0 0.9874493117422711 -0.064656549289551 0.0 0.0 0.0 0.0
270041000.0 0.0 0.0 0.9910908637928976 -0.07103884361240025 0.0 0.0 0.0 0.0
285040500.0 0.0 0.0 0.9932571917174843 -0.07745541055871603 0.0 0.0 0.0 0.0
300040000.0 0.0 0.0 0.9941613392713452 -0.08750801659519056 0.0 0.0 0.0 0.0
315039500.0 0.0 0.0 0.991090397005306 -0.09354533378256197 0.0 0.0 0.0 0.0
330039000.0 0.0 0.0 0.9894056184544235 -0.10260409779871267 0.0 0.0 0.0 0.0
345038500.0 0.0 0.0 0.9827559538753927 -0.10772962118371411 0.0 0.0 0.0 0.0
360038000.0 0.0 0.0 0.9778967337158855 -0.11064921626960902 0.0 0.0 0.0 0.0
375037500.0 0.0 0.0 0.9733524990874723 -0.11488337787304784 0.0 0.0 0.0 0.0
390037000.0 0.0 0.0 0.9725128702407468 -0.11438464871166808 0.0 0.0 0.0 0.0
405036500.0 0.0 0.0 0.9679963998920343 -0.11433345095194196 0.0 0.0 0.0 0.0
420036000.0 0.0 0.0 0.9673630651882962 -0.11543416114982134 0.0 0.0 0.0 0.0
435035500.0 0.0 0.0 0.967981988308406 -0.11624946518199909 0.0 0.0 0.0 0.0
450035000.0 0.0 0.0 0.9685269668657258 -0.1168535374329622 0.0 0.0 0.0 0.0
465034500.0 0.0 0.0 0.9706352082382207 -0.12464006792946632 0.0 0.0 0.0 0.0
480034000.0 0.0 0.0 0.9709250671103324 -0.13116247406648912 0.0 0.0 0.0 0.0
495033500.0 0.0 0.0 0.9704465757806257 -0.13748154734973222 0.0 0.0 0.0 0.0
510033000.0 0.0 0.0 0.9675633129756992 -0.14050776184251032 0.0 0.0 0.0 0.0
525032500.0 0.0 0.0 0.9649491999767331 -0.1467635354166373 0.0 0.0 0.0 0.0
540032000.0 0.0 0.0 0.9621478521622749 -0.1490045234068787 0.0 0.0 0.0 0.0
555031500.0 0.0 0.0 0.9608252904058799 -0.14945287615775027 0.0 0.0 0.0 0.0
570031000.0 0.0 0.0 0.9602336194824633 -0.14999073397847656 0.0 0.0 0.0 0.0
585030500.0 0.0 0.0 0.9635795698679686 -0.1486687200935889 0.0 0.0 0.0 0.0
600030000.0 0.0 0.0 0.9680054949698381 -0.15052752154651272 0.0 0.0 0.0 0.0
615029500.0 0.0 0.0 0.9710419418845834 -0.1549562915483685 0.0 0.0 0.0 0.0
630029000.0 0.0 0.0 0.9765332658941778 -0.16104392206318052 0.0 0.0 0.0 0.0
645028500.0 0.0 0.0 0.9811627250408907 -0.16953903030810935 0.0 0.0 0.0 0.0
660028000.0 0.0 0.0 0.985342675076886 -0.17690698511669395 0.0 0.0 0.0 0.0
675027500.0 0.0 0.0 0.9848590071980982 -0.1902216077694493 0.0 0.0 0.0 0.0
690027000.0 0.0 0.0 0.9821003099072817 -0.20348585727405993 0.0 0.0 0.0 0.0
705026500.0 0.0 0.0 0.9750818302397973 -0.21310195126352968 0.0 0.0 0.0 0.0
720026000.0 0.0 0.0 0.9652966384443143 -0.2218241580246529 0.0 0.0 0.0 0.0
735025500.0 0.0 0.0 0.9544761259152775 -0.22588880844576348 0.0 0.0 0.0 0.0
750025000.0 0.0 0.0 0.9443700632898292 -0.22695668551170248 0.0 0.0 0.0 0.0
765024500.0 0.0 0.0 0.9365564318576807 -0.22484137666685547 0.0 0.0 0.0 0.0
780024000.0 0.0 0.0 0.9307444719633923 -0.21323496194145253 0.0 0.0 0.0 0.0
795023500.0 0.0 0.0 0.9286396141146703 -0.21430595769326463 0.0 0.0 0.0 0.0
810023000.0 0.0 0.0 0.9333721232360218 -0.21420850371166164 0.0 0.0 0.0 0.0
825022500.0 0.0 0.0 0.9352386464845353 -0.20959497534964172 0.0 0.0 0.0 0.0
840022000.0 0.0 0.0 0.936780397627057 -0.20927642780800915 0.0 0.0 0.0 0.0
855021500.0 0.0 0.0 0.9423651998735324 -0.21741477454814018 0.0 0.0 0.0 0.0
870021000.0 0.0 0.0 0.9411296066867036 -0.2198765362948759 0.0 0.0 0.0 0.0
885020500.0 0.0 0.0 0.9371530297522886 -0.22542998980458875 0.0 0.0 0.0 0.0
900020000.0 0.0 0.0 0.9524491328693596 -0.2320714106430124 0.0 0.0 0.0 0.0
915019500.0 0.0 0.0 0.9437843895865623 -0.23185814094804527 0.0 0.0 0.0 0.0
930019000.0 0.0 0.0 0.9314750266535449 -0.23749138926428043 0.0 0.0 0.0 0.0
945018500.0 0.0 0.0 0.930970987318576 -0.24185814217421012 0.0 0.0 0.0 0.0
960018000.0 0.0 0.0 0.9326638861082405 -0.2395384182801918 0.0 0.0 0.0 0.0
975017500.0 0.0 0.0 0.9336855123218444 -0.24349454512508997 0.0 0.0 0.0 0.0
990017000.0 0.0 0.0 0.9350200485374619 -0.2528779266859328 0.0 0.0 0.0 0.0
1005016500.0 0.0 0.0 0.9377964394081424 -0.2535723679751414 0.0 0.0 0.0 0.0
1020016000.0 0.0 0.0 0.9291044643578097 -0.2564841265918593 0.0 0.0 0.0 0.0
1035015500.0 0.0 0.0 0.9425740881867285 -0.27901920057366014 0.0 0.0 0.0 0.0
1050015000.0 0.0 0.0 0.9464275781948331 -0.30904814045909024 0.0 0.0 0.0 0.0
1065014500.0 0.0 0.0 0.9325532387935461 -0.29331037350988537 0.0 0.0 0.0 0.0
1080014000.0 0.0 0.0 0.9259002327189095 -0.2989257922286914 0.0 0.0 0.0 0.0
1095013500.0 0.0 0.0 0.9186124154543196 -0.3095980342288866 0.0 0.0 0.0 0.0
1110013000.0 0.0 0.0 0.9035624332129735 -0.3137670308100697 0.0 0.0 0.0 0.0
1125012500.0 0.0 0.0 0.8953800948470856 -0.3126749929075636 0.0 0.0 0.0 0.0
1140012000.0 0.0 0.0 0.8774711431605227 -0.3163356243469259 0.0 0.0 0.0 0.0
1155011500.0 0.0 0.0 0.8459973424533419 -0.2879667221525525 0.0 0.0 0.0 0.0
1170011000.0 0.0 0.0 0.8428489515890768 -0.2921433986700141 0.0 0.0 0.0 0.0
1185010500.0 0.0 0.0 0.8628827593330418 -0.2840981717925213 0.0 0.0 0.0 0.0
1200010000.0 0.0 0.0 0.8715320373028342 -0.27435816932795865 0.0 0.0 0.0 0.0
1215009500.0 0.0 0.0 0.8852184078028402 -0.27104297369431 0.0 0.0 0.0 0.0
1230009000.0 0.0 0.0 0.8981688508596767 -0.2794809313138729 0.0 0.0 0.0 0.0
1245008500.0 0.0 0.0 0.902044644251228 -0.28371190560253245 0.0 0.0 0.0 0.0
1260008000.0 0.0 0.0 0.9076130001639964 -0.3041901241252954 0.0 0.0 0.0 0.0
1275007500.0 0.0 0.0 0.8968845740221524 -0.30261429312011934 0.0 0.0 0.0 0.0
1290007000.0 0.0 0.0 0.8898078669481992 -0.31563886835756827 0.0 0.0 0.0 0.0
1305006500.0 0.0 0.0 0.8867487440248948 -0.3335814771177509 0.0 0.0 0.0 0.0
1320006000.0 0.0 0.0 0.8830119184737572 -0.3317313286441278 0.0 0.0 0.0 0.0
1335005500.0 0.0 0.0 0.8806495677035907 -0.3437614663633145 0.0 0.0 0.0 0.0
1350005000.0 0.0 0.0 0.8886668726170931 -0.33565551192749854 0.0 0.0 0.0 0.0
1365004500.0 0.0 0.0 0.8477820704659554 -0.33509532335279996 0.0 0.0 0.0 0.0
1380004000.0 0.0 0.0 0.859727064628362 -0.36686441409138126 0.0 0.0 0.0 0.0
1395003500.0 0.0 0.0 0.8619783530873051 -0.36695295987020843 0.0 0.0 0.0 0.0
1410003000.0 0.0 0.0 0.865164583927133 -0.37282373698681875 0.0 0.0 0.0 0.0
1425002500.0 0.0 0.0 0.8630870713288832 -0.37367048665922226 0.0 0.0 0.0 0.0
1440002000.0 0.0 0.0 0.8618300183225376 -0.3922262264969875 0.0 0.0 0.0 0.0
1455001500.0 0.0 0.0 0.878976540264526 -0.35941642825471554 0.0 0.0 0.0 0.0
1470001000.0 0.0 0.0 0.8752567540681668 -0.34129365323644895 0.0 0.0 0.0 0.0
1485000500.0 0.0 0.0 0.8238552555534147 -0.34360318860286015 0.0 0.0 0.0 0.0
1500000000.0 0.0 0.0 0.8230317730672339 -0.35841912980726803 0.0 0.0 0.0 0.0
