! Created with skrf 1.8.0 (http://scikit-rf.org).
# Hz S RI R 50.0 
!freq ReS11 ImS11 ReS21 ImS21 ReS12 ImS12 ReS22 ImS22
50000.0 0.0 0.0 -0.000147367 8.826e-06 0.0 0.0 0.0 0.0
15049500.0 0.0 0.0 -6.3227e-05 -6.9309e-05 0.0 0.0 0.0 0.0
30049000.0 0.0 0.0 2.8895e-05 8.1897e-05 0.0 0.0 0.0 0.0
45048500.0 0.0 0.0 9.354e-06 -1.1704e-05 0.0 0.0 0.0 0.0
60048000.0 0.0 0.0 -1.174e-06 -2.4686e-05 0.0 0.0 0.0 0.0
75047500.0 0.0 0.0 6.6822e-05 1.7748e-05 0.0 0.0 0.0 0.0
90047000.0 0.0 0.0 5.104e-06 4.7546e-05 0.0 0.0 0.0 0.0
105046500.0 0.0 0.0 2.1586e-05 3.3426e-05 0.0 0.0 0.0 0.0
120046000.0 0.0 0.0 -8.153e-06 8.0322e-05 0.0 0.0 0.0 0.0
135045500.0 0.0 0.0 -3.619e-05 -3.169e-06 0.0 0.0 0.0 0.0
150045000.0 0.0 0.0 -1.1512e-05 8.9085e-05 0.0 0.0 0.0 0.0
165044500.0 0.0 0.0 3.4329e-05 3.8785e-05 0.0 0.0 0.0 0.0
180044000.0 0.0 0.0 -8.28e-06 2.8561e-05 0.0 0.0 0.0 0.0
195043500.0 0.0 0.0 -4.6315e-05 3.0045e-05 0.0 0.0 0.0 0.0
210043000.0 0.0 0.0 -2.0086e-05 5.2834e-05 0.0 0.0 0.0 0.0
225042500.0 0.0 0.0 -6.6629e-05 1.5338e-05 0.0 0.0 0.0 0.0
240042000.0 0.0 0.0 -5.0513e-05 4.5699e-05 0.0 0.0 0.0 0.0
255041500.0 0.0 0.0 -8.4108e-05 3.9595e-05 0.0 0.0 0.0 0.0
270041000.0 0.0 0.0 -6.0079e-05 4.0502e-05 0.0 0.0 0.0 0.0
285040500.0 0.0 0.0 -0.000104412 8.4463e-05 0.0 0.0 0.0 0.0
300040000.0 0.0 0.0 -0.000404212 -0.000254214 0.0 0.0 0.0 0.0
315039500.0 0.0 0.0 -6.8399e-05 -6.0405e-05 0.0 0.0 0.0 0.0
330039000.0 0.0 0.0 -0.000144095 0.000415514 0.0 0.0 0.0 0.0
345038500.0 0.0 0.0 -0.00018709 -0.000202834 0.0 0.0 0.0 0.0
360038000.0 0.0 0.0 8.121e-06 0.000407016 0.0 0.0 0.0 0.0
375037500.0 0.0 0.0 0.000132013 0.00017466 0.0 0.0 0.0 0.0
390037000.0 0.0 0.0 -5.6879e-05 0.000255363 0.0 0.0 0.0 0.0
405036500.0 0.0 0.0 0.000496056 -0.000311828 0.0 0.0 0.0 0.0
420036000.0 0.0 0.0 -0.000880759 -0.000171574 0.0 0.0 0.0 0.0
435035500.0 0.0 0.0 -0.000746656 -0.000197755 0.0 0.0 0.0 0.0
450035000.0 0.0 0.0 -0.000228259 -0.000784711 0.0 0.0 0.0 0.0
465034500.0 0.0 0.0 -0.00015826 -0.000169529 0.0 0.0 0.0 0.0
480034000.0 0.0 0.0 -0.000355383 9.496e-06 0.0 0.0 0.0 0.0
495033500.0 0.0 0.0 0.000399079 0.000108572 0.0 0.0 0.0 0.0
510033000.0 0.0 0.0 -0.000120349 -0.000691488 0.0 0.0 0.0 0.0
525032500.0 0.0 0.0 -5.1252e-05 -0.000789261 0.0 0.0 0.0 0.0
540032000.0 0.0 0.0 -0.000308584 -0.0005264 0.0 0.0 0.0 0.0
555031500.0 0.0 0.0 -0.000407952 3.5427e-05 0.0 0.0 0.0 0.0
570031000.0 0.0 0.0 0.000532367 -0.000871961 0.0 0.0 0.0 0.0
585030500.0 0.0 0.0 0.000710482 -0.001012903 0.0 0.0 0.0 0.0
600030000.0 0.0 0.0 -0.000370162 4.6971e-05 0.0 0.0 0.0 0.0
615029500.0 0.0 0.0 0.000823583 -0.000893241 0.0 0.0 0.0 0.0
630029000.0 0.0 0.0 0.001051942 -0.000145088 0.0 0.0 0.0 0.0
645028500.0 0.0 0.0 0.000809336 0.000232857 0.0 0.0 0.0 0.0
660028000.0 0.0 0.0 0.000759904 7.5408e-05 0.0 0.0 0.0 0.0
675027500.0 0.0 0.0 0.000720566 -2.7025e-05 0.0 0.0 0.0 0.0
690027000.0 0.0 0.0 0.000725042 0.000294863 0.0 0.0 0.0 0.0
705026500.0 0.0 0.0 0.001118481 0.001348352 0.0 0.0 0.0 0.0
720026000.0 0.0 0.0 0.000753357 9.56e-06 0.0 0.0 0.0 0.0
735025500.0 0.0 0.0 0.000287064 0.000837228 0.0 0.0 0.0 0.0
750025000.0 0.0 0.0 0.000732197 -0.000400958 0.0 0.0 0.0 0.0
765024500.0 0.0 0.0 -0.0003861 0.001281913 0.0 0.0 0.0 0.0
780024000.0 0.0 0.0 -8.6318e-05 0.000796859 0.0 0.0 0.0 0.0
795023500.0 0.0 0.0 -8.3414e-05 0.000239571 0.0 0.0 0.0 0.0
810023000.0 0.0 0.0 -0.000384252 0.00051744 0.0 0.0 0.0 0.0
825022500.0 0.0 0.0 -0.00028565 0.000250439 0.0 0.0 0.0 0.0
840022000.0 0.0 0.0 -0.000807502 0.000941345 0.0 0.0 0.0 0.0
855021500.0 0.0 0.0 -0.000409401 0.000395165 0.0 0.0 0.0 0.0
870021000.0 0.0 0.0 -0.000676616 -0.001092411 0.0 0.0 0.0 0.0
885020500.0 0.0 0.0 -0.000855442 4.383e-06 0.0 0.0 0.0 0.0
900020000.0 0.0 0.0 -0.002798401 0.002101425 0.0 0.0 0.0 0.0
915019500.0 0.0 0.0 0.001771267 -0.001456507 0.0 0.0 0.0 0.0
930019000.0 0.0 0.0 -0.001667163 -0.001693206 0.0 0.0 0.0 0.0
945018500.0 0.0 0.0 0.002036596 -0.000851828 0.0 0.0 0.0 0.0
960018000.0 0.0 0.0 0.004546199 -0.004001003 0.0 0.0 0.0 0.0
975017500.0 0.0 0.0 0.000222707 -0.000993002 0.0 0.0 0.0 0.0
990017000.0 0.0 0.0 0.000412712 -0.000319852 0.0 0.0 0.0 0.0
1005016500.0 0.0 0.0 0.001764287 5.8441e-05 0.0 0.0 0.0 0.0
1020016000.0 0.0 0.0 0.00109546 -0.002292897 0.0 0.0 0.0 0.0
1035015500.0 0.0 0.0 -0.000150719 0.003775119 0.0 0.0 0.0 0.0
1050015000.0 0.0 0.0 0.002601127 -0.000886826 0.0 0.0 0.0 0.0
1065014500.0 0.0 0.0 0.003112838 0.001911167 0.0 0.0 0.0 0.0
1080014000.0 0.0 0.0 0.001655834 -0.00048111 0.0 0.0 0.0 0.0
1095013500.0 0.0 0.0 0.004565733 0.000317465 0.0 0.0 0.0 0.0
1110013000.0 0.0 0.0 -0.000224189 0.004231864 0.0 0.0 0.0 0.0
1125012500.0 0.0 0.0 -0.003094981 0.004663237 0.0 0.0 0.0 0.0
1140012000.0 0.0 0.0 0.003459463 0.004726041 0.0 0.0 0.0 0.0
1155011500.0 0.0 0.0 0.003438492 -0.002991205 0.0 0.0 0.0 0.0
1170011000.0 0.0 0.0 0.001457976 0.003044862 0.0 0.0 0.0 0.0
1185010500.0 0.0 0.0 -0.003868493 0.001418202 0.0 0.0 0.0 0.0
1200010000.0 0.0 0.0 0.000167263 6.54e-06 0.0 0.0 0.0 0.0
1215009500.0 0.0 0.0 0.00255711 -0.002221496 0.0 0.0 0.0 0.0
1230009000.0 0.0 0.0 -0.00161521 0.003432717 0.0 0.0 0.0 0.0
1245008500.0 0.0 0.0 0.005313701 -0.000781241 0.0 0.0 0.0 0.0
1260008000.0 0.0 0.0 0.00946824 -0.002944566 0.0 0.0 0.0 0.0
1275007500.0 0.0 0.0 -0.005551481 0.002041098 0.0 0.0 0.0 0.0
1290007000.0 0.0 0.0 -0.0041744 -0.005363292 0.0 0.0 0.0 0.0
1305006500.0 0.0 0.0 0.002126449 0.001937107 0.0 0.0 0.0 0.0
1320006000.0 0.0 0.0 0.004288251 -0.010159448 0.0 0.0 0.0 0.0
1335005500.0 0.0 0.0 0.005768976 0.002304597 0.0 0.0 0.0 0.0
1350005000.0 0.0 0.0 0.004656349 -0.007482232 0.0 0.0 0.0 0.0
1365004500.0 0.0 0.0 0.00589701 0.001189058 0.0 0.0 0.0 0.0
1380004000.0 0.0 0.0 -0.001853649 0.002045614 0.0 0.0 0.0 0.0
1395003500.0 0.0 0.0 -0.00133057 0.01046241 0.0 0.0 0.0 0.0
1410003000.0 0.0 0.0 -0.000417509 0.005266458 0.0 0.0 0.0 0.0
1425002500.0 0.0 0.0 -0.01274588 -0.007505963 0.0 0.0 0.0 0.0
1440002000.0 0.0 0.0 -0.000482782 0.00400284 0.0 0.0 0.0 0.0
1455001500.0 0.0 0.0 -0.003694235 0.008722696 0.0 0.0 0.0 0.0
1470001000.0 0.0 0.0 -0.003814899 -0.00205174 0.0 0.0 0.0 0.0
1485000500.0 0.0 0.0 0.000412739 0.014735758 0.0 0.0 0.0 0.0
1500000000.0 0.0 0.0 -0.013842092 -0.017478664 0.0 0.0 0.0 0.0
