! Created with skrf 1.8.0 (http://scikit-rf.org).
# Hz S RI R 50.0 
!freq ReS11 ImS11
50000.0 0.998051584 0.000827165
15049500.0 0.976617216 0.219934576
30049000.0 0.907026432 0.427543616
45048500.0 0.79385504 0.615610816
60048000.0 0.64493632 0.772181184
75047500.0 0.46584672 0.896103232
90047000.0 0.252304192 0.981128256
105046500.0 0.033027932 1.01297784
120046000.0 -0.188466752 0.997992256
135045500.0 -0.402591296 0.93444992
150045000.0 -0.600341632 0.823657664
165044500.0 -0.76876832 0.671480576
180044000.0 -0.898863296 0.485002816
195043500.0 -0.985716288 0.273649984
210043000.0 -1.023886562 0.045813092
225042500.0 -1.008296132 -0.186996336
240042000.0 -0.939502976 -0.41166912
255041500.0 -0.819759744 -0.615374016
270041000.0 -0.656527936 -0.786216
285040500.0 -0.459757504 -0.91822688
300040000.0 -0.239474464 -0.987738432
315039500.0 -0.006529619 -1.01499784
330039000.0 0.222821968 -0.990973312
345038500.0 0.44490272 -0.916155584
360038000.0 0.641836416 -0.79596672
375037500.0 0.803969088 -0.637820544
390037000.0 0.93491168 -0.449730144
405036500.0 1.012467504 -0.241873056
420036000.0 1.048132776 -0.019856036
435035500.0 1.042477964 0.217107984
450035000.0 0.98424864 0.45276512
465034500.0 0.86213344 0.65920544
480034000.0 0.704493184 0.82944736
495033500.0 0.51448656 0.96115456
510033000.0 0.302292864 1.051329852
525032500.0 0.078078072 1.089867232
540032000.0 -0.143416288 1.074825648
555031500.0 -0.35778144 1.020153522
570031000.0 -0.555281792 0.921095936
585030500.0 -0.723980352 0.782468416
600030000.0 -0.87164736 0.636374656
615029500.0 -0.980696704 0.43950992
630029000.0 -1.050612092 0.218500528
645028500.0 -1.06458628 -0.01842276
660028000.0 -1.022544264 -0.249543552
675027500.0 -0.939107072 -0.481764512
690027000.0 -0.795906624 -0.68075488
705026500.0 -0.608680384 -0.85269856
720026000.0 -0.383400128 -0.973637056
735025500.0 -0.128401816 -1.040457368
750025000.0 0.1419852 -1.045016648
765024500.0 0.411125632 -0.982525376
780024000.0 0.674144128 -0.83121408
795023500.0 0.863695616 -0.666442048
810023000.0 1.015426874 -0.41796208
825022500.0 1.090738056 -0.156421296
840022000.0 1.105499624 0.120357008
855021500.0 1.03577292 0.371235648
870021000.0 0.923646016 0.594039424
885020500.0 0.765169536 0.754039232
900020000.0 0.61851552 0.926701952
915019500.0 0.418321824 1.031650782
930019000.0 0.216407696 1.093811392
945018500.0 0.01874544 1.109154344
960018000.0 -0.184114688 1.086076496
975017500.0 -0.361266656 1.047986744
990017000.0 -0.539714944 0.956877184
1005016500.0 -0.69342144 0.847747648
1020016000.0 -0.834801856 0.719287552
1035015500.0 -0.95943808 0.568797248
1050015000.0 -1.075294256 0.397663168
1065014500.0 -1.114923832 0.180065664
1080014000.0 -1.139706496 -0.03761892
1095013500.0 -1.124661448 -0.269104096
1110013000.0 -1.064189196 -0.484555616
1125012500.0 -0.959167808 -0.695648256
1140012000.0 -0.775370048 -0.90340064
1155011500.0 -0.5557392 -1.151295424
1170011000.0 -0.288101376 -1.259795072
1185010500.0 0.071737912 -1.355394848
1200010000.0 0.447031456 -1.353704928
1215009500.0 0.834603328 -1.206235056
1230009000.0 1.257292752 -0.881788992
1245008500.0 1.4719752 -0.413119104
1260008000.0 1.5311352 0.0675236
1275007500.0 1.253948448 0.487660768
1290007000.0 1.043909788 0.720594048
1305006500.0 0.797841856 0.867683968
1320006000.0 0.58506976 0.951171072
1335005500.0 0.434601568 0.96847424
1350005000.0 0.293551072 0.996715584
1365004500.0 0.218547152 1.03812778
1380004000.0 0.066626176 1.068745256
1395003500.0 -0.050569032 1.13800752
1410003000.0 -0.168761936 1.195845968
1425002500.0 -0.400252608 1.339700096
1440002000.0 -0.771437824 1.430300352
1455001500.0 -1.400526272 1.31783248
1470001000.0 -1.930289024 0.6951024
1485000500.0 -1.776918912 -0.043496352
1500000000.0 -1.405794976 -0.372147584
