! Created with skrf 1.8.0 (http://scikit-rf.org).
# Hz S RI R 50.0 
!freq ReS11 ImS11 ReS21 ImS21 ReS12 ImS12 ReS22 ImS22
50000.0 0.0 0.0 0.6506264708758842 -0.066533047810359 0.0 0.0 0.0 0.0
15049500.0 0.0 0.0 -0.30592921826740727 0.6210768879513288 0.0 0.0 0.0 0.0
30049000.0 0.0 0.0 0.4793843391430934 0.1513698517487083 0.0 0.0 0.0 0.0
45048500.0 0.0 0.0 0.5738959898680224 -3.1140327433875146 0.0 0.0 0.0 0.0
60048000.0 0.0 0.0 0.6622574387006953 -1.1169888710922844 0.0 0.0 0.0 0.0
75047500.0 0.0 0.0 0.11967668408222001 0.45152390843387574 0.0 0.0 0.0 0.0
90047000.0 0.0 0.0 0.2844049138315748 -0.1401647978548224 0.0 0.0 0.0 0.0
105046500.0 0.0 0.0 1.1775543902364904 -0.15208731200745215 0.0 0.0 0.0 0.0
120046000.0 0.0 0.0 0.536823586866696 -0.19428180210638749 0.0 0.0 0.0 0.0
135045500.0 0.0 0.0 -1.0872292007610722 0.9225885874011157 0.0 0.0 0.0 0.0
150045000.0 0.0 0.0 0.05645568013816769 -0.3478059206012807 0.0 0.0 0.0 0.0
165044500.0 0.0 0.0 -0.10107524629019318 -0.2902742795531028 0.0 0.0 0.0 0.0
180044000.0 0.0 0.0 -0.015008873192283624 0.26601659618737 0.0 0.0 0.0 0.0
195043500.0 0.0 0.0 0.36012603187739517 -0.14510474354868863 0.0 0.0 0.0 0.0
210043000.0 0.0 0.0 0.7669365256380678 0.37601928256249745 0.0 0.0 0.0 0.0
225042500.0 0.0 0.0 0.08648167567450214 -0.8143600033984122 0.0 0.0 0.0 0.0
240042000.0 0.0 0.0 -0.05144369361354058 0.21543995884968453 0.0 0.0 0.0 0.0
255041500.0 0.0 0.0 -0.31353898861709917 -0.23583894644150677 0.0 0.0 0.0 0.0
270041000.0 0.0 0.0 0.6303971077777971 -1.894089826956866 0.0 0.0 0.0 0.0
285040500.0 0.0 0.0 0.04566932000929995 0.42671203329577545 0.0 0.0 0.0 0.0
300040000.0 0.0 0.0 -0.48981561699749787 -0.36846587627241795 0.0 0.0 0.0 0.0
315039500.0 0.0 0.0 0.13803859818145053 0.09606506742827672 0.0 0.0 0.0 0.0
330039000.0 0.0 0.0 -0.7198831305091297 0.1732513897123926 0.0 0.0 0.0 0.0
345038500.0 0.0 0.0 0.08079049837331782 0.10942169653311686 0.0 0.0 0.0 0.0
360038000.0 0.0 0.0 -0.4197112512744471 0.42594772027064626 0.0 0.0 0.0 0.0
375037500.0 0.0 0.0 0.08350600140852306 0.15121637942586827 0.0 0.0 0.0 0.0
390037000.0 0.0 0.0 -0.44252098677003976 1.0928299613783814 0.0 0.0 0.0 0.0
405036500.0 0.0 0.0 -0.020577840014313856 -0.07845748110119592 0.0 0.0 0.0 0.0
420036000.0 0.0 0.0 -0.5289926565078521 -0.12342108021645391 0.0 0.0 0.0 0.0
435035500.0 0.0 0.0 -1.0581584404263726 0.26241055912456 0.0 0.0 0.0 0.0
450035000.0 0.0 0.0 -0.07458791163091621 -0.2149927239116282 0.0 0.0 0.0 0.0
465034500.0 0.0 0.0 0.07846070828945101 0.6881727043513518 0.0 0.0 0.0 0.0
480034000.0 0.0 0.0 0.07569281245344271 0.4187351733075095 0.0 0.0 0.0 0.0
495033500.0 0.0 0.0 0.2049084763169601 -0.2167976776388979 0.0 0.0 0.0 0.0
510033000.0 0.0 0.0 -0.06183181868942356 -0.9969850782765899 0.0 0.0 0.0 0.0
525032500.0 0.0 0.0 0.6179551487586445 -0.8547579744146901 0.0 0.0 0.0 0.0
540032000.0 0.0 0.0 -2.355136112918054 -1.0823821331734185 0.0 0.0 0.0 0.0
555031500.0 0.0 0.0 0.15137135148026007 0.17546703600616026 0.0 0.0 0.0 0.0
570031000.0 0.0 0.0 -1.5085389506435298 -1.0264741496668484 0.0 0.0 0.0 0.0
585030500.0 0.0 0.0 0.013698774580397456 -0.021888811951871853 0.0 0.0 0.0 0.0
600030000.0 0.0 0.0 -0.05592477352795311 -0.07537894609417872 0.0 0.0 0.0 0.0
615029500.0 0.0 0.0 -0.8282699223275977 0.26824956714064135 0.0 0.0 0.0 0.0
630029000.0 0.0 0.0 -0.010871136770746179 0.10589415785802957 0.0 0.0 0.0 0.0
645028500.0 0.0 0.0 -0.8692050040266062 -2.945296130476483 0.0 0.0 0.0 0.0
660028000.0 0.0 0.0 -0.36016743922063854 -0.019403743768095193 0.0 0.0 0.0 0.0
675027500.0 0.0 0.0 0.2879889375649695 2.161007443472842 0.0 0.0 0.0 0.0
690027000.0 0.0 0.0 -0.8205794997355881 0.3966745190394742 0.0 0.0 0.0 0.0
705026500.0 0.0 0.0 0.029215504581209046 -0.03205543792316672 0.0 0.0 0.0 0.0
720026000.0 0.0 0.0 -0.23171598223022846 -0.18889745624034643 0.0 0.0 0.0 0.0
735025500.0 0.0 0.0 -1.1218851032093329 -1.1225190905562017 0.0 0.0 0.0 0.0
750025000.0 0.0 0.0 0.9031830252480754 -0.9421488356591542 0.0 0.0 0.0 0.0
765024500.0 0.0 0.0 0.3979323977354274 0.07541756391063005 0.0 0.0 0.0 0.0
780024000.0 0.0 0.0 0.05587895387481315 -0.38622135968029386 0.0 0.0 0.0 0.0
795023500.0 0.0 0.0 0.1884508052606397 -0.631864573490844 0.0 0.0 0.0 0.0
810023000.0 0.0 0.0 -0.803725648889527 0.3226320431873388 0.0 0.0 0.0 0.0
825022500.0 0.0 0.0 0.33781187533861434 -0.29678846765098865 0.0 0.0 0.0 0.0
840022000.0 0.0 0.0 0.10519937641161425 0.091391635720953 0.0 0.0 0.0 0.0
855021500.0 0.0 0.0 -0.25407472028305506 0.33067456223530156 0.0 0.0 0.0 0.0
870021000.0 0.0 0.0 0.8441495122795256 -0.12840263305512892 0.0 0.0 0.0 0.0
885020500.0 0.0 0.0 0.10845795097451459 0.07556870996185236 0.0 0.0 0.0 0.0
900020000.0 0.0 0.0 0.8182719400540593 -0.6773048875136767 0.0 0.0 0.0 0.0
915019500.0 0.0 0.0 0.9123081786329156 0.3677224651051387 0.0 0.0 0.0 0.0
930019000.0 0.0 0.0 0.33021187015153763 0.4636043677801102 0.0 0.0 0.0 0.0
945018500.0 0.0 0.0 -0.3952591015177424 0.0606031189056984 0.0 0.0 0.0 0.0
960018000.0 0.0 0.0 -0.3739743991186072 0.0014981024366349726 0.0 0.0 0.0 0.0
975017500.0 0.0 0.0 0.9354026012588752 0.004050687720336509 0.0 0.0 0.0 0.0
990017000.0 0.0 0.0 0.21844222681642586 0.23520038314402347 0.0 0.0 0.0 0.0
1005016500.0 0.0 0.0 0.06076972147410606 0.35603848038870817 0.0 0.0 0.0 0.0
1020016000.0 0.0 0.0 -0.21613113538564882 -0.42832563327767464 0.0 0.0 0.0 0.0
1035015500.0 0.0 0.0 -0.2043862443209817 0.002849721208650453 0.0 0.0 0.0 0.0
1050015000.0 0.0 0.0 0.24626570960735322 0.3471350917586722 0.0 0.0 0.0 0.0
1065014500.0 0.0 0.0 0.08616586091674569 -0.0886150697217111 0.0 0.0 0.0 0.0
1080014000.0 0.0 0.0 3.4143297790512204 -0.9997188392064068 0.0 0.0 0.0 0.0
1095013500.0 0.0 0.0 -0.7138647310381282 0.20734377030853213 0.0 0.0 0.0 0.0
1110013000.0 0.0 0.0 -0.944895336948365 -0.07377995871605378 0.0 0.0 0.0 0.0
1125012500.0 0.0 0.0 0.8067650068663532 0.0032016291996183025 0.0 0.0 0.0 0.0
1140012000.0 0.0 0.0 1.4562572612694682 0.12882954549188896 0.0 0.0 0.0 0.0
1155011500.0 0.0 0.0 -0.2915931988426035 -0.14123960285010861 0.0 0.0 0.0 0.0
1170011000.0 0.0 0.0 0.4304823259954918 -0.024351140474866396 0.0 0.0 0.0 0.0
1185010500.0 0.0 0.0 -0.24978034684452627 0.07394871145763966 0.0 0.0 0.0 0.0
1200010000.0 0.0 0.0 -1.5482887350895795 -1.5158627845873116 0.0 0.0 0.0 0.0
1215009500.0 0.0 0.0 1.304783982266291 0.14445565839059632 0.0 0.0 0.0 0.0
1230009000.0 0.0 0.0 -1.7342675033932775 1.2049257155244923 0.0 0.0 0.0 0.0
1245008500.0 0.0 0.0 -1.9518197698668434 -0.8153639433599119 0.0 0.0 0.0 0.0
1260008000.0 0.0 0.0 -0.291469975607105 -1.1155703164165758 0.0 0.0 0.0 0.0
1275007500.0 0.0 0.0 -0.3261937253155909 0.15430256260079522 0.0 0.0 0.0 0.0
1290007000.0 0.0 0.0 -0.39763777571899706 0.12972162860163186 0.0 0.0 0.0 0.0
1305006500.0 0.0 0.0 0.6914904377790375 -0.3438293071065538 0.0 0.0 0.0 0.0
1320006000.0 0.0 0.0 1.1437309305170906 -0.647239804303401 0.0 0.0 0.0 0.0
1335005500.0 0.0 0.0 0.4351972627702725 -2.340040045424761 0.0 0.0 0.0 0.0
1350005000.0 0.0 0.0 -0.010863114628439823 -0.19760289757113797 0.0 0.0 0.0 0.0
1365004500.0 0.0 0.0 -1.562894040903468 0.07909641208667736 0.0 0.0 0.0 0.0
1380004000.0 0.0 0.0 0.04566508010154616 0.04205435342622861 0.0 0.0 0.0 0.0
1395003500.0 0.0 0.0 0.6013085902913231 -0.41983713650291604 0.0 0.0 0.0 0.0
1410003000.0 0.0 0.0 0.666444842713447 -0.07124928972070603 0.0 0.0 0.0 0.0
1425002500.0 0.0 0.0 -1.0342288907371322 0.31333524413453895 0.0 0.0 0.0 0.0
1440002000.0 0.0 0.0 0.2729946123496903 0.12418369587306785 0.0 0.0 0.0 0.0
1455001500.0 0.0 0.0 0.34658182131327975 0.2562521119190014 0.0 0.0 0.0 0.0
1470001000.0 0.0 0.0 -1.4502343585580337 -0.45118111627634566 0.0 0.0 0.0 0.0
1485000500.0 0.0 0.0 0.1252770276429842 -0.0817598650786756 0.0 0.0 0.0 0.0
1500000000.0 0.0 0.0 -1.96519317155351 1.5430138126398862 0.0 0.0 0.0 0.0
