! Created with skrf 1.8.0 (http://scikit-rf.org).
# Hz S RI R 50.0 
!freq ReS11 ImS11 ReS21 ImS21 ReS12 ImS12 ReS22 ImS22
50000.0 0.0 0.0 -0.021398040140250187 -0.010148896105034305 0.0 0.0 0.0 0.0
15049500.0 0.0 0.0 0.23786285068530325 0.05730648962835642 0.0 0.0 0.0 0.0
30049000.0 0.0 0.0 0.26749484847026467 -0.2459302923457134 0.0 0.0 0.0 0.0
45048500.0 0.0 0.0 -0.05137206637116154 -0.12199101404153691 0.0 0.0 0.0 0.0
60048000.0 0.0 0.0 -0.09781202649245889 0.24354912566731626 0.0 0.0 0.0 0.0
75047500.0 0.0 0.0 2.178755916833334 -3.1897100112136463 0.0 0.0 0.0 0.0
90047000.0 0.0 0.0 -3.1118790134712695 -5.690894033284929 0.0 0.0 0.0 0.0
105046500.0 0.0 0.0 0.7374079241955823 -0.12585163299210603 0.0 0.0 0.0 0.0
120046000.0 0.0 0.0 0.037087253854229923 -0.011629957143738016 0.0 0.0 0.0 0.0
135045500.0 0.0 0.0 -0.084060883829832 0.09554800530422475 0.0 0.0 0.0 0.0
150045000.0 0.0 0.0 -0.0941572365067389 0.21930889986528046 0.0 0.0 0.0 0.0
165044500.0 0.0 0.0 0.5656814134340397 0.08946997744267075 0.0 0.0 0.0 0.0
180044000.0 0.0 0.0 -0.11853772785598578 0.18679872817052906 0.0 0.0 0.0 0.0
195043500.0 0.0 0.0 -0.4985752931321843 -0.8552136430035333 0.0 0.0 0.0 0.0
210043000.0 0.0 0.0 -0.5917340342564318 -0.2187338905955335 0.0 0.0 0.0 0.0
225042500.0 0.0 0.0 0.04822199981552648 -0.07091493212596725 0.0 0.0 0.0 0.0
240042000.0 0.0 0.0 -0.9084945530473225 0.4775350978534262 0.0 0.0 0.0 0.0
255041500.0 0.0 0.0 0.35181163908740054 0.44116620124245687 0.0 0.0 0.0 0.0
270041000.0 0.0 0.0 -0.7011774071305954 0.0950287099335825 0.0 0.0 0.0 0.0
285040500.0 0.0 0.0 0.16863632274377904 -0.039629061056127325 0.0 0.0 0.0 0.0
300040000.0 0.0 0.0 0.9785355998608127 0.0581149642397443 0.0 0.0 0.0 0.0
315039500.0 0.0 0.0 -0.19505903123745807 -0.5248433083575025 0.0 0.0 0.0 0.0
330039000.0 0.0 0.0 0.7102440912279426 -0.4366419271609888 0.0 0.0 0.0 0.0
345038500.0 0.0 0.0 1.086512950371967 0.39846977918657955 0.0 0.0 0.0 0.0
360038000.0 0.0 0.0 -0.1466839357626993 -0.07353852660991791 0.0 0.0 0.0 0.0
375037500.0 0.0 0.0 -1.0300756080881153 0.916219791166473 0.0 0.0 0.0 0.0
390037000.0 0.0 0.0 0.5755401280647456 0.5426959463848222 0.0 0.0 0.0 0.0
405036500.0 0.0 0.0 -0.06438624037337079 -0.2421157096917852 0.0 0.0 0.0 0.0
420036000.0 0.0 0.0 -0.685921647255192 0.33676224968993396 0.0 0.0 0.0 0.0
435035500.0 0.0 0.0 -0.03713033188513438 -0.3181861730893235 0.0 0.0 0.0 0.0
450035000.0 0.0 0.0 -0.56078558697444 -0.5812572325421431 0.0 0.0 0.0 0.0
465034500.0 0.0 0.0 0.0715195638984631 1.8575415111230724 0.0 0.0 0.0 0.0
480034000.0 0.0 0.0 -0.026806040409711896 -0.012479637671668244 0.0 0.0 0.0 0.0
495033500.0 0.0 0.0 0.3429057890300278 -0.04831002390330061 0.0 0.0 0.0 0.0
510033000.0 0.0 0.0 -0.19853476795728192 0.12641816907649336 0.0 0.0 0.0 0.0
525032500.0 0.0 0.0 -0.6273229588151751 -0.1737638644014874 0.0 0.0 0.0 0.0
540032000.0 0.0 0.0 1.2007897382553616 -0.05904137830462608 0.0 0.0 0.0 0.0
555031500.0 0.0 0.0 1.4505164626366605 1.3607841012562867 0.0 0.0 0.0 0.0
570031000.0 0.0 0.0 -1.8793423609457367 2.1265976353025304 0.0 0.0 0.0 0.0
585030500.0 0.0 0.0 -0.09112425504031921 -0.28914684909353444 0.0 0.0 0.0 0.0
600030000.0 0.0 0.0 0.91540955080218 -0.6461799679085143 0.0 0.0 0.0 0.0
615029500.0 0.0 0.0 0.19237970822018097 0.5640429300820486 0.0 0.0 0.0 0.0
630029000.0 0.0 0.0 0.2452421883842192 -0.6924520213160595 0.0 0.0 0.0 0.0
645028500.0 0.0 0.0 0.5385811124629928 0.1311065003976656 0.0 0.0 0.0 0.0
660028000.0 0.0 0.0 -0.9021155439268309 1.277529761020053 0.0 0.0 0.0 0.0
675027500.0 0.0 0.0 0.7246577032643211 -0.34287380409781887 0.0 0.0 0.0 0.0
690027000.0 0.0 0.0 -0.5003895389066402 -0.09364449803999553 0.0 0.0 0.0 0.0
705026500.0 0.0 0.0 -0.3152544192802256 -0.551006943840814 0.0 0.0 0.0 0.0
720026000.0 0.0 0.0 -1.1718837252224565 -0.2577612637587639 0.0 0.0 0.0 0.0
735025500.0 0.0 0.0 0.09728127132161604 0.058180612686850826 0.0 0.0 0.0 0.0
750025000.0 0.0 0.0 0.43652101542554717 0.5934929464842414 0.0 0.0 0.0 0.0
765024500.0 0.0 0.0 0.7700714598519842 0.13926316523433008 0.0 0.0 0.0 0.0
780024000.0 0.0 0.0 0.566430324121394 -0.008956739310781016 0.0 0.0 0.0 0.0
795023500.0 0.0 0.0 0.2591134626790854 0.10174976146285661 0.0 0.0 0.0 0.0
810023000.0 0.0 0.0 0.2655350917301663 -0.8615522922787789 0.0 0.0 0.0 0.0
825022500.0 0.0 0.0 0.7276528204287939 0.6464083306463966 0.0 0.0 0.0 0.0
840022000.0 0.0 0.0 -0.995463654835824 -0.47144779834748196 0.0 0.0 0.0 0.0
855021500.0 0.0 0.0 -2.092281416489836 -1.2368197144882336 0.0 0.0 0.0 0.0
870021000.0 0.0 0.0 -1.018805535445722 -0.0458620036204434 0.0 0.0 0.0 0.0
885020500.0 0.0 0.0 0.2874686225228984 -0.513727448002807 0.0 0.0 0.0 0.0
900020000.0 0.0 0.0 -0.8022540013219198 -0.629040159450601 0.0 0.0 0.0 0.0
915019500.0 0.0 0.0 -0.5413994757970632 -0.17523561899652848 0.0 0.0 0.0 0.0
930019000.0 0.0 0.0 0.08995684860199561 -0.08995994820602568 0.0 0.0 0.0 0.0
945018500.0 0.0 0.0 -0.36031159810618096 0.030725259772593605 0.0 0.0 0.0 0.0
960018000.0 0.0 0.0 1.0873530978239063 0.07912539951811726 0.0 0.0 0.0 0.0
975017500.0 0.0 0.0 0.49022624815748145 -0.06527868010764909 0.0 0.0 0.0 0.0
990017000.0 0.0 0.0 1.5285131979654434 -1.1581388632874499 0.0 0.0 0.0 0.0
1005016500.0 0.0 0.0 -0.5968076535696454 0.05135420858355249 0.0 0.0 0.0 0.0
1020016000.0 0.0 0.0 -0.49653229167254376 1.3183378607845726 0.0 0.0 0.0 0.0
1035015500.0 0.0 0.0 0.15275438874541808 -0.156428186907513 0.0 0.0 0.0 0.0
1050015000.0 0.0 0.0 -0.415641325470854 -1.2270310510672395 0.0 0.0 0.0 0.0
1065014500.0 0.0 0.0 0.14634488018766212 0.37579760765383363 0.0 0.0 0.0 0.0
1080014000.0 0.0 0.0 -0.1596319674437151 -0.2210783220590615 0.0 0.0 0.0 0.0
1095013500.0 0.0 0.0 -0.49490324949095277 0.2921623235808599 0.0 0.0 0.0 0.0
1110013000.0 0.0 0.0 -0.055971366230399146 -0.02960243863641098 0.0 0.0 0.0 0.0
1125012500.0 0.0 0.0 0.6431210383658218 -1.4132938148724241 0.0 0.0 0.0 0.0
1140012000.0 0.0 0.0 0.692018865434564 -0.043486452741370016 0.0 0.0 0.0 0.0
1155011500.0 0.0 0.0 -0.49703352243818455 0.1369580527610585 0.0 0.0 0.0 0.0
1170011000.0 0.0 0.0 -0.030128300480725175 0.028831972769288842 0.0 0.0 0.0 0.0
1185010500.0 0.0 0.0 1.0231122256184866 0.2169698644293841 0.0 0.0 0.0 0.0
1200010000.0 0.0 0.0 0.779695897817016 -0.5057527746554166 0.0 0.0 0.0 0.0
1215009500.0 0.0 0.0 -1.5736867846092837 0.7837298541986703 0.0 0.0 0.0 0.0
1230009000.0 0.0 0.0 0.38063870413664785 -0.5374962523092565 0.0 0.0 0.0 0.0
1245008500.0 0.0 0.0 1.5810700568986475 0.40122969420244115 0.0 0.0 0.0 0.0
1260008000.0 0.0 0.0 0.5605628714543088 -0.26844854949610747 0.0 0.0 0.0 0.0
1275007500.0 0.0 0.0 -0.6076308363083514 -1.5529829688635064 0.0 0.0 0.0 0.0
1290007000.0 0.0 0.0 0.8017830306652161 -0.08803296556367211 0.0 0.0 0.0 0.0
1305006500.0 0.0 0.0 0.3083153605674577 -0.2510362587886752 0.0 0.0 0.0 0.0
1320006000.0 0.0 0.0 0.1309001743087362 -0.5103326057470957 0.0 0.0 0.0 0.0
1335005500.0 0.0 0.0 0.10503158016769204 -0.3062116033153054 0.0 0.0 0.0 0.0
1350005000.0 0.0 0.0 0.349463099159952 -0.36100707625631817 0.0 0.0 0.0 0.0
1365004500.0 0.0 0.0 1.2134637386529041 0.6780036113513898 0.0 0.0 0.0 0.0
1380004000.0 0.0 0.0 0.9461178839941072 -0.05797948023900551 0.0 0.0 0.0 0.0
1395003500.0 0.0 0.0 -0.1328678391759561 -0.21377140107664075 0.0 0.0 0.0 0.0
1410003000.0 0.0 0.0 -0.6961068180992763 0.21254707777164697 0.0 0.0 0.0 0.0
1425002500.0 0.0 0.0 1.1754548843048058 0.22929240992834551 0.0 0.0 0.0 0.0
1440002000.0 0.0 0.0 -0.5739372957589782 1.6451321578553442 0.0 0.0 0.0 0.0
1455001500.0 0.0 0.0 0.5349204220486139 -0.4498200307298606 0.0 0.0 0.0 0.0
1470001000.0 0.0 0.0 -0.7877002455766883 0.09066554654056645 0.0 0.0 0.0 0.0
1485000500.0 0.0 0.0 0.7137395222038205 -0.05273551722724844 0.0 0.0 0.0 0.0
1500000000.0 0.0 0.0 0.6644428135505505 0.6840541265366736 0.0 0.0 0.0 0.0
