! Created with skrf 1.8.0 (http://scikit-rf.org).
# Hz S RI R 50.0 
!freq ReS11 ImS11
50000.0 -0.001504454643853764 0.010804793072092716
15049500.0 0.0015200333630086206 -0.0007520778634312031
30049000.0 -5.422889321294517e-05 0.0001429762713840238
45048500.0 0.00019789060738486657 -0.0007619006706023662
60048000.0 -0.000907077385149593 -0.0006155159461812353
75047500.0 8.143723140434515e-05 0.00017563982870938294
90047000.0 8.645539449371498e-05 0.00019198712348690065
105046500.0 3.641392014911543e-05 6.490846044834981e-05
120046000.0 -0.0016396287016325131 0.003757481878343566
135045500.0 -0.0015219668617746103 0.0023537540103621855
150045000.0 0.0013231285054400165 0.00021888924099091773
165044500.0 0.0005844688327732008 -0.0008535106636569768
180044000.0 0.0005127770991579647 -7.119131140806064e-05
195043500.0 0.00026254747982260707 -3.1124181530158976e-05
210043000.0 -0.000347133105224944 -2.6583436864020754e-05
225042500.0 0.00290076296981747 0.0013137750797202299
240042000.0 0.00022518169941336926 -0.00011176352555185897
255041500.0 0.014305813377941578 0.015709882028927164
270041000.0 0.0003096787327734437 0.006753263613052859
285040500.0 0.014800627368691616 0.0012196762319000183
300040000.0 -0.0004488776958478195 -0.0004253091058895766
315039500.0 0.000700058984835652 0.0004993786085054744
330039000.0 0.0028379707100259955 -0.002698493593269943
345038500.0 0.0002860939205084651 -0.0004233156052494846
360038000.0 -0.004554072483808291 0.00627436367000028
375037500.0 0.00024331082291282035 -0.0012535884820433774
390037000.0 -0.018288640282596528 0.005927268540569734
405036500.0 0.0026491264101694938 -0.00018328223127514525
420036000.0 -0.03208843217205059 0.05547725368598919
435035500.0 0.000889305566890257 0.0007874528998568186
450035000.0 0.0013094936596435133 -0.009491468008813297
465034500.0 -0.000536015080345259 -0.0014726379824430834
480034000.0 0.002150499881198459 0.004688300894104989
495033500.0 -0.00449162036032741 -0.01650643313454922
510033000.0 0.0015409032061720206 -0.00037441173522549225
525032500.0 -0.016915703475230727 -0.004425169319412423
540032000.0 0.0033047994788053515 0.0009354369145098972
555031500.0 0.000622056957760661 0.000859429149327847
570031000.0 -0.0018385626853846938 -0.0012008631412664477
585030500.0 0.004178160798888373 0.0024460293587523635
600030000.0 -0.0006624903505323671 0.0003891059949281125
615029500.0 -0.0025392995132736272 2.8486386307695456e-05
630029000.0 -0.004277798580532329 -0.0019497142949041538
645028500.0 -0.0013725467101536883 0.0019664856663881777
660028000.0 -0.013071416501887883 -0.015815608289421242
675027500.0 0.011287358215908512 0.001235953797599825
690027000.0 -0.001177979290144033 0.0051028652826264394
705026500.0 0.00469067186102927 -0.0010564362662884835
720026000.0 0.00396833835508078 0.004268486121542322
735025500.0 -0.0023948695106037424 0.016011293642080326
750025000.0 -0.006572650079007675 0.0008520423360614156
765024500.0 -0.0022216196428425615 0.021827480804517768
780024000.0 0.05195371767357426 -0.03786810594679228
795023500.0 0.0063325491474270305 -0.003214663822780578
810023000.0 -0.007109518993598897 -0.009506505662400331
825022500.0 -0.004022861602049494 -0.013500810595353099
840022000.0 -0.010496364570063258 -0.003515917504990575
855021500.0 0.0037650223062826466 0.0034490645524306884
870021000.0 0.0008373633512917391 -0.0012869989067116003
885020500.0 -0.01048792779957754 0.010488027875222464
900020000.0 -0.00028750102129973017 0.012829440097442267
915019500.0 -0.003590648987194691 -0.0017224289266367396
930019000.0 -0.018320418925308186 0.019263571617579717
945018500.0 -8.817457954881962e-05 -0.013515392010356024
960018000.0 0.00984918357072228 -0.006798891875101551
975017500.0 -0.062228898750914065 0.07729969316124173
990017000.0 0.014015741269090916 0.008088289177974151
1005016500.0 -0.00240992727067286 -0.006728971677760896
1020016000.0 0.012671513177722929 9.823220738894057e-05
1035015500.0 0.015313760238626163 0.02381925221217056
1050015000.0 0.0030733264835392246 -0.07475080328737525
1065014500.0 -0.011680172670234242 -0.005709888079361206
1080014000.0 -0.010989704178008496 -0.0031536016410406136
1095013500.0 -0.023418027647177684 -0.01627028746365502
1110013000.0 -0.02810407986304871 -0.0216960982957376
1125012500.0 -0.05001260670486139 -0.00851784781646518
1140012000.0 0.0015556303865049827 0.009373071859175802
1155011500.0 0.048796585546510424 0.06320972360827343
1170011000.0 -0.14323956860847264 0.2320579265295906
1185010500.0 0.126510037711738 -0.057380907834858996
1200010000.0 0.01797936179477914 0.010485562808053527
1215009500.0 0.03030930899389607 -0.010739946940445251
1230009000.0 0.021772415509191876 -0.005124380774921997
1245008500.0 -0.037309914600277765 -0.006478587986273276
1260008000.0 0.06550599166965776 -0.2353717332997835
1275007500.0 -0.007850011046207087 -0.016849465157331194
1290007000.0 -0.010969971149910543 -0.0003301529144748658
1305006500.0 0.026377650678775528 -0.007160750734595479
1320006000.0 0.01649620432655562 0.01056922405189213
1335005500.0 0.029934731948155456 0.006134020050035321
1350005000.0 0.009290607959833367 0.0023075594372521237
1365004500.0 -0.02986979481656711 0.07965025559921451
1380004000.0 -0.0019549433891928028 0.006310149119574557
1395003500.0 -0.09082959230054098 -0.04451070855708106
1410003000.0 0.04529178132024203 0.0853424021414529
1425002500.0 0.00613140280268281 -0.00931274262934096
1440002000.0 -0.017711406354295158 -0.005362201738871461
1455001500.0 -0.00414867652758292 -0.03265308888586749
1470001000.0 0.030562630997003307 -0.01593292285386796
1485000500.0 -0.12631008561296725 -0.03650227581352431
1500000000.0 -0.08462248926399822 0.00908373221619171
