! Created with skrf 1.8.0 (http://scikit-rf.org).
# Hz S RI R 50.0 
!freq ReS11 ImS11
50000.0 4.7380548031559454e-05 3.5629225398295515e-05
15049500.0 -2.3202604508209426e-05 3.337303763927232e-05
30049000.0 -0.00022778306251770787 -0.0005013085766324068
45048500.0 0.0005940663144640915 0.00016032097907731421
60048000.0 1.2982064817321017e-05 2.3978101734326922e-05
75047500.0 0.00014946740352117733 -0.0002528524064997033
90047000.0 -0.000555171887210499 1.7796510562136816e-05
105046500.0 0.0001162520976313423 0.0002053765520860456
120046000.0 -8.591972627277245e-05 0.00011106584918519002
135045500.0 -1.8119607026531682e-05 0.00015814238277781932
150045000.0 -9.48503532841985e-05 0.00023900180789074126
165044500.0 -2.549031466658262e-05 -1.916794295509213e-05
180044000.0 2.6204929099928478e-05 2.7850215133662413e-05
195043500.0 4.729138875411129e-05 -4.676470766772653e-05
210043000.0 0.00014249132324482754 -0.0007992229008233511
225042500.0 -4.09600858122883e-05 -2.8683731261222416e-05
240042000.0 4.708640148955508e-05 -3.432107834585177e-05
255041500.0 -0.0005433342266881677 -0.00043959867615042496
270041000.0 -6.433315761738629e-05 -4.353903846290073e-05
285040500.0 0.00011881660190889542 9.071186927966181e-05
300040000.0 0.0003840392090356465 -0.0002952030814455338
315039500.0 0.0017038268318236662 0.0010102025102656084
330039000.0 -0.0007370689287006846 0.00028095840781808745
345038500.0 -0.0012401777061649916 0.0009427690018091396
360038000.0 -0.0011490588116789566 -0.0013950144132521916
375037500.0 0.001932483818354389 -0.001262792081412289
390037000.0 -0.0013110327601046957 -0.0027655091256988114
405036500.0 -0.0011330137065198947 0.0018788917774750602
420036000.0 0.0007862407106321424 -0.0011624445124614937
435035500.0 -0.0008046012722869254 -0.0019621206533474806
450035000.0 -0.00043410333006733645 0.0008261569415767273
465034500.0 0.0012548922007173462 0.0008141669543495102
480034000.0 -0.0004098822623596126 0.00021294220711259079
495033500.0 0.012344952933636332 -0.001256691893407127
510033000.0 -0.0005020316826515939 -0.002281886042792878
525032500.0 0.000572985192172672 -0.00022593908026832883
540032000.0 -0.000428589432574947 0.0010817191916352707
555031500.0 0.0011304521099515597 -0.0033003338095863397
570031000.0 0.0005872128269494608 -0.0004927750996177169
585030500.0 -0.008328853867384274 0.00785135265624409
600030000.0 0.0005802555183556465 0.0017249320240106834
615029500.0 0.001618220020730402 0.0006632940233625151
630029000.0 0.001315846344408001 -0.005746892324632432
645028500.0 0.004223735848719181 -0.0012061679141543782
660028000.0 0.00017322429700070724 0.0013304237609119913
675027500.0 -0.001368243635659607 0.0005045803147793555
690027000.0 -4.6338170472386406e-05 0.0010588712245874527
705026500.0 -0.002313762912584648 -0.0020850056240323835
720026000.0 -0.0018405578919531097 0.0035763046334040816
735025500.0 -0.0011856124695485447 6.687670052236492e-05
750025000.0 0.00035708318759604017 -0.0017567562887066865
765024500.0 -0.0012799100185887505 6.58110463971807e-05
780024000.0 0.009224673767897023 -0.017787502019440255
795023500.0 -0.000898710813041985 0.0002735839871644519
810023000.0 -0.0015497475862610043 -0.00021709727669502442
825022500.0 0.0037849154672174794 0.0047090897325125745
840022000.0 -0.0037525600180685487 0.005893828409521786
855021500.0 -0.0008835169269607747 0.0007656805609708281
870021000.0 -0.0005249937468906348 0.0005910526864532346
885020500.0 0.011196641990284133 0.0030727668275999914
900020000.0 -0.013885587914832144 -0.036227469104041364
915019500.0 0.0003486200164209934 -0.002596750178743627
930019000.0 0.00018345297415057508 0.0026683843003065997
945018500.0 0.003791252240923128 -0.002895305774391987
960018000.0 -0.000551689191283404 -0.004035135076530276
975017500.0 -0.006031435934782125 -0.0036145267583944205
990017000.0 -0.0142315707056486 -0.01530977000263136
1005016500.0 -0.0019207628330051736 -0.005515026164125706
1020016000.0 0.03363927266798293 -0.0030505132805563697
1035015500.0 -0.001985658024235421 0.007268841808549106
1050015000.0 0.012334325927111957 0.04300430232963088
1065014500.0 0.18276277939652974 0.045946008643463765
1080014000.0 0.004373794219425909 -0.0031098982289306976
1095013500.0 -0.0024926201518324915 -0.004535127499263544
1110013000.0 0.004301811264131008 -0.002151998048482306
1125012500.0 -0.004310083276112644 0.0016063758235723847
1140012000.0 -0.012518944876313396 0.008283447810341743
1155011500.0 0.004753643500255074 -0.03928707195542166
1170011000.0 0.007276252548024095 -0.006362911532604846
1185010500.0 -0.043716834404995554 0.04210292879348368
1200010000.0 -0.01768058728785475 0.006801609362113597
1215009500.0 -0.00020548432229422242 -2.3299975198426366e-06
1230009000.0 0.01655144968754206 0.0033476830593295068
1245008500.0 0.007023241684476329 0.003753573055085967
1260008000.0 -0.006521719311402962 -0.003249611809557207
1275007500.0 0.01229809756513934 0.014101662455035668
1290007000.0 0.10466127317138726 -0.10746608048547263
1305006500.0 0.021968924268600334 0.012174766535037632
1320006000.0 0.052156087447811514 0.03664653098405238
1335005500.0 -0.006313546351015875 -0.0005397379920110502
1350005000.0 0.02631706958672074 -0.008646069714865515
1365004500.0 -0.0036350062386821774 -0.007903726631651812
1380004000.0 -1.1878568798604217 1.007495634761009
1395003500.0 -0.02802231474333557 0.014437729434202101
1410003000.0 -0.007447715685759497 0.0026954181701281687
1425002500.0 -0.0018216218468260607 0.0223051841629439
1440002000.0 0.02146649596205005 -0.010136623416348862
1455001500.0 -0.19962062647518788 -0.14977628356511433
1470001000.0 0.003157852405886695 -0.009490590467585136
1485000500.0 0.1220645450140326 -0.016808736384702715
1500000000.0 0.009967039977247212 -0.024720032903758574
