! Created with skrf 1.8.0 (http://scikit-rf.org).
# Hz S RI R 50.0 
!freq ReS11 ImS11
50000.0 -7.501755152665499 5.1732140279500545
15049500.0 0.8715206700825786 -3.506414801861939
30049000.0 0.690499034835467 0.44295998264169667
45048500.0 -0.939367089049705 2.646003030949263
60048000.0 0.45899274802614676 -3.995993861403191
75047500.0 0.7654038379868228 -0.3946485167001402
90047000.0 -0.5646146535192554 -0.4926545556586008
105046500.0 0.7951175203326777 0.10814134418174855
120046000.0 3.38028357036837 -6.394246041550044
135045500.0 -3.125014378428588 -1.2468837567797861
150045000.0 1.927035469744783 1.7063234358808936
165044500.0 3.332743960501287 0.33584333751321077
180044000.0 1.9399621374593978 -0.17111487678879483
195043500.0 -0.29948594377404486 1.1926112296883904
210043000.0 0.2614225136525471 -0.020446167686278775
225042500.0 4.19262549843422 1.0836265946139705
240042000.0 -0.6253704444767642 -0.8522785776521137
255041500.0 19.678462071725242 -4.1600757109259385
270041000.0 3.1763451449938445 2.7058798262875765
285040500.0 -4.053213090515585 7.459193435229006
300040000.0 0.6950866451536658 0.019624456542549965
315039500.0 -0.1542343141690741 0.7174732802522479
330039000.0 0.20148087589851785 1.135767859872863
345038500.0 0.5070014812256681 -0.293520818406245
360038000.0 -3.5978806374306616 0.4947296520295424
375037500.0 -0.655072223934287 -0.002379366230933017
390037000.0 -2.5129879214975306 0.8782550803715439
405036500.0 -0.058567774092906914 0.43758647977399195
420036000.0 0.9870076609352074 -10.685126463148809
435035500.0 -1.2972000531482188 1.2219363884773462
450035000.0 1.0251148377573325 -0.9605510079441199
465034500.0 -0.09421296946448576 -0.07806350142250877
480034000.0 -1.8977346069290362 -0.23679598307490168
495033500.0 6.982441827690771 -2.5027616354660354
510033000.0 -0.8454192958367331 -0.7591617011215712
525032500.0 0.7494624804696862 5.336443664027598
540032000.0 0.06136111374275213 1.2225260634172979
555031500.0 0.727239145246983 -0.14303552880099668
570031000.0 0.0526436022377248 -0.0013469324365220881
585030500.0 -0.9551271233459184 2.5230929791850114
600030000.0 0.806654690227471 0.08777392908791087
615029500.0 0.17905412425529565 -0.9215402556682889
630029000.0 1.0647883922739332 1.8251309383018386
645028500.0 1.2824087952663046 -0.7504901833734985
660028000.0 -2.9526692640883625 -1.4810357975131265
675027500.0 0.6705828300580688 1.8751312047171176
690027000.0 0.17669336521364115 1.1582517358080784
705026500.0 0.07333062547446245 1.6661502452884545
720026000.0 -0.7982222983052373 1.1453906752642953
735025500.0 5.919537284516864 0.691182861206769
750025000.0 0.20808146712706718 0.29355079953008556
765024500.0 3.7946487219745957 2.9137138069649375
780024000.0 0.5522238228745406 -0.9669255854029227
795023500.0 0.7319869917223972 1.0954018619366857
810023000.0 -0.7208951111006647 1.5082691381916309
825022500.0 2.160935230547877 0.8647519626033683
840022000.0 -1.713348594053133 0.19760802539089303
855021500.0 -0.11895295517724737 -0.603437461413416
870021000.0 -1.0781484468369937 -0.13870049248649752
885020500.0 0.5827047479581582 -1.077760069411778
900020000.0 -1.6133537265286817 1.1182087798329743
915019500.0 -1.3783221654918631 0.49165659800060624
930019000.0 4.163085837543686 1.4335502191852778
945018500.0 -0.803348916683536 -2.8546209307831116
960018000.0 0.6441011706271834 1.014091477100548
975017500.0 1.7008931545476014 5.752880733569696
990017000.0 0.04932657429998432 2.1197273222676976
1005016500.0 1.4986844916523872 -0.5862652957946842
1020016000.0 0.19628655102124287 0.23225663362691445
1035015500.0 2.540338992571369 -1.385753404834788
1050015000.0 -1.6098757260780299 1.1036470327603054
1065014500.0 -0.14530816050558068 -0.9892531154984489
1080014000.0 -0.4673547023919659 0.9569451449712898
1095013500.0 0.7357243163572798 -2.7530230314984774
1110013000.0 -0.12256769088643694 3.211752550882041
1125012500.0 -0.5734695654109595 3.1391088307089787
1140012000.0 1.8121436477872503 0.14573328713869715
1155011500.0 -2.2434579798056946 0.3594711115985
1170011000.0 -13.884686581605914 -9.807638478682057
1185010500.0 4.324481044710023 -0.4530808371612804
1200010000.0 0.364519762284758 0.8035356944305182
1215009500.0 -1.5589725860694326 0.14672942762596425
1230009000.0 -0.2848618659461147 -0.42163667342292216
1245008500.0 0.3481788258634303 -0.9758702426376745
1260008000.0 2.3360432425575763 -1.5321540291828613
1275007500.0 -0.647704570004201 0.7227593063584267
1290007000.0 -0.050780696155258945 0.14130111436353945
1305006500.0 0.3770483340641126 2.0962910677713817
1320006000.0 -0.8246188427756869 -0.7254466003035259
1335005500.0 -0.1224982451556449 0.9021932555849119
1350005000.0 0.6371554457459917 0.11181889262794002
1365004500.0 -0.07797931430819845 0.8643113678817961
1380004000.0 0.5497502719540184 -0.20367671814229268
1395003500.0 -0.6375545433047545 6.69014197639502
1410003000.0 -1.9350868856892829 1.535328806206159
1425002500.0 0.590975661697991 -0.4393227459020977
1440002000.0 -0.160826345886948 -0.14538331344693137
1455001500.0 -0.00799523204903617 0.2611615953222729
1470001000.0 -1.5108396720054933 -0.1865383012879547
1485000500.0 0.33883395040979064 1.3659345094725974
1500000000.0 0.9746124758683316 1.4707860650040816
