! Created with skrf 1.8.0 (http://scikit-rf.org).
# Hz S RI R 50.0 
!freq ReS11 ImS11
50000.0 1.475865625685372 -0.3575835173979747
15049500.0 -0.36872526091394875 -0.043216644850818074
30049000.0 -6.290178814518032 -0.01600371990940714
45048500.0 -0.36567209092659225 5.689588893112303
60048000.0 0.8832738197069812 0.3029611469764193
75047500.0 -0.1654187862947569 1.8686023347400933
90047000.0 -1.3215251709076408 3.582385296428158
105046500.0 -0.1241709429901394 1.5613974750854176
120046000.0 0.5776670698286531 1.8146886364202988
135045500.0 -0.1691066749231795 0.19845416455004766
150045000.0 -1.7133194613394127 -2.183083336086128
165044500.0 -1.1937641761108375 -0.4003031882451325
180044000.0 -0.0689712913894189 -0.03141510718603355
195043500.0 0.43289378703082554 0.2017023260300853
210043000.0 7.2178920094470405 0.9074924708927636
225042500.0 -0.018820386400915053 0.5785817736378364
240042000.0 -1.297243498808679 -1.1717530477732556
255041500.0 -7.920690620619565 -5.1733914238794
270041000.0 1.4514031634362923 0.15338040482849458
285040500.0 -0.2773404022474596 -0.37100210982470355
300040000.0 -0.34417661362073687 0.1576764595218905
315039500.0 2.7823280921611664 -0.8391472314076798
330039000.0 0.6986300077195983 0.7620648442307164
345038500.0 0.11252578221594806 -2.2917586764775137
360038000.0 1.4953845122123373 0.9785478403178058
375037500.0 -1.9227648248126183 -2.1960144609601984
390037000.0 -0.4113720086129489 1.0824575807508554
405036500.0 -1.5585571990403924 -4.143418495109523
420036000.0 -0.6532857657276391 1.6694570110232865
435035500.0 -2.6191080730308434 -0.28921413319393235
450035000.0 -1.640290768921058 -0.6965423620041181
465034500.0 0.3196730212078061 -2.234455962670541
480034000.0 -0.031975221912222684 -0.35882937698959383
495033500.0 -6.943917382210882 -6.520338132382265
510033000.0 0.7689779033589801 3.8827167398625204
525032500.0 0.4993647023620036 -0.16583577183934212
540032000.0 0.506237257427701 -1.1527264235488464
555031500.0 -0.8638417510204079 -2.946316814856748
570031000.0 -0.6805871728037277 0.9894623902781634
585030500.0 -11.428945719724965 -5.172610010611687
600030000.0 -1.6273007036458071 2.0579984726903824
615029500.0 -0.31584125605748087 -1.6727868135009987
630029000.0 2.565841859954194 5.160626811573257
645028500.0 0.15292696606167275 -1.6501230460513618
660028000.0 -0.3482583119885828 -0.25822483293760734
675027500.0 -0.3573716181236783 0.6808382403431082
690027000.0 -1.4195369527711537 0.12955955230172858
705026500.0 -1.652826816468502 -1.2436868046713387
720026000.0 -2.3401215638772386 -1.2403602302316397
735025500.0 -0.14405836439420577 0.968355963092425
750025000.0 -0.1434886910008909 1.3391467363577427
765024500.0 0.5458625687931986 -0.873444182653854
780024000.0 -1.4253580031137838 3.29081641217117
795023500.0 0.460681678044362 0.83563899880466
810023000.0 -0.5395627041009035 -1.3038721626745258
825022500.0 -4.3427086896304745 4.034237748147824
840022000.0 -2.1783840269671657 -3.120072149935324
855021500.0 -0.548251766917124 -1.5907313660681248
870021000.0 0.08222982255577918 0.42960014181475437
885020500.0 -1.5708623395612196 4.966482524358164
900020000.0 -4.927673978639981 3.751830760905344
915019500.0 0.09783136456630169 -0.7554445070773848
930019000.0 1.4167544878623346 -1.4544138572273901
945018500.0 0.5209876700504739 1.4539529797365798
960018000.0 -0.15861681322472204 0.28318052189632414
975017500.0 -0.2919372818398411 1.559366237745141
990017000.0 -1.1489233200259052 -2.937782070482551
1005016500.0 0.6906027586697439 0.7403880359113576
1020016000.0 0.4335520733572172 -3.0508902974578507
1035015500.0 0.6796798015207884 -1.0231351537957947
1050015000.0 0.851152227751367 2.805622371238003
1065014500.0 0.12198169886193791 -13.070665333456873
1080014000.0 -0.30111466307430246 -0.17337114100367543
1095013500.0 -0.8404266249431963 -0.4200055313951137
1110013000.0 -1.0272851405202152 -0.37076518390596214
1125012500.0 1.2629615130035499 0.4203019813458442
1140012000.0 1.0188064078400203 -0.7901432251097341
1155011500.0 -0.2894266308513695 2.3005997908465265
1170011000.0 1.377916226006218 -0.5529493516058114
1185010500.0 -2.710727960840373 -5.858213420488375
1200010000.0 -2.2650646077202774 0.2074225052089619
1215009500.0 0.9861647098021883 -0.0027815454654827603
1230009000.0 -1.294210529330013 -0.7028571327299608
1245008500.0 -0.7170136640509882 0.566580101179542
1260008000.0 -0.659139562778159 0.25365856740558995
1275007500.0 -0.22317618721533872 -1.0958252618567552
1290007000.0 -5.026960363785031 -5.495017891220726
1305006500.0 0.5399865216516286 1.2845106022520745
1320006000.0 2.498353175051041 -1.5960238291029551
1335005500.0 -0.3253298941574295 0.858943927850489
1350005000.0 0.5061340277730838 0.9529318394348092
1365004500.0 0.5323607884855176 -0.13615843172293993
1380004000.0 30.51702408349503 18.003860899028705
1395003500.0 1.9062528119669881 0.08647434000788456
1410003000.0 1.0063148157399 0.3407352775404359
1425002500.0 -1.0812665155698589 -0.650246660989678
1440002000.0 0.3676483190108091 -0.9763952162151999
1455001500.0 -5.2554948535875 -3.9066438293062458
1470001000.0 -0.7365941223763607 0.2737188500058765
1485000500.0 1.400374668657496 1.4460429231233256
1500000000.0 -0.24595919833413515 0.2976745135534228
