! Created with skrf 1.8.0 (http://scikit-rf.org).
# Hz S RI R 50.0 
!freq ReS11 ImS11 ReS21 ImS21 ReS12 ImS12 ReS22 ImS22
50000.0 0.0 0.0 8.551270720666597e-06 4.13037120588043e-05 0.0 0.0 0.0 0.0
15049500.0 0.0 0.0 -6.2525501502912394e-06 6.128625849558432e-05 0.0 0.0 0.0 0.0
30049000.0 0.0 0.0 2.2775209892319584e-05 5.555658426816391e-05 0.0 0.0 0.0 0.0
45048500.0 0.0 0.0 -3.912245945455654e-06 4.487034935017153e-05 0.0 0.0 0.0 0.0
60048000.0 0.0 0.0 7.542094937878608e-06 -1.5470261233357598e-06 0.0 0.0 0.0 0.0
75047500.0 0.0 0.0 -6.0407163724747396e-05 0.00015916212197041623 0.0 0.0 0.0 0.0
90047000.0 0.0 0.0 7.653000946660434e-05 -4.3781489039026824e-05 0.0 0.0 0.0 0.0
105046500.0 0.0 0.0 -2.0752656110478763e-05 2.3680887766058932e-05 0.0 0.0 0.0 0.0
120046000.0 0.0 0.0 -1.3533586419376089e-05 5.534643035622969e-05 0.0 0.0 0.0 0.0
135045500.0 0.0 0.0 -2.785896802958012e-06 6.842662516640544e-05 0.0 0.0 0.0 0.0
150045000.0 0.0 0.0 1.4578743971944434e-05 0.00014001404590509238 0.0 0.0 0.0 0.0
165044500.0 0.0 0.0 4.0670492570446516e-07 -6.651263503488538e-05 0.0 0.0 0.0 0.0
180044000.0 0.0 0.0 1.4557186618242577e-05 0.00011414567728420552 0.0 0.0 0.0 0.0
195043500.0 0.0 0.0 -1.789491161902305e-05 -1.2681156501563102e-05 0.0 0.0 0.0 0.0
210043000.0 0.0 0.0 -6.885319787099716e-05 9.46371036893435e-06 0.0 0.0 0.0 0.0
225042500.0 0.0 0.0 -5.9265382149989315e-05 3.365553653795909e-05 0.0 0.0 0.0 0.0
240042000.0 0.0 0.0 1.272880321819422e-05 2.496471542152782e-05 0.0 0.0 0.0 0.0
255041500.0 0.0 0.0 0.0008209718511047793 0.00038104331184859303 0.0 0.0 0.0 0.0
270041000.0 0.0 0.0 -0.00027995342364131343 -7.548868856074634e-05 0.0 0.0 0.0 0.0
285040500.0 0.0 0.0 -8.15588532569257e-05 0.00013057787102385354 0.0 0.0 0.0 0.0
300040000.0 0.0 0.0 0.0001909743026176648 1.588526084440793e-05 0.0 0.0 0.0 0.0
315039500.0 0.0 0.0 0.00013264957215047414 -0.00030853008217649093 0.0 0.0 0.0 0.0
330039000.0 0.0 0.0 0.00037087108537050824 -9.802302237160836e-07 0.0 0.0 0.0 0.0
345038500.0 0.0 0.0 2.5045823650565037e-05 2.761431786467734e-05 0.0 0.0 0.0 0.0
360038000.0 0.0 0.0 -0.00019884485535910212 -0.00017473761532950973 0.0 0.0 0.0 0.0
375037500.0 0.0 0.0 -7.579960381437182e-05 -0.000419775311155057 0.0 0.0 0.0 0.0
390037000.0 0.0 0.0 -0.0005962338962916434 -0.00025948030058503644 0.0 0.0 0.0 0.0
405036500.0 0.0 0.0 -0.0002572394024125852 -0.000478630185418195 0.0 0.0 0.0 0.0
420036000.0 0.0 0.0 -0.0033404224954709104 0.002087180835808606 0.0 0.0 0.0 0.0
435035500.0 0.0 0.0 6.127288415599604e-05 -0.00014211912635915213 0.0 0.0 0.0 0.0
450035000.0 0.0 0.0 -0.00020418999064845044 -0.001666375452308536 0.0 0.0 0.0 0.0
465034500.0 0.0 0.0 -0.0004945079272155883 -0.0003230079531138438 0.0 0.0 0.0 0.0
480034000.0 0.0 0.0 0.00020349112358148202 -0.00033319587466849106 0.0 0.0 0.0 0.0
495033500.0 0.0 0.0 0.0014967938274287951 -9.232902979114891e-05 0.0 0.0 0.0 0.0
510033000.0 0.0 0.0 -6.5650315202351955e-06 -0.0005055927308805489 0.0 0.0 0.0 0.0
525032500.0 0.0 0.0 0.0019432435339092789 0.0007007940164860338 0.0 0.0 0.0 0.0
540032000.0 0.0 0.0 -0.001198202389587799 -0.0006251232509211803 0.0 0.0 0.0 0.0
555031500.0 0.0 0.0 -5.388968209880529e-05 6.028666304626043e-05 0.0 0.0 0.0 0.0
570031000.0 0.0 0.0 0.0009585773258621538 -0.00022605265037414142 0.0 0.0 0.0 0.0
585030500.0 0.0 0.0 0.00012905751517323832 -0.0001768642563221155 0.0 0.0 0.0 0.0
600030000.0 0.0 0.0 0.0001569773161985887 -0.0004500821092987573 0.0 0.0 0.0 0.0
615029500.0 0.0 0.0 2.013782734325104e-05 -9.375454983793306e-05 0.0 0.0 0.0 0.0
630029000.0 0.0 0.0 -4.510750783436323e-05 0.0006417964111911288 0.0 0.0 0.0 0.0
645028500.0 0.0 0.0 0.00017472614978162492 0.00020453376016536237 0.0 0.0 0.0 0.0
660028000.0 0.0 0.0 -0.0010273151136843282 0.004097887793650815 0.0 0.0 0.0 0.0
675027500.0 0.0 0.0 7.010135893885276e-06 -0.0005408257753755815 0.0 0.0 0.0 0.0
690027000.0 0.0 0.0 0.0005721660991770447 0.0012107752116247371 0.0 0.0 0.0 0.0
705026500.0 0.0 0.0 -0.00016057156063380016 0.0005809613826236253 0.0 0.0 0.0 0.0
720026000.0 0.0 0.0 -0.0005894961702935905 0.00045118809107599065 0.0 0.0 0.0 0.0
735025500.0 0.0 0.0 0.0008219665273432702 0.0003993585486351524 0.0 0.0 0.0 0.0
750025000.0 0.0 0.0 0.00030280600450823604 0.00039407601775928123 0.0 0.0 0.0 0.0
765024500.0 0.0 0.0 0.00216186369043007 0.00029609998483400593 0.0 0.0 0.0 0.0
780024000.0 0.0 0.0 -0.0004509848437255303 0.0009819684285304947 0.0 0.0 0.0 0.0
795023500.0 0.0 0.0 -0.00029407229539599086 0.0013683687657442439 0.0 0.0 0.0 0.0
810023000.0 0.0 0.0 0.0010449419045545476 0.0008862153653139321 0.0 0.0 0.0 0.0
825022500.0 0.0 0.0 0.0008043564633042802 0.0009805597432099933 0.0 0.0 0.0 0.0
840022000.0 0.0 0.0 0.0012321641193259658 0.0002512073514726227 0.0 0.0 0.0 0.0
855021500.0 0.0 0.0 -0.0015711821204511137 0.0008406691167729287 0.0 0.0 0.0 0.0
870021000.0 0.0 0.0 -4.447876787209839e-05 0.00011539177174501023 0.0 0.0 0.0 0.0
885020500.0 0.0 0.0 -0.0011977871315585423 -0.00046722189442524034 0.0 0.0 0.0 0.0
900020000.0 0.0 0.0 0.002738784538801128 0.005507678026578573 0.0 0.0 0.0 0.0
915019500.0 0.0 0.0 -7.60570963652834e-05 -2.035515323163836e-05 0.0 0.0 0.0 0.0
930019000.0 0.0 0.0 0.00037859807813328045 -0.00022830590343278474 0.0 0.0 0.0 0.0
945018500.0 0.0 0.0 -0.0026594838297486594 -0.004949469394248583 0.0 0.0 0.0 0.0
960018000.0 0.0 0.0 -0.0012058159467765509 -0.005205277314349889 0.0 0.0 0.0 0.0
975017500.0 0.0 0.0 0.0007191000123362504 -0.0032493796720162484 0.0 0.0 0.0 0.0
990017000.0 0.0 0.0 -0.009598464910407924 -0.005415528841512805 0.0 0.0 0.0 0.0
1005016500.0 0.0 0.0 0.0031987415322105636 -0.006972969515057746 0.0 0.0 0.0 0.0
1020016000.0 0.0 0.0 0.006104122973128773 -0.003753998940658725 0.0 0.0 0.0 0.0
1035015500.0 0.0 0.0 0.0022359196345985827 0.0005175949654979708 0.0 0.0 0.0 0.0
1050015000.0 0.0 0.0 -0.006512676060079301 -0.003213371435873247 0.0 0.0 0.0 0.0
1065014500.0 0.0 0.0 0.0032548170333952194 0.00016966293167609126 0.0 0.0 0.0 0.0
1080014000.0 0.0 0.0 0.0010604501265641742 0.0007487723645210911 0.0 0.0 0.0 0.0
1095013500.0 0.0 0.0 -0.0012379125108547548 -0.011304374332143843 0.0 0.0 0.0 0.0
1110013000.0 0.0 0.0 0.0033503957122380285 0.0017791299237406456 0.0 0.0 0.0 0.0
1125012500.0 0.0 0.0 -0.010168763171664983 0.018008583944357386 0.0 0.0 0.0 0.0
1140012000.0 0.0 0.0 -0.00014039797226783631 1.6729107466926205e-05 0.0 0.0 0.0 0.0
1155011500.0 0.0 0.0 0.0007372701306457362 0.00048288941520575304 0.0 0.0 0.0 0.0
1170011000.0 0.0 0.0 0.001989202600767592 0.0003891004305905658 0.0 0.0 0.0 0.0
1185010500.0 0.0 0.0 -0.00812811681024806 0.011370994635019813 0.0 0.0 0.0 0.0
1200010000.0 0.0 0.0 -0.0008066824473676902 -0.0024596088660992304 0.0 0.0 0.0 0.0
1215009500.0 0.0 0.0 -0.010032432622788646 0.006004032348224699 0.0 0.0 0.0 0.0
1230009000.0 0.0 0.0 0.0014636763163993647 -0.0036605223104795546 0.0 0.0 0.0 0.0
1245008500.0 0.0 0.0 -0.008859575944426297 0.003118333245702689 0.0 0.0 0.0 0.0
1260008000.0 0.0 0.0 0.005321193788941998 0.008145463603890549 0.0 0.0 0.0 0.0
1275007500.0 0.0 0.0 0.0011869376887885617 -0.0017985847117131973 0.0 0.0 0.0 0.0
1290007000.0 0.0 0.0 0.006117761478595475 -0.0011448926450759365 0.0 0.0 0.0 0.0
1305006500.0 0.0 0.0 0.00292076130109787 0.00013421359319294482 0.0 0.0 0.0 0.0
1320006000.0 0.0 0.0 0.006358995055958162 -0.007885018559581769 0.0 0.0 0.0 0.0
1335005500.0 0.0 0.0 -0.000682152336513593 -0.0006355931499049688 0.0 0.0 0.0 0.0
1350005000.0 0.0 0.0 0.0009268436770193414 0.007324677201104322 0.0 0.0 0.0 0.0
1365004500.0 0.0 0.0 0.00747380167383429 -0.0034350843863232123 0.0 0.0 0.0 0.0
1380004000.0 0.0 0.0 0.000439833245350704 0.001970622970273741 0.0 0.0 0.0 0.0
1395003500.0 0.0 0.0 -0.0038850460907380803 0.0007222637515103695 0.0 0.0 0.0 0.0
1410003000.0 0.0 0.0 0.0107020798960854 -0.0032186314963079817 0.0 0.0 0.0 0.0
1425002500.0 0.0 0.0 -0.003346815483823118 0.0015270925113033738 0.0 0.0 0.0 0.0
1440002000.0 0.0 0.0 -0.0019571462735557383 0.001074817727399104 0.0 0.0 0.0 0.0
1455001500.0 0.0 0.0 0.02232904421212698 0.006307093521194775 0.0 0.0 0.0 0.0
1470001000.0 0.0 0.0 0.003921117492842257 -0.003307236008859014 0.0 0.0 0.0 0.0
1485000500.0 0.0 0.0 -0.009333284689684005 0.02267918134418719 0.0 0.0 0.0 0.0
1500000000.0 0.0 0.0 -0.017849751947139954 0.02236810546116089 0.0 0.0 0.0 0.0
