! Created with skrf 1.8.0 (http://scikit-rf.org).
# Hz S RI R 50.0 
!freq ReS11 ImS11 ReS21 ImS21 ReS12 ImS12 ReS22 ImS22
50000.0 0.0 0.0 -2.906693195392809e-05 5.5853541325249774e-06 0.0 0.0 0.0 0.0
15049500.0 0.0 0.0 4.582720769575699e-05 -3.0270711603713073e-06 0.0 0.0 0.0 0.0
30049000.0 0.0 0.0 2.9580638155434113e-05 3.8220438803306215e-05 0.0 0.0 0.0 0.0
45048500.0 0.0 0.0 1.0725496710050986e-05 2.886600956700953e-05 0.0 0.0 0.0 0.0
60048000.0 0.0 0.0 4.908075881352831e-05 7.347677407743427e-06 0.0 0.0 0.0 0.0
75047500.0 0.0 0.0 2.5103447676290193e-05 4.168593920932765e-05 0.0 0.0 0.0 0.0
90047000.0 0.0 0.0 -3.77619412841297e-05 5.570489372087466e-05 0.0 0.0 0.0 0.0
105046500.0 0.0 0.0 9.32618822978628e-06 7.025732393923496e-05 0.0 0.0 0.0 0.0
120046000.0 0.0 0.0 -4.4148696709458387e-05 3.823257391095006e-05 0.0 0.0 0.0 0.0
135045500.0 0.0 0.0 -1.623373128952198e-05 3.632375625426967e-05 0.0 0.0 0.0 0.0
150045000.0 0.0 0.0 1.2111770869796549e-05 8.786399816988497e-05 0.0 0.0 0.0 0.0
165044500.0 0.0 0.0 1.0626803124067837e-06 7.588162887388239e-05 0.0 0.0 0.0 0.0
180044000.0 0.0 0.0 -2.874901661388195e-05 5.9595175960263254e-05 0.0 0.0 0.0 0.0
195043500.0 0.0 0.0 -2.4671544651074585e-05 7.81833676527817e-05 0.0 0.0 0.0 0.0
210043000.0 0.0 0.0 -3.342878713414331e-05 2.5235198250462275e-05 0.0 0.0 0.0 0.0
225042500.0 0.0 0.0 -5.607709614244955e-05 6.156400231653616e-05 0.0 0.0 0.0 0.0
240042000.0 0.0 0.0 -5.1502701169611057e-05 7.171732898842331e-05 0.0 0.0 0.0 0.0
255041500.0 0.0 0.0 -8.44066348022181e-05 5.74880580848317e-05 0.0 0.0 0.0 0.0
270041000.0 0.0 0.0 -3.3660744529927754e-05 4.232687565472956e-05 0.0 0.0 0.0 0.0
285040500.0 0.0 0.0 -3.1366694195089946e-05 3.141155229006854e-05 0.0 0.0 0.0 0.0
300040000.0 0.0 0.0 -0.0004348497126408912 0.00022332801982987788 0.0 0.0 0.0 0.0
315039500.0 0.0 0.0 -0.00017832916731987014 -1.1892091321620678e-05 0.0 0.0 0.0 0.0
330039000.0 0.0 0.0 -8.114566702376108e-05 -0.00018793572818458148 0.0 0.0 0.0 0.0
345038500.0 0.0 0.0 0.00016433222332274398 -0.00015777514729133925 0.0 0.0 0.0 0.0
360038000.0 0.0 0.0 0.0002305701908008016 -0.00031093960861730357 0.0 0.0 0.0 0.0
375037500.0 0.0 0.0 -0.0001303723948991517 0.00016841010527061506 0.0 0.0 0.0 0.0
390037000.0 0.0 0.0 0.0004775730557183636 -0.0008548425160214159 0.0 0.0 0.0 0.0
405036500.0 0.0 0.0 -0.0002861395015652253 -0.00023171821053599652 0.0 0.0 0.0 0.0
420036000.0 0.0 0.0 0.0002668790723590694 -0.00014743562141410275 0.0 0.0 0.0 0.0
435035500.0 0.0 0.0 -0.00022398429962796793 -0.0005218555300935009 0.0 0.0 0.0 0.0
450035000.0 0.0 0.0 -0.0002708647520258203 -0.0003077956302792339 0.0 0.0 0.0 0.0
465034500.0 0.0 0.0 -0.00046174747189055477 -4.949312375150067e-05 0.0 0.0 0.0 0.0
480034000.0 0.0 0.0 -0.0006203655245464784 -0.00037923658178526604 0.0 0.0 0.0 0.0
495033500.0 0.0 0.0 -0.0001281804125755692 -0.0009835717267479562 0.0 0.0 0.0 0.0
510033000.0 0.0 0.0 -0.00025828881544522016 -0.0011926886467447842 0.0 0.0 0.0 0.0
525032500.0 0.0 0.0 0.0006151128114253458 -0.0008387874806769632 0.0 0.0 0.0 0.0
540032000.0 0.0 0.0 0.0003620588182539053 -0.0007308393930417172 0.0 0.0 0.0 0.0
555031500.0 0.0 0.0 -0.0002118855325582759 -0.0007726183662070787 0.0 0.0 0.0 0.0
570031000.0 0.0 0.0 0.00044144612914623875 -0.00029271892714138306 0.0 0.0 0.0 0.0
585030500.0 0.0 0.0 -0.00019187615431494903 -0.0002153575920424118 0.0 0.0 0.0 0.0
600030000.0 0.0 0.0 0.0008376162659019127 -0.0004027366705497978 0.0 0.0 0.0 0.0
615029500.0 0.0 0.0 0.0007574814812818657 -0.00017446283395620592 0.0 0.0 0.0 0.0
630029000.0 0.0 0.0 0.0006871341844566718 1.776192546050781e-05 0.0 0.0 0.0 0.0
645028500.0 0.0 0.0 0.0013765158319415625 -0.0010207225466791789 0.0 0.0 0.0 0.0
660028000.0 0.0 0.0 0.0003053157484267668 -0.000640838436821328 0.0 0.0 0.0 0.0
675027500.0 0.0 0.0 0.0012863988010577924 -0.00022150992380043342 0.0 0.0 0.0 0.0
690027000.0 0.0 0.0 0.0006592573492753427 0.0001793159110521118 0.0 0.0 0.0 0.0
705026500.0 0.0 0.0 0.0006075425576581232 -2.2061752338060917e-05 0.0 0.0 0.0 0.0
720026000.0 0.0 0.0 0.0006634704730992784 0.00023756471899551886 0.0 0.0 0.0 0.0
735025500.0 0.0 0.0 0.0009315534372647634 0.00034525482326131857 0.0 0.0 0.0 0.0
750025000.0 0.0 0.0 0.0003099222807786512 0.0010043443992844082 0.0 0.0 0.0 0.0
765024500.0 0.0 0.0 0.0001029664041528364 0.0008264658196790929 0.0 0.0 0.0 0.0
780024000.0 0.0 0.0 0.0003380488385149669 0.0007942058316511419 0.0 0.0 0.0 0.0
795023500.0 0.0 0.0 -0.001108124818523163 0.0010375645016445997 0.0 0.0 0.0 0.0
810023000.0 0.0 0.0 -0.0006413914185617216 0.0004554616257604831 0.0 0.0 0.0 0.0
825022500.0 0.0 0.0 -0.0005477810848186914 -3.1826265658446764e-06 0.0 0.0 0.0 0.0
840022000.0 0.0 0.0 -0.0002439888733633989 -0.0004193642774722942 0.0 0.0 0.0 0.0
855021500.0 0.0 0.0 -0.000935608179195974 0.0003794102769688693 0.0 0.0 0.0 0.0
870021000.0 0.0 0.0 -0.0007835002932369938 -0.00010010003774996657 0.0 0.0 0.0 0.0
885020500.0 0.0 0.0 -0.0005197815121206572 0.00044981697829068557 0.0 0.0 0.0 0.0
900020000.0 0.0 0.0 -0.003187716915299842 0.0038883692880549883 0.0 0.0 0.0 0.0
915019500.0 0.0 0.0 0.0018494150145081064 -0.0016673794197305481 0.0 0.0 0.0 0.0
930019000.0 0.0 0.0 0.002155668587580867 -0.0020198960920953606 0.0 0.0 0.0 0.0
945018500.0 0.0 0.0 0.0011640870404997332 -0.0018291065467961598 0.0 0.0 0.0 0.0
960018000.0 0.0 0.0 -0.001880746480163825 -0.0006242920707067982 0.0 0.0 0.0 0.0
975017500.0 0.0 0.0 0.002554602360847902 -0.002412626491567712 0.0 0.0 0.0 0.0
990017000.0 0.0 0.0 0.0003687600460978578 -0.0016572240005584358 0.0 0.0 0.0 0.0
1005016500.0 0.0 0.0 -0.0005713667696073421 -0.000891329387646043 0.0 0.0 0.0 0.0
1020016000.0 0.0 0.0 0.0027943984511142714 0.00012311403744155977 0.0 0.0 0.0 0.0
1035015500.0 0.0 0.0 0.0025097456662375142 0.0016319578906880579 0.0 0.0 0.0 0.0
1050015000.0 0.0 0.0 0.005811992163096736 -0.0017821654987346524 0.0 0.0 0.0 0.0
1065014500.0 0.0 0.0 0.0024567295985661068 -0.000974635993161661 0.0 0.0 0.0 0.0
1080014000.0 0.0 0.0 0.0008201449977994254 0.0006496745441054164 0.0 0.0 0.0 0.0
1095013500.0 0.0 0.0 0.0001192630283978663 -0.00044523822117757336 0.0 0.0 0.0 0.0
1110013000.0 0.0 0.0 0.00032774443382099794 0.0014554171062535147 0.0 0.0 0.0 0.0
1125012500.0 0.0 0.0 0.0063464021539899095 -0.0029108240005869873 0.0 0.0 0.0 0.0
1140012000.0 0.0 0.0 0.005130611982193469 -0.0014301217228466269 0.0 0.0 0.0 0.0
1155011500.0 0.0 0.0 0.0014705015342395158 -0.002473173743609662 0.0 0.0 0.0 0.0
1170011000.0 0.0 0.0 -0.0006921799511490672 0.005725988226556554 0.0 0.0 0.0 0.0
1185010500.0 0.0 0.0 -0.0039602661310676026 -0.00185087164366653 0.0 0.0 0.0 0.0
1200010000.0 0.0 0.0 4.226142168509276e-05 -0.010288368753221143 0.0 0.0 0.0 0.0
1215009500.0 0.0 0.0 0.006378451388660832 0.008875071410468236 0.0 0.0 0.0 0.0
1230009000.0 0.0 0.0 -0.0010354712646903196 -0.0074440914379668 0.0 0.0 0.0 0.0
1245008500.0 0.0 0.0 0.004986610271638473 0.00855180735204212 0.0 0.0 0.0 0.0
1260008000.0 0.0 0.0 0.011681547130989137 0.0025660763249450436 0.0 0.0 0.0 0.0
1275007500.0 0.0 0.0 0.00424463514378762 -0.002246587361392173 0.0 0.0 0.0 0.0
1290007000.0 0.0 0.0 0.0032232841374120135 0.0009411691044871201 0.0 0.0 0.0 0.0
1305006500.0 0.0 0.0 0.006743828410479227 0.0007771450156889742 0.0 0.0 0.0 0.0
1320006000.0 0.0 0.0 0.002267231114721517 0.0007760287037221156 0.0 0.0 0.0 0.0
1335005500.0 0.0 0.0 -0.0016170959669954724 0.0016401657862703937 0.0 0.0 0.0 0.0
1350005000.0 0.0 0.0 0.003005544715922754 0.0036631761935546864 0.0 0.0 0.0 0.0
1365004500.0 0.0 0.0 -0.0007341409618671798 0.0041640401388556205 0.0 0.0 0.0 0.0
1380004000.0 0.0 0.0 0.0003673193695358238 0.0010183988162546169 0.0 0.0 0.0 0.0
1395003500.0 0.0 0.0 0.01013275911206991 -0.00422154470368859 0.0 0.0 0.0 0.0
1410003000.0 0.0 0.0 -0.0007377549771093926 0.01724424832823636 0.0 0.0 0.0 0.0
1425002500.0 0.0 0.0 -0.002289852282247242 0.0033402895428750034 0.0 0.0 0.0 0.0
1440002000.0 0.0 0.0 -0.00900196304069597 0.003511375245267985 0.0 0.0 0.0 0.0
1455001500.0 0.0 0.0 -0.011787612285607211 0.01229850756528494 0.0 0.0 0.0 0.0
1470001000.0 0.0 0.0 0.0018244395448179845 0.012154303468780487 0.0 0.0 0.0 0.0
1485000500.0 0.0 0.0 0.002155889758463463 2.7414221461701803e-05 0.0 0.0 0.0 0.0
1500000000.0 0.0 0.0 -0.0008095252911293065 0.011327501693083166 0.0 0.0 0.0 0.0
