! Created with skrf 1.8.0 (http://scikit-rf.org).
# Hz S RI R 50.0 
!freq ReS11 ImS11 ReS21 ImS21 ReS12 ImS12 ReS22 ImS22
50000.0 0.0 0.0 0.9947133876763188 -0.0016742139245375855 0.0 0.0 0.0 0.0
15049500.0 0.0 0.0 0.9975770980881504 0.022991408324099457 0.0 0.0 0.0 0.0
30049000.0 0.0 0.0 0.9969440104729045 0.04493373000440631 0.0 0.0 0.0 0.0
45048500.0 0.0 0.0 0.9958632250512431 0.06671626993531965 0.0 0.0 0.0 0.0
60048000.0 0.0 0.0 0.9944896641818305 0.08826172883710905 0.0 0.0 0.0 0.0
75047500.0 0.0 0.0 0.9928437755747834 0.11058441418943808 0.0 0.0 0.0 0.0
90047000.0 0.0 0.0 0.9895701160455571 0.13381640338677037 0.0 0.0 0.0 0.0
105046500.0 0.0 0.0 0.9867382718435578 0.15399419526519995 0.0 0.0 0.0 0.0
120046000.0 0.0 0.0 0.9838217002451096 0.17512184541850648 0.0 0.0 0.0 0.0
135045500.0 0.0 0.0 0.9790682529637857 0.19660130927446134 0.0 0.0 0.0 0.0
150045000.0 0.0 0.0 0.9748915295222105 0.21690647986275716 0.0 0.0 0.0 0.0
165044500.0 0.0 0.0 0.9682750016189804 0.2381158611664288 0.0 0.0 0.0 0.0
180044000.0 0.0 0.0 0.9624583651190011 0.260322322680215 0.0 0.0 0.0 0.0
195043500.0 0.0 0.0 0.9559811368014538 0.28277244459437834 0.0 0.0 0.0 0.0
210043000.0 0.0 0.0 0.9497553234648238 0.3056949765230283 0.0 0.0 0.0 0.0
225042500.0 0.0 0.0 0.9444168005131262 0.3287040126012675 0.0 0.0 0.0 0.0
240042000.0 0.0 0.0 0.93971915582873 0.3515772190558344 0.0 0.0 0.0 0.0
255041500.0 0.0 0.0 0.9350891519741966 0.37339385292378874 0.0 0.0 0.0 0.0
270041000.0 0.0 0.0 0.9306466919291789 0.3930466856715311 0.0 0.0 0.0 0.0
285040500.0 0.0 0.0 0.9261867235732033 0.41324015013957344 0.0 0.0 0.0 0.0
300040000.0 0.0 0.0 0.9235012003423636 0.4309332696168539 0.0 0.0 0.0 0.0
315039500.0 0.0 0.0 0.9139011968364072 0.44670422996438747 0.0 0.0 0.0 0.0
330039000.0 0.0 0.0 0.9045521753743893 0.45750626261316235 0.0 0.0 0.0 0.0
345038500.0 0.0 0.0 0.8920958507302736 0.4764138177419701 0.0 0.0 0.0 0.0
360038000.0 0.0 0.0 0.8797017939102938 0.4915541165448493 0.0 0.0 0.0 0.0
375037500.0 0.0 0.0 0.8658437722098441 0.5085925367264166 0.0 0.0 0.0 0.0
390037000.0 0.0 0.0 0.8471419881317546 0.5302858236906024 0.0 0.0 0.0 0.0
405036500.0 0.0 0.0 0.8370705384155164 0.5497378866651512 0.0 0.0 0.0 0.0
420036000.0 0.0 0.0 0.8238697818597704 0.571586791684573 0.0 0.0 0.0 0.0
435035500.0 0.0 0.0 0.8090094269098915 0.5940049527114609 0.0 0.0 0.0 0.0
450035000.0 0.0 0.0 0.7963605035120129 0.6135749856056185 0.0 0.0 0.0 0.0
465034500.0 0.0 0.0 0.7872977797079188 0.633898474652134 0.0 0.0 0.0 0.0
480034000.0 0.0 0.0 0.7717798470617891 0.6504373713578491 0.0 0.0 0.0 0.0
495033500.0 0.0 0.0 0.756434471233872 0.6672721077921604 0.0 0.0 0.0 0.0
510033000.0 0.0 0.0 0.7430048037993955 0.6823014397026551 0.0 0.0 0.0 0.0
525032500.0 0.0 0.0 0.7239626263025012 0.6993592472438908 0.0 0.0 0.0 0.0
540032000.0 0.0 0.0 0.7030189616154998 0.7161087925370129 0.0 0.0 0.0 0.0
555031500.0 0.0 0.0 0.6856105427073994 0.7332538868629389 0.0 0.0 0.0 0.0
570031000.0 0.0 0.0 0.665742856451325 0.7542554015542924 0.0 0.0 0.0 0.0
585030500.0 0.0 0.0 0.6457512729685426 0.7690558151403744 0.0 0.0 0.0 0.0
600030000.0 0.0 0.0 0.6355479485706945 0.801306589060612 0.0 0.0 0.0 0.0
615029500.0 0.0 0.0 0.622873620788863 0.8206216439168772 0.0 0.0 0.0 0.0
630029000.0 0.0 0.0 0.608788035718364 0.8390419790144042 0.0 0.0 0.0 0.0
645028500.0 0.0 0.0 0.5984028706119036 0.8554140205121092 0.0 0.0 0.0 0.0
660028000.0 0.0 0.0 0.5884264751219898 0.8695353413473423 0.0 0.0 0.0 0.0
675027500.0 0.0 0.0 0.5762129832189391 0.8794136254491183 0.0 0.0 0.0 0.0
690027000.0 0.0 0.0 0.5644478303120423 0.8865154989327121 0.0 0.0 0.0 0.0
705026500.0 0.0 0.0 0.5494285447606618 0.895022286921418 0.0 0.0 0.0 0.0
720026000.0 0.0 0.0 0.5261845768997194 0.9001317803836407 0.0 0.0 0.0 0.0
735025500.0 0.0 0.0 0.5044549428135178 0.8991717644882417 0.0 0.0 0.0 0.0
750025000.0 0.0 0.0 0.4759167265116184 0.9013749116606156 0.0 0.0 0.0 0.0
765024500.0 0.0 0.0 0.4487702242213116 0.9106888851189372 0.0 0.0 0.0 0.0
780024000.0 0.0 0.0 0.4272575400219186 0.9048511216130746 0.0 0.0 0.0 0.0
795023500.0 0.0 0.0 0.38614969205336513 0.921206483534541 0.0 0.0 0.0 0.0
810023000.0 0.0 0.0 0.35830167126188833 0.925286645704163 0.0 0.0 0.0 0.0
825022500.0 0.0 0.0 0.3352681782962521 0.9316406356513797 0.0 0.0 0.0 0.0
840022000.0 0.0 0.0 0.31504004371794425 0.9366605757230668 0.0 0.0 0.0 0.0
855021500.0 0.0 0.0 0.29934702725087103 0.9409882840504945 0.0 0.0 0.0 0.0
870021000.0 0.0 0.0 0.2852758435935888 0.9461978713955487 0.0 0.0 0.0 0.0
885020500.0 0.0 0.0 0.275643027481191 0.9417302140595099 0.0 0.0 0.0 0.0
900020000.0 0.0 0.0 0.2739833839031295 0.9368852737836394 0.0 0.0 0.0 0.0
915019500.0 0.0 0.0 0.25641528087003085 0.9405695302068767 0.0 0.0 0.0 0.0
930019000.0 0.0 0.0 0.23079020008344112 0.9367525092979685 0.0 0.0 0.0 0.0
945018500.0 0.0 0.0 0.21002128476109605 0.944248958196509 0.0 0.0 0.0 0.0
960018000.0 0.0 0.0 0.18675424412834607 0.9522571747762476 0.0 0.0 0.0 0.0
975017500.0 0.0 0.0 0.16155400671150946 0.9477655742327444 0.0 0.0 0.0 0.0
990017000.0 0.0 0.0 0.1531277184873478 0.9563437205689741 0.0 0.0 0.0 0.0
1005016500.0 0.0 0.0 0.12809629742030126 0.9651809655969533 0.0 0.0 0.0 0.0
1020016000.0 0.0 0.0 0.12096654169777643 0.9762302315274426 0.0 0.0 0.0 0.0
1035015500.0 0.0 0.0 0.10925204398499289 0.9855242075055457 0.0 0.0 0.0 0.0
1050015000.0 0.0 0.0 0.11030521875092368 0.9933882081913519 0.0 0.0 0.0 0.0
1065014500.0 0.0 0.0 0.0937312622311459 0.9922779676466275 0.0 0.0 0.0 0.0
1080014000.0 0.0 0.0 0.09420559602403193 0.998761072348636 0.0 0.0 0.0 0.0
1095013500.0 0.0 0.0 0.08770015151476927 0.9999077367175585 0.0 0.0 0.0 0.0
1110013000.0 0.0 0.0 0.0772853854238562 0.9957081012227669 0.0 0.0 0.0 0.0
1125012500.0 0.0 0.0 0.057460970690851064 1.008361652731865 0.0 0.0 0.0 0.0
1140012000.0 0.0 0.0 0.04571776892897505 0.9958796043031231 0.0 0.0 0.0 0.0
1155011500.0 0.0 0.0 0.035356047697156306 0.9722613293465179 0.0 0.0 0.0 0.0
1170011000.0 0.0 0.0 -0.010411811229419568 0.9743830292794371 0.0 0.0 0.0 0.0
1185010500.0 0.0 0.0 -0.03389316508862966 0.9997570675797397 0.0 0.0 0.0 0.0
1200010000.0 0.0 0.0 -0.06608515851900784 1.0016910873297848 0.0 0.0 0.0 0.0
1215009500.0 0.0 0.0 -0.09023354225415446 1.025867795464355 0.0 0.0 0.0 0.0
1230009000.0 0.0 0.0 -0.11779728212831549 1.0356878853065343 0.0 0.0 0.0 0.0
1245008500.0 0.0 0.0 -0.1349449786509572 1.0491349009471809 0.0 0.0 0.0 0.0
1260008000.0 0.0 0.0 -0.13866974773870688 1.057209918695682 0.0 0.0 0.0 0.0
1275007500.0 0.0 0.0 -0.14610199312619554 1.0572334403152488 0.0 0.0 0.0 0.0
1290007000.0 0.0 0.0 -0.167438475079967 1.0514452664992693 0.0 0.0 0.0 0.0
1305006500.0 0.0 0.0 -0.148954368733935 1.0736925716442394 0.0 0.0 0.0 0.0
1320006000.0 0.0 0.0 -0.15100011624271617 1.0589454599338481 0.0 0.0 0.0 0.0
1335005500.0 0.0 0.0 -0.15124110415997774 1.0871954090074327 0.0 0.0 0.0 0.0
1350005000.0 0.0 0.0 -0.16917107075136875 1.103630032095619 0.0 0.0 0.0 0.0
1365004500.0 0.0 0.0 -0.19187785427413306 1.1339715990921237 0.0 0.0 0.0 0.0
1380004000.0 0.0 0.0 -0.17278451948018453 1.17214517243238 0.0 0.0 0.0 0.0
1395003500.0 0.0 0.0 -0.19085227699277946 1.2117572916069639 0.0 0.0 0.0 0.0
1410003000.0 0.0 0.0 -0.2054818340125233 1.25876928091678 0.0 0.0 0.0 0.0
1425002500.0 0.0 0.0 -0.2913858864611945 1.3196314813084036 0.0 0.0 0.0 0.0
1440002000.0 0.0 0.0 -0.35641853729863926 1.3814858687232734 0.0 0.0 0.0 0.0
1455001500.0 0.0 0.0 -0.4606480364312354 1.420669583882233 0.0 0.0 0.0 0.0
1470001000.0 0.0 0.0 -0.5829305445937184 1.4268759254239494 0.0 0.0 0.0 0.0
1485000500.0 0.0 0.0 -0.7726509896662846 1.404460193119911 0.0 0.0 0.0 0.0
1500000000.0 0.0 0.0 -0.8575874467419425 1.286675568790045 0.0 0.0 0.0 0.0
