! Created with skrf 1.8.0 (http://scikit-rf.org).
# Hz S RI R 50.0 
!freq ReS11 ImS11 ReS21 ImS21 ReS12 ImS12 ReS22 ImS22
50000.0 0.0 0.0 0.06392015385530046 0.32978319718839605 0.0 0.0 0.0 0.0
15049500.0 0.0 0.0 0.8542524266501526 0.20892519421010222 0.0 0.0 0.0 0.0
30049000.0 0.0 0.0 3.9849892166540646 0.9098271642498318 0.0 0.0 0.0 0.0
45048500.0 0.0 0.0 -16.41282431456238 -4.1177736802739595 0.0 0.0 0.0 0.0
60048000.0 0.0 0.0 0.09068936164321455 0.7762203543381728 0.0 0.0 0.0 0.0
75047500.0 0.0 0.0 1.839025330710032 -0.1906843717701338 0.0 0.0 0.0 0.0
90047000.0 0.0 0.0 0.8308217892121003 -1.2152748412993517 0.0 0.0 0.0 0.0
105046500.0 0.0 0.0 0.8389963469340952 -1.8650392902265867 0.0 0.0 0.0 0.0
120046000.0 0.0 0.0 0.30149793812773085 -0.8640610416370019 0.0 0.0 0.0 0.0
135045500.0 0.0 0.0 1.0007046757701794 0.32533450250397017 0.0 0.0 0.0 0.0
150045000.0 0.0 0.0 1.8082692052264706 -0.5518283484922517 0.0 0.0 0.0 0.0
165044500.0 0.0 0.0 0.9602695050139166 -0.43043055833326604 0.0 0.0 0.0 0.0
180044000.0 0.0 0.0 0.9741470553684808 -0.03486350873181145 0.0 0.0 0.0 0.0
195043500.0 0.0 0.0 0.7991255769479416 -0.05439595055139456 0.0 0.0 0.0 0.0
210043000.0 0.0 0.0 -4.308874732332171 -3.1080475214963688 0.0 0.0 0.0 0.0
225042500.0 0.0 0.0 0.5174680422685171 -0.09516227106976452 0.0 0.0 0.0 0.0
240042000.0 0.0 0.0 0.6840570353192766 0.17425310505996086 0.0 0.0 0.0 0.0
255041500.0 0.0 0.0 -0.4875194320723656 -3.433726574730261 0.0 0.0 0.0 0.0
270041000.0 0.0 0.0 -0.01776637054537502 2.64336859172186 0.0 0.0 0.0 0.0
285040500.0 0.0 0.0 0.859742757178136 0.06779346306425196 0.0 0.0 0.0 0.0
300040000.0 0.0 0.0 0.7621929983973984 -0.11621169478799258 0.0 0.0 0.0 0.0
315039500.0 0.0 0.0 0.5161905462071118 -0.20009951983636054 0.0 0.0 0.0 0.0
330039000.0 0.0 0.0 1.6594545818650195 0.25878904943420694 0.0 0.0 0.0 0.0
345038500.0 0.0 0.0 0.7466605757335343 0.09081628313151346 0.0 0.0 0.0 0.0
360038000.0 0.0 0.0 1.974291812637222 -0.4489747628636865 0.0 0.0 0.0 0.0
375037500.0 0.0 0.0 0.8604211340314811 0.36650509496731815 0.0 0.0 0.0 0.0
390037000.0 0.0 0.0 2.054476646517456 0.662709191348681 0.0 0.0 0.0 0.0
405036500.0 0.0 0.0 1.228093709152071 -0.3495901783042338 0.0 0.0 0.0 0.0
420036000.0 0.0 0.0 0.5263977827617985 0.7259405630420808 0.0 0.0 0.0 0.0
435035500.0 0.0 0.0 -1.7468675755871717 0.5849812336400232 0.0 0.0 0.0 0.0
450035000.0 0.0 0.0 0.9412101103882641 -0.5125884251768289 0.0 0.0 0.0 0.0
465034500.0 0.0 0.0 -0.5523440199559928 0.02849196989378491 0.0 0.0 0.0 0.0
480034000.0 0.0 0.0 0.8362914609404551 -0.07161981444631203 0.0 0.0 0.0 0.0
495033500.0 0.0 0.0 3.7031639793738975 -0.6920240621248689 0.0 0.0 0.0 0.0
510033000.0 0.0 0.0 -2.595403511360369 1.3753430309299044 0.0 0.0 0.0 0.0
525032500.0 0.0 0.0 0.8816366687912199 0.39017822587607687 0.0 0.0 0.0 0.0
540032000.0 0.0 0.0 2.9905974322007873 -2.5968198601489934 0.0 0.0 0.0 0.0
555031500.0 0.0 0.0 0.6782521758046907 0.4827957268904295 0.0 0.0 0.0 0.0
570031000.0 0.0 0.0 -0.8819395443079001 0.9189172109185958 0.0 0.0 0.0 0.0
585030500.0 0.0 0.0 1.1943591654778438 -0.36384020885353224 0.0 0.0 0.0 0.0
600030000.0 0.0 0.0 0.7277929077863565 -0.12072986542296353 0.0 0.0 0.0 0.0
615029500.0 0.0 0.0 0.0803227810927176 -1.3077741681788677 0.0 0.0 0.0 0.0
630029000.0 0.0 0.0 1.501695618990398 -0.46608136932443744 0.0 0.0 0.0 0.0
645028500.0 0.0 0.0 5.730029316257518 -1.9745324016411925 0.0 0.0 0.0 0.0
660028000.0 0.0 0.0 0.8473177890099416 -0.2572735505111506 0.0 0.0 0.0 0.0
675027500.0 0.0 0.0 2.6440368403063474 0.07908102561874052 0.0 0.0 0.0 0.0
690027000.0 0.0 0.0 0.0236297582120271 0.6790835472140128 0.0 0.0 0.0 0.0
705026500.0 0.0 0.0 1.0546872718185032 -0.24917192388359244 0.0 0.0 0.0 0.0
720026000.0 0.0 0.0 0.5065366948104437 -0.8559619664185342 0.0 0.0 0.0 0.0
735025500.0 0.0 0.0 -0.028741939947694965 0.9391881811479479 0.0 0.0 0.0 0.0
750025000.0 0.0 0.0 -0.4294832614605493 -1.240979053080054 0.0 0.0 0.0 0.0
765024500.0 0.0 0.0 0.7405194499035508 0.1250596484786358 0.0 0.0 0.0 0.0
780024000.0 0.0 0.0 -0.34047961076710537 -0.6494754999331298 0.0 0.0 0.0 0.0
795023500.0 0.0 0.0 0.3866618856936137 0.04164034406554594 0.0 0.0 0.0 0.0
810023000.0 0.0 0.0 -0.04918471120621743 -0.841760616690994 0.0 0.0 0.0 0.0
825022500.0 0.0 0.0 0.6253064420669148 -2.7358399419586052 0.0 0.0 0.0 0.0
840022000.0 0.0 0.0 0.998525855298004 0.29622912674522683 0.0 0.0 0.0 0.0
855021500.0 0.0 0.0 0.26616737114524525 -0.28129990631581164 0.0 0.0 0.0 0.0
870021000.0 0.0 0.0 0.7467710177828656 -0.5238045585907425 0.0 0.0 0.0 0.0
885020500.0 0.0 0.0 1.3695178547057825 -0.7452204484738504 0.0 0.0 0.0 0.0
900020000.0 0.0 0.0 0.8834344915385866 -6.630802079579665 0.0 0.0 0.0 0.0
915019500.0 0.0 0.0 0.7447322549552835 0.46482988541772724 0.0 0.0 0.0 0.0
930019000.0 0.0 0.0 -0.1742004583384847 -0.13081697224143715 0.0 0.0 0.0 0.0
945018500.0 0.0 0.0 1.3395030640793868 0.1883236244999035 0.0 0.0 0.0 0.0
960018000.0 0.0 0.0 0.9025178385483884 -0.1277360591733432 0.0 0.0 0.0 0.0
975017500.0 0.0 0.0 0.8252413681863645 -1.6825941193810188 0.0 0.0 0.0 0.0
990017000.0 0.0 0.0 0.7527919161648494 0.7077313832798467 0.0 0.0 0.0 0.0
1005016500.0 0.0 0.0 1.0725304375924802 -0.5902658509383041 0.0 0.0 0.0 0.0
1020016000.0 0.0 0.0 2.113324113447001 -1.090814820907375 0.0 0.0 0.0 0.0
1035015500.0 0.0 0.0 1.0135659370352796 -0.5098858318488556 0.0 0.0 0.0 0.0
1050015000.0 0.0 0.0 1.3943283796834296 -1.467983328492874 0.0 0.0 0.0 0.0
1065014500.0 0.0 0.0 2.3341609514532315 0.4240634405967157 0.0 0.0 0.0 0.0
1080014000.0 0.0 0.0 2.138214628559873 -0.39770719789123427 0.0 0.0 0.0 0.0
1095013500.0 0.0 0.0 0.24731799630625387 -0.2082237002932802 0.0 0.0 0.0 0.0
1110013000.0 0.0 0.0 -0.08360618739724497 -0.3997475131364287 0.0 0.0 0.0 0.0
1125012500.0 0.0 0.0 -0.12421073154305927 -0.3012715302440439 0.0 0.0 0.0 0.0
1140012000.0 0.0 0.0 -0.19475841525434517 1.0702990645900599 0.0 0.0 0.0 0.0
1155011500.0 0.0 0.0 0.6777538797402336 0.35533864404008275 0.0 0.0 0.0 0.0
1170011000.0 0.0 0.0 0.45338559865837 0.1029399771734146 0.0 0.0 0.0 0.0
1185010500.0 0.0 0.0 -0.4618133768775975 -1.0616888600529282 0.0 0.0 0.0 0.0
1200010000.0 0.0 0.0 -3.332069515266343 -1.9173631808417793 0.0 0.0 0.0 0.0
1215009500.0 0.0 0.0 -0.29051024854222507 -0.04081840736401513 0.0 0.0 0.0 0.0
1230009000.0 0.0 0.0 -1.760029341859446 0.8931103926247832 0.0 0.0 0.0 0.0
1245008500.0 0.0 0.0 -0.6140597712864754 0.7120598901885761 0.0 0.0 0.0 0.0
1260008000.0 0.0 0.0 0.2752464851843667 -0.7489192592696344 0.0 0.0 0.0 0.0
1275007500.0 0.0 0.0 0.5809233620202329 -0.523021625996672 0.0 0.0 0.0 0.0
1290007000.0 0.0 0.0 -2.0135369365131424 -0.8315636231144622 0.0 0.0 0.0 0.0
1305006500.0 0.0 0.0 -0.0692111125947933 -0.6911198935500926 0.0 0.0 0.0 0.0
1320006000.0 0.0 0.0 0.4150156296961804 3.33676882897596 0.0 0.0 0.0 0.0
1335005500.0 0.0 0.0 -1.1489334172147667 -0.7036284961847983 0.0 0.0 0.0 0.0
1350005000.0 0.0 0.0 0.7535780126752782 -0.1810940486817756 0.0 0.0 0.0 0.0
1365004500.0 0.0 0.0 1.4912322469775694 -0.8402012165279981 0.0 0.0 0.0 0.0
1380004000.0 0.0 0.0 -0.4183606415212328 -1.9348409799782853 0.0 0.0 0.0 0.0
1395003500.0 0.0 0.0 0.10924830849649485 0.7069514408816485 0.0 0.0 0.0 0.0
1410003000.0 0.0 0.0 0.20372251652503434 -0.24567023988331638 0.0 0.0 0.0 0.0
1425002500.0 0.0 0.0 -0.40257509241787454 -0.16704332828979357 0.0 0.0 0.0 0.0
1440002000.0 0.0 0.0 0.7607673013948467 -0.11368994727734055 0.0 0.0 0.0 0.0
1455001500.0 0.0 0.0 2.5533462940472673 1.7060963586250502 0.0 0.0 0.0 0.0
1470001000.0 0.0 0.0 -0.13496687524041873 0.11972625708557139 0.0 0.0 0.0 0.0
1485000500.0 0.0 0.0 0.5653508273631994 -0.30740021409874174 0.0 0.0 0.0 0.0
1500000000.0 0.0 0.0 1.105063594044663 0.4141664964977133 0.0 0.0 0.0 0.0
