! Created with skrf 1.8.0 (http://scikit-rf.org).
# Hz S RI R 50.0 
!freq ReS11 ImS11 ReS21 ImS21 ReS12 ImS12 ReS22 ImS22
50000.0 0.0 0.0 0.00013590268832807295 -2.5582655749602293e-05 0.0 0.0 0.0 0.0
15049500.0 0.0 0.0 7.377255055929379e-05 6.600791594934989e-05 0.0 0.0 0.0 0.0
30049000.0 0.0 0.0 4.181905251076422e-05 2.0750362384834257e-05 0.0 0.0 0.0 0.0
45048500.0 0.0 0.0 1.009476061279271e-05 2.4611676602182324e-05 0.0 0.0 0.0 0.0
60048000.0 0.0 0.0 3.192658231151335e-05 4.799101365783144e-05 0.0 0.0 0.0 0.0
75047500.0 0.0 0.0 4.1880402691866796e-05 5.378018537869758e-05 0.0 0.0 0.0 0.0
90047000.0 0.0 0.0 -1.2575788971872383e-05 4.162492821297032e-05 0.0 0.0 0.0 0.0
105046500.0 0.0 0.0 -1.5064604766959549e-05 4.439910021853258e-05 0.0 0.0 0.0 0.0
120046000.0 0.0 0.0 8.24319683713762e-06 6.980777371399408e-05 0.0 0.0 0.0 0.0
135045500.0 0.0 0.0 -5.924862477389734e-05 4.928396869573229e-05 0.0 0.0 0.0 0.0
150045000.0 0.0 0.0 1.88907652312032e-05 9.3238798672975e-05 0.0 0.0 0.0 0.0
165044500.0 0.0 0.0 4.072253740141318e-05 7.525459723226551e-05 0.0 0.0 0.0 0.0
180044000.0 0.0 0.0 -2.066626573315041e-05 6.372166395855347e-05 0.0 0.0 0.0 0.0
195043500.0 0.0 0.0 -1.1569987574179954e-05 6.373863272406556e-05 0.0 0.0 0.0 0.0
210043000.0 0.0 0.0 -4.043643399177114e-05 6.830809754362315e-05 0.0 0.0 0.0 0.0
225042500.0 0.0 0.0 -7.892204787935784e-05 5.095213513218405e-05 0.0 0.0 0.0 0.0
240042000.0 0.0 0.0 -6.468391078865313e-05 3.764659828039664e-05 0.0 0.0 0.0 0.0
255041500.0 0.0 0.0 -6.631586658647043e-05 6.453813818112091e-05 0.0 0.0 0.0 0.0
270041000.0 0.0 0.0 -7.200465804347417e-05 3.594026360563248e-05 0.0 0.0 0.0 0.0
285040500.0 0.0 0.0 -6.308114314095746e-05 7.720491325058293e-05 0.0 0.0 0.0 0.0
300040000.0 0.0 0.0 -0.0004253588377752852 0.00013934541735004645 0.0 0.0 0.0 0.0
315039500.0 0.0 0.0 -0.00017172723922044826 0.000688616579695641 0.0 0.0 0.0 0.0
330039000.0 0.0 0.0 -0.00025504516987161436 0.00035223589751068725 0.0 0.0 0.0 0.0
345038500.0 0.0 0.0 1.8770234905625684e-05 -0.00016887172086405596 0.0 0.0 0.0 0.0
360038000.0 0.0 0.0 -0.000528724016390015 0.0007496661124343364 0.0 0.0 0.0 0.0
375037500.0 0.0 0.0 -0.00039403170394890425 -0.00038093032999371814 0.0 0.0 0.0 0.0
390037000.0 0.0 0.0 2.349501995156457e-05 -4.996004365966449e-05 0.0 0.0 0.0 0.0
405036500.0 0.0 0.0 -0.000283276815029056 -0.0002876203176411464 0.0 0.0 0.0 0.0
420036000.0 0.0 0.0 7.888586724595852e-05 -0.0001992846522661818 0.0 0.0 0.0 0.0
435035500.0 0.0 0.0 -2.0822285208489995e-05 -0.00010712520062383222 0.0 0.0 0.0 0.0
450035000.0 0.0 0.0 -0.00016648881771009092 -0.0006574153978349582 0.0 0.0 0.0 0.0
465034500.0 0.0 0.0 0.0001170261793957747 -0.00027246864317390356 0.0 0.0 0.0 0.0
480034000.0 0.0 0.0 -0.0003923001339043829 -0.0005154982862266403 0.0 0.0 0.0 0.0
495033500.0 0.0 0.0 -1.9892223981273397e-05 -0.000521850196836294 0.0 0.0 0.0 0.0
510033000.0 0.0 0.0 0.00011948576381600345 -0.0004996740370834833 0.0 0.0 0.0 0.0
525032500.0 0.0 0.0 -0.00037470643395012484 -0.0006828840764122273 0.0 0.0 0.0 0.0
540032000.0 0.0 0.0 0.0004296126253526758 -0.001169136176473289 0.0 0.0 0.0 0.0
555031500.0 0.0 0.0 -6.367581797336502e-05 -0.0007885097057560057 0.0 0.0 0.0 0.0
570031000.0 0.0 0.0 -0.00037899913572319845 -0.0010366245405382165 0.0 0.0 0.0 0.0
585030500.0 0.0 0.0 0.00045385222915416513 -0.0006192673147557484 0.0 0.0 0.0 0.0
600030000.0 0.0 0.0 0.0004957743926206585 0.0006146661700578756 0.0 0.0 0.0 0.0
615029500.0 0.0 0.0 0.0008803026264882693 -0.0009247446709242798 0.0 0.0 0.0 0.0
630029000.0 0.0 0.0 0.00012435440630507178 -0.0004937919243907429 0.0 0.0 0.0 0.0
645028500.0 0.0 0.0 0.0016215925444873851 -3.5811215616462185e-05 0.0 0.0 0.0 0.0
660028000.0 0.0 0.0 0.0013130000627686188 -1.0802898435284633e-05 0.0 0.0 0.0 0.0
675027500.0 0.0 0.0 0.0010190830054678396 0.00037427271014680614 0.0 0.0 0.0 0.0
690027000.0 0.0 0.0 0.001184826746917652 -5.4440112403755066e-05 0.0 0.0 0.0 0.0
705026500.0 0.0 0.0 3.7096929322920435e-05 -0.0008679913781759646 0.0 0.0 0.0 0.0
720026000.0 0.0 0.0 0.0005985687797427261 0.0009906865314166253 0.0 0.0 0.0 0.0
735025500.0 0.0 0.0 0.0001820150708302402 0.0005834374283328613 0.0 0.0 0.0 0.0
750025000.0 0.0 0.0 -0.00021597383875954083 0.0005462013264570748 0.0 0.0 0.0 0.0
765024500.0 0.0 0.0 0.00014974098672273806 0.0007346757387203559 0.0 0.0 0.0 0.0
780024000.0 0.0 0.0 0.00019792680793845877 0.00016277219902763632 0.0 0.0 0.0 0.0
795023500.0 0.0 0.0 0.00015142006611701284 0.0007687220594116702 0.0 0.0 0.0 0.0
810023000.0 0.0 0.0 -0.0005424849342647014 0.0011521040014720123 0.0 0.0 0.0 0.0
825022500.0 0.0 0.0 -0.0009501104228547361 0.000218588329331175 0.0 0.0 0.0 0.0
840022000.0 0.0 0.0 -0.0006818069176401253 0.0008247296982782127 0.0 0.0 0.0 0.0
855021500.0 0.0 0.0 -0.0006035614781488139 0.0003535027264729633 0.0 0.0 0.0 0.0
870021000.0 0.0 0.0 -0.001059566146428923 -0.000138118937292329 0.0 0.0 0.0 0.0
885020500.0 0.0 0.0 0.0004403521127250103 0.0005040576224675308 0.0 0.0 0.0 0.0
900020000.0 0.0 0.0 0.003104952842418142 0.0026217362438995468 0.0 0.0 0.0 0.0
915019500.0 0.0 0.0 -0.001361495939160182 0.000290406342829033 0.0 0.0 0.0 0.0
930019000.0 0.0 0.0 -0.0004958466537199035 0.0005900919382602801 0.0 0.0 0.0 0.0
945018500.0 0.0 0.0 0.0009657993685009616 -0.0012183319395978026 0.0 0.0 0.0 0.0
960018000.0 0.0 0.0 0.003585055925848218 -0.0025438049588096525 0.0 0.0 0.0 0.0
975017500.0 0.0 0.0 0.0011174563541178624 -0.002820759592005425 0.0 0.0 0.0 0.0
990017000.0 0.0 0.0 0.00234729642508883 0.0008993919528493681 0.0 0.0 0.0 0.0
1005016500.0 0.0 0.0 -0.0007601924583205381 -0.003409330327030893 0.0 0.0 0.0 0.0
1020016000.0 0.0 0.0 0.0009083631661925304 0.001222635740142861 0.0 0.0 0.0 0.0
1035015500.0 0.0 0.0 0.004153470114932367 0.0022121880708431446 0.0 0.0 0.0 0.0
1050015000.0 0.0 0.0 0.0026279623342078434 -0.0030169044379419548 0.0 0.0 0.0 0.0
1065014500.0 0.0 0.0 0.004234218333200312 -6.717837342755403e-05 0.0 0.0 0.0 0.0
1080014000.0 0.0 0.0 0.004065761358512654 -0.0031129026268038565 0.0 0.0 0.0 0.0
1095013500.0 0.0 0.0 0.0024058894795870975 0.0018335076660917252 0.0 0.0 0.0 0.0
1110013000.0 0.0 0.0 0.002287035638846012 -0.003700512853482908 0.0 0.0 0.0 0.0
1125012500.0 0.0 0.0 8.579884976011207e-05 0.005865746109716465 0.0 0.0 0.0 0.0
1140012000.0 0.0 0.0 -0.0003174635627311547 0.003768876129525623 0.0 0.0 0.0 0.0
1155011500.0 0.0 0.0 0.003406363822135501 -0.0026178038072344964 0.0 0.0 0.0 0.0
1170011000.0 0.0 0.0 0.003144474043667457 0.0011198480487287668 0.0 0.0 0.0 0.0
1185010500.0 0.0 0.0 -0.005072003045154072 0.0006266174112046488 0.0 0.0 0.0 0.0
1200010000.0 0.0 0.0 0.0010008245535869525 -0.00223673014426405 0.0 0.0 0.0 0.0
1215009500.0 0.0 0.0 0.0012171685895729402 -0.0025831735580169636 0.0 0.0 0.0 0.0
1230009000.0 0.0 0.0 0.00013522874706364333 0.0030350513798722747 0.0 0.0 0.0 0.0
1245008500.0 0.0 0.0 0.008038106668602264 -0.005311316149808897 0.0 0.0 0.0 0.0
1260008000.0 0.0 0.0 -0.002380097670639552 -0.003483138174905236 0.0 0.0 0.0 0.0
1275007500.0 0.0 0.0 0.0022118005411490404 -0.0024674109897276563 0.0 0.0 0.0 0.0
1290007000.0 0.0 0.0 0.004228709811169852 -0.00023633847410827732 0.0 0.0 0.0 0.0
1305006500.0 0.0 0.0 -0.008954395028440231 -0.0023841796610947416 0.0 0.0 0.0 0.0
1320006000.0 0.0 0.0 0.003276715552759049 0.0004888848093119286 0.0 0.0 0.0 0.0
1335005500.0 0.0 0.0 -0.00464821344711892 0.001571775734449367 0.0 0.0 0.0 0.0
1350005000.0 0.0 0.0 -0.007071081763532791 0.0016955353153697546 0.0 0.0 0.0 0.0
1365004500.0 0.0 0.0 0.006594254281848871 -0.003478335161771336 0.0 0.0 0.0 0.0
1380004000.0 0.0 0.0 -0.006505010170265434 0.0015835080820280822 0.0 0.0 0.0 0.0
1395003500.0 0.0 0.0 0.004965200457347464 -0.00022724357698630635 0.0 0.0 0.0 0.0
1410003000.0 0.0 0.0 -0.0025038213789543725 0.011078931805544975 0.0 0.0 0.0 0.0
1425002500.0 0.0 0.0 -0.0021638180675830005 -0.006447751749320639 0.0 0.0 0.0 0.0
1440002000.0 0.0 0.0 -0.002339231754388106 0.0044725366069505055 0.0 0.0 0.0 0.0
1455001500.0 0.0 0.0 -0.01758947805825058 0.0027481429869215942 0.0 0.0 0.0 0.0
1470001000.0 0.0 0.0 0.0050162967987683275 -0.010824486415050768 0.0 0.0 0.0 0.0
1485000500.0 0.0 0.0 -0.01615368775547969 -0.008013417909299228 0.0 0.0 0.0 0.0
1500000000.0 0.0 0.0 -0.016163882436284017 -0.0034592490131803494 0.0 0.0 0.0 0.0
