! Created with skrf 1.8.0 (http://scikit-rf.org).
# Hz S RI R 50.0 
!freq ReS11 ImS11
50000.0 0.997204864 0.001638666
15049500.0 0.976202624 0.219711568
30049000.0 0.907058624 0.427553536
45048500.0 0.793716736 0.615197824
60048000.0 0.644759744 0.772362944
75047500.0 0.465969376 0.895585408
90047000.0 0.252782736 0.980986752
105046500.0 0.032983508 1.013060928
120046000.0 -0.188183152 0.997743424
135045500.0 -0.402702528 0.933820352
150045000.0 -0.600162432 0.823944512
165044500.0 -0.768419328 0.671456384
180044000.0 -0.898735552 0.485035968
195043500.0 -0.986023232 0.273863712
210043000.0 -1.023667932 0.045910104
225042500.0 -1.008482696 -0.186969136
240042000.0 -0.939489216 -0.412186144
255041500.0 -0.820309632 -0.616200384
270041000.0 -0.657907136 -0.786883008
285040500.0 -0.457725024 -0.916421376
300040000.0 -0.238434784 -0.987673728
315039500.0 -0.006854693 -1.01545775
330039000.0 0.224581008 -0.99162048
345038500.0 0.443837792 -0.915763968
360038000.0 0.642039616 -0.796544192
375037500.0 0.803675648 -0.637707968
390037000.0 0.92353664 -0.441002272
405036500.0 1.013381124 -0.241163248
420036000.0 1.052556752 -0.018424446
435035500.0 1.043408632 0.218920544
450035000.0 0.978158464 0.454462848
465034500.0 0.865429952 0.655672448
480034000.0 0.705604416 0.831785152
495033500.0 0.514042272 0.96408992
510033000.0 0.303742592 1.05050838
525032500.0 0.078717768 1.0850724
540032000.0 -0.143979632 1.07901764
555031500.0 -0.35756016 1.019082666
570031000.0 -0.552311616 0.920062144
585030500.0 -0.724176 0.788064256
600030000.0 -0.874619456 0.637433088
615029500.0 -0.979787904 0.437315744
630029000.0 -1.045733808 0.21827288
645028500.0 -1.065015316 -0.0169236
660028000.0 -1.026833296 -0.251036736
675027500.0 -0.937216832 -0.479079072
690027000.0 -0.796928256 -0.678159552
705026500.0 -0.61137504 -0.849664832
720026000.0 -0.384182784 -0.969599872
735025500.0 -0.128454816 -1.042786716
750025000.0 0.136601696 -1.048347472
765024500.0 0.41087792 -0.989910912
780024000.0 0.659561792 -0.889721472
795023500.0 0.86420608 -0.664762048
810023000.0 1.014758588 -0.42490736
825022500.0 1.0910728 -0.153001392
840022000.0 1.101424696 0.116256448
855021500.0 1.043144344 0.373165056
870021000.0 0.919438656 0.58739008
885020500.0 0.76155488 0.762883968
900020000.0 0.613895424 0.928208
915019500.0 0.418885952 1.03428614
930019000.0 0.212327568 1.092904088
945018500.0 0.022652678 1.108446952
960018000.0 -0.17916672 1.087511184
975017500.0 -0.37228608 1.039293768
990017000.0 -0.535096704 0.960826816
1005016500.0 -0.695329792 0.855449792
1020016000.0 -0.839536768 0.727700352
1035015500.0 -0.951952832 0.557955136
1050015000.0 -1.077785016 0.372532544
1065014500.0 -1.115136504 0.181666304
1080014000.0 -1.13209164 -0.037646452
1095013500.0 -1.126714352 -0.256116128
1110013000.0 -1.066579936 -0.480457024
1125012500.0 -0.94202624 -0.710524352
1140012000.0 -0.770271936 -0.920718208
1155011500.0 -0.603396864 -1.078670504
1170011000.0 -0.327096288 -1.260214336
1185010500.0 0.060160712 -1.343452448
1200010000.0 0.430240832 -1.345389248
1215009500.0 0.87516224 -1.194062832
1230009000.0 1.263036128 -0.852147392
1245008500.0 1.448435072 -0.399129728
1260008000.0 1.487059232 0.078411176
1275007500.0 1.283208256 0.470206112
1290007000.0 1.0367018 0.758164352
1305006500.0 0.783656384 0.868208704
1320006000.0 0.603637248 0.922692736
1335005500.0 0.433137088 0.980713408
1350005000.0 0.298867552 1.01495874
1365004500.0 0.243762 1.061749936
1380004000.0 0.085597984 1.08142316
1395003500.0 -0.039892288 1.118290064
1410003000.0 -0.180758528 1.228654736
1425002500.0 -0.418394848 1.34476304
1440002000.0 -0.766495168 1.420113216
1455001500.0 -1.38085056 1.29065168
1470001000.0 -1.881387584 0.664631808
1485000500.0 -1.713506688 -0.06896028
1500000000.0 -1.397273888 -0.372115168
