! Created with skrf 1.8.0 (http://scikit-rf.org).
# Hz S RI R 50.0 
!freq ReS11 ImS11
50000.0 0.0005665257147617284 0.00022689050037361233
15049500.0 0.00014221470071944288 -0.000780453358293739
30049000.0 -0.00012015977355092497 2.027451071366008e-05
45048500.0 0.0004643683613215813 -0.00013713872466272566
60048000.0 0.0001574553423313234 -9.716644227780288e-06
75047500.0 -0.0002458774176549268 0.00022442496987064005
90047000.0 0.00015477260149919685 0.0003160715249071323
105046500.0 0.00013284338200731015 0.00013042462421561813
120046000.0 0.0004331082344835363 0.00017486886240300877
135045500.0 0.0028898139207952827 0.0006341245507016736
150045000.0 -0.001534041928473647 0.0010283432424797768
165044500.0 0.0019457784218498801 0.0021203341086759794
180044000.0 0.0006515883699695366 0.0002927405395978532
195043500.0 -0.0008053675296762827 0.000686390757835931
210043000.0 -0.0004890527740225199 -4.541141766799831e-05
225042500.0 -0.00024579571028547767 -0.0004349522097495306
240042000.0 0.00037182724874427575 -2.6047359518921842e-05
255041500.0 -0.0004847212591229892 0.00011516357610722572
270041000.0 -0.00030311130917330984 -6.532993115666986e-05
285040500.0 -0.0043348570213025605 0.006484998021441051
300040000.0 -0.0018016799738643924 0.0015609758198605306
315039500.0 0.0005629446913937059 -0.0009593327726653902
330039000.0 -0.0026782922811501007 0.00017671191918084336
345038500.0 -0.002658610893028921 -0.0013443653999867255
360038000.0 1.0536221177383866e-05 -0.0005342430899375867
375037500.0 0.002287313286297743 0.00259901736970185
390037000.0 -0.0055865831874947845 -0.008139404932416664
405036500.0 0.0009728107134760575 -0.00309589932750424
420036000.0 0.004767006852828082 -0.0018179640643198021
435035500.0 -0.00024228730614856184 0.010751541667001322
450035000.0 0.0012968561004560145 -0.0032122813799308706
465034500.0 -0.004191035385073805 -0.001349419117869477
480034000.0 -9.735733786814505e-06 0.0026501753810395847
495033500.0 -0.005231882650583099 0.0021127549033011306
510033000.0 0.024233459635437087 -0.023106268418167805
525032500.0 -0.00011972584255594101 0.00043332950600260466
540032000.0 -0.0037815832269595022 0.007035380077747761
555031500.0 -0.0010124511396256046 8.00693491393325e-05
570031000.0 -0.0008315207441250801 -0.0013228142091513658
585030500.0 -0.0126376137218417 0.004401313965413982
600030000.0 0.022961177033090256 -0.02878835127075838
615029500.0 -0.005542339567608463 0.0009465264964560907
630029000.0 -0.0018125182137835375 -0.0014697339884787678
645028500.0 -0.0018392695970100212 0.0007556152057653095
660028000.0 -0.0022010083942573216 -0.0011195173433646262
675027500.0 0.002621335646098794 -0.001860499857040945
690027000.0 0.005934990253591024 0.0005802583593789124
705026500.0 0.0006467770303226349 -0.0037982031000412067
720026000.0 -0.004037209545205153 -0.002802604547495596
735025500.0 0.008618703541189257 0.006735245352182082
750025000.0 0.00369253600433969 -0.0003202836847222199
765024500.0 -0.013342025547977563 -0.0067224579319568895
780024000.0 -0.0481558831549334 -0.014053157841939367
795023500.0 -0.006694345947982534 0.007588886346200256
810023000.0 0.0002490444737809658 0.0007778372534236671
825022500.0 0.003872668892289045 -0.0007985261259602217
840022000.0 0.0020796682357181835 -0.003640059244619448
855021500.0 -0.03737000415115688 0.003684023943763033
870021000.0 -0.007844875185457633 0.000783887242110822
885020500.0 0.04502213129756166 0.006284548124776569
900020000.0 0.010833677943135197 0.0018805608676600246
915019500.0 -0.006649075067376504 -0.008063458953135632
930019000.0 0.01032353326311231 0.0020356976380739556
945018500.0 0.0012310351114898216 -0.013145087960770558
960018000.0 -0.02582106906922586 -0.020520047260899378
975017500.0 0.013981201327955148 0.01848338195800365
990017000.0 0.027178262353720412 -0.05907115445766161
1005016500.0 -0.0010009845479989222 0.012756839296083096
1020016000.0 -0.00492938162891086 -0.0027147660014833932
1035015500.0 -0.09278553340596508 -0.13012186469784245
1050015000.0 0.0205949025241225 -0.05150141751064988
1065014500.0 0.0009677059985215765 0.005154492205601413
1080014000.0 -0.004331176136436411 0.010818719555224674
1095013500.0 0.011326083138660348 0.013980607000179212
1110013000.0 0.009526987563619749 -0.00819029367793938
1125012500.0 0.0016305150297900967 -0.0031765723504656737
1140012000.0 -0.0462950448777662 -0.0246321769365156
1155011500.0 0.04234770065895018 0.05209552880081548
1170011000.0 -0.00041735341410597827 -0.0005058846027626531
1185010500.0 -0.1431878215496125 0.14690701802196537
1200010000.0 -0.02871544942016818 0.011613289201310014
1215009500.0 0.07849206471336415 -0.11245510815428117
1230009000.0 0.11296279092956656 -0.0037205713465534584
1245008500.0 0.030187793644769062 -0.031249568748175572
1260008000.0 0.04964650336168569 0.03521317748323408
1275007500.0 0.01134422498230108 -0.005070752664884678
1290007000.0 -0.40300506464780445 0.026802317675169017
1305006500.0 -0.022149278244916783 0.05467231815022519
1320006000.0 -0.1368250055588754 0.01537217943074364
1335005500.0 0.0012080161119109951 -0.00014201433365923125
1350005000.0 0.011716788006651135 -0.0007423965083138283
1365004500.0 0.25704933954572834 0.044552883407394335
1380004000.0 -0.00155276412310871 -0.018736180763954995
1395003500.0 -0.030622787233911774 -0.0109738796336101
1410003000.0 -0.03509780935625664 0.016555101376948735
1425002500.0 0.05710045607180087 0.002815687988122105
1440002000.0 -0.0072288167605280345 -0.05039219730213161
1455001500.0 0.07161715255333966 -0.013213409317998913
1470001000.0 0.0014661267139729017 0.026526780378345452
1485000500.0 0.30598025490763314 -0.02903922621977427
1500000000.0 -0.35033339193568547 0.3045325183034396
