! Created with skrf 1.8.0 (http://scikit-rf.org).
# Hz S RI R 50.0 
!freq ReS11 ImS11
50000.0 -0.00021886562121779818 -2.0788313078996953e-05
15049500.0 -0.00010374673204736239 6.688633107920861e-05
30049000.0 -2.7234467068247516e-06 7.964382262492057e-05
45048500.0 5.196016283024641e-05 -9.638237938600347e-05
60048000.0 -1.5224679405577594e-05 7.926738713715176e-05
75047500.0 1.9702545437761521e-07 0.00012000168645719335
90047000.0 -0.00094658400003392 -0.00039118189838538794
105046500.0 0.0003544917936633577 4.4879344055002575e-05
120046000.0 0.0023006312209037532 0.0002857769026371696
135045500.0 0.00035883840696085 -0.00014070692865070583
150045000.0 -4.438865445286804e-05 -2.7815511249351214e-05
165044500.0 1.4208085866295362e-05 -3.977897273273729e-06
180044000.0 -3.0235963789309687e-05 7.296446633642199e-06
195043500.0 -2.902731482990969e-06 1.3484585421307771e-05
210043000.0 0.00015984498099771389 -0.00010623265375965651
225042500.0 8.747794077626955e-05 -4.6780480324348305e-05
240042000.0 2.3734057544840922e-05 0.00012034262467508089
255041500.0 -1.115768628103489e-05 7.692073212389154e-06
270041000.0 1.3077757035852478e-05 -0.0002860279605357533
285040500.0 -0.0005785787912434816 -8.248547562825725e-05
300040000.0 -0.00022158122680989646 -2.1513633369089027e-05
315039500.0 -0.00025017273699806414 0.0002812754312169571
330039000.0 0.0007514157390970819 0.0007299057533568648
345038500.0 -0.0004493330928728835 0.005184212552195995
360038000.0 -0.0005076875732147123 -0.0003635836199994564
375037500.0 7.848544042366313e-06 -8.101402485997217e-05
390037000.0 0.0028030591038070347 -0.015613769294750548
405036500.0 -0.0005506594280679761 0.00019279171187349615
420036000.0 0.0003891609138883314 0.00023569157787335735
435035500.0 -0.0006665260275362214 -0.00040776573404034455
450035000.0 0.005096046241511663 -0.0027553764473881867
465034500.0 -6.608234064570739e-06 -0.00021567693672665337
480034000.0 -0.0006669800213653848 -0.00047940050840535763
495033500.0 -0.0023580887206992953 -0.00066427989696728
510033000.0 -0.0001856194800723774 -0.0016736770681597755
525032500.0 -0.0029452496128083367 0.0012164760272732
540032000.0 0.0008257660339010601 -0.0002463881278076802
555031500.0 -0.0011148968792633596 -0.005601549036788855
570031000.0 5.33180821290709e-06 0.0003045851541283059
585030500.0 -0.0034929699495100386 -0.004187192665958484
600030000.0 0.0023126459608354562 -0.0003300711442179931
615029500.0 -0.0007581437069870545 -0.0024649755010265496
630029000.0 0.000319557605313787 -0.0020863101918422735
645028500.0 0.004476993459466864 -0.0002751083413700718
660028000.0 0.0009086968039196998 0.00047359752482168874
675027500.0 -0.0022723858412914914 0.0024845585346248214
690027000.0 -0.0013999197003968342 0.00032400174768863424
705026500.0 -0.0015019355431720612 0.00016543075137142669
720026000.0 -0.0034006354245571845 -0.0026297848210065766
735025500.0 -0.00040506002743739724 -2.6483554883474594e-05
750025000.0 0.011423075523877214 -0.0051185982017161215
765024500.0 -8.874835339301342e-05 0.002991451043530381
780024000.0 0.007203754370044696 -0.002667974351110433
795023500.0 0.0012782672746941023 0.0017101661916763076
810023000.0 -0.00030089618394136625 0.00024995665576086365
825022500.0 -0.0117089393694038 0.01680216544150518
840022000.0 0.000769360326917664 -6.281220629627667e-06
855021500.0 0.0013328494897411785 -0.002195785209446355
870021000.0 0.001039825708804301 -0.00034331064705712434
885020500.0 0.0027753754305790196 0.003249598748720026
900020000.0 0.0419184573930985 0.07088924972440955
915019500.0 -0.007653630515458178 -0.013136831413447826
930019000.0 -0.019370146840956372 -0.0026684390526807316
945018500.0 -0.003093796194325438 -0.0038372926411492283
960018000.0 0.0017068089794780796 0.0034977753560497585
975017500.0 0.006873281326755063 0.0048103896134989955
990017000.0 0.002531791510510999 0.001424519423471011
1005016500.0 0.013320912695736924 -0.007835764966883636
1020016000.0 -0.010506815343805527 -0.009171973676623315
1035015500.0 0.0037285461847732485 -0.021394551445751604
1050015000.0 -0.0007765074095613018 -0.005540305796280655
1065014500.0 -0.026087156169479618 0.0020145917415721453
1080014000.0 -0.003169120115184776 0.0037482721874491044
1095013500.0 0.017188239146251665 0.022133123585799892
1110013000.0 0.0016302519041392672 -0.008955020149517432
1125012500.0 0.005753234183764991 -0.00999780212229592
1140012000.0 -0.031620078730822156 -0.030953120720348698
1155011500.0 -0.00843738875834097 -0.011051049129766883
1170011000.0 -0.010302260680725147 -0.02084682843466289
1185010500.0 -0.015173164904763703 0.020568457184529872
1200010000.0 0.010820765766972502 0.025685664947696814
1215009500.0 -0.004593232846884849 -0.001497672261687898
1230009000.0 0.0024723633150017326 -0.033660947703370754
1245008500.0 -0.007041968986141092 -0.0005052117707496894
1260008000.0 -0.00998512688156849 0.0058488692081699375
1275007500.0 -0.030981936919131408 -0.038798044603836075
1290007000.0 -0.008151268321299945 0.01132994742424813
1305006500.0 -0.007302845516229628 0.004602547771677628
1320006000.0 -0.029920465087235802 0.012994350930019695
1335005500.0 0.013427472499813046 -0.005743934356383566
1350005000.0 0.002434949539269428 0.07008372677687445
1365004500.0 -0.036230690558075575 0.0004874748636341419
1380004000.0 -0.004409409228117308 0.02621715391656733
1395003500.0 0.05081608237715669 0.05214274400379404
1410003000.0 0.10411402785577793 0.02312506098682115
1425002500.0 -0.04490918509580676 0.032417553498413104
1440002000.0 0.0016099532031640471 0.010832916807732884
1455001500.0 -0.07173796626054914 -0.016150980841996135
1470001000.0 0.026620848721284906 -0.14120006657513456
1485000500.0 -0.03787195105601282 -0.04687670374210442
1500000000.0 -0.221218772380105 0.9364207395631649
