! Created with skrf 1.8.0 (http://scikit-rf.org).
# Hz S RI R 50.0 
!freq ReS11 ImS11
50000.0 -1.4428036304844296 -0.4199500824026516
15049500.0 -1.0748965570736775 1.260209423096078
30049000.0 -3.0724437543384697 -1.057174006415201
45048500.0 -0.7645959824145186 1.801857749299026
60048000.0 -2.3842256541182336 0.5381761678592589
75047500.0 -0.6151622962975093 -0.8326185417440625
90047000.0 0.11927652982927875 0.30801025493991857
105046500.0 0.4479967080701124 -0.9668465973278011
120046000.0 -0.8716019902558607 1.170914840461085
135045500.0 1.3477661511032295 1.3710137855113378
150045000.0 -1.8325237394997196 6.2118957248356175
165044500.0 2.011929184909124 3.566703692277516
180044000.0 2.5151812288874225 0.15176388479972797
195043500.0 1.8068338106793373 1.9330952592786177
210043000.0 -2.7376890863808394 -0.6297916564923961
225042500.0 0.5409063965886604 -0.38235869098714687
240042000.0 -0.5630293173846498 -0.12257256072468023
255041500.0 -0.9473782550681311 -0.6590213200410189
270041000.0 -0.6795481935824528 -0.1947914883241176
285040500.0 0.45509547736659883 3.5992967001167453
300040000.0 -1.385922188450299 0.6742233978016441
315039500.0 -0.8312079375856166 -0.4961586876631838
330039000.0 0.07250542221702794 -0.8410735743311075
345038500.0 1.8812559656540682 0.7399163587486209
360038000.0 -0.43394116186735726 0.7204577887775434
375037500.0 -1.6174828569597248 -0.9173075469321639
390037000.0 -1.1189043356220223 0.5853147304294308
405036500.0 1.479049356329043 -0.9034332895463834
420036000.0 -1.9949944631745704 2.5704446938201744
435035500.0 4.048828304798574 -1.4214628541609413
450035000.0 -1.2861459626498362 -0.1187868649204234
465034500.0 0.853661721652761 -1.3714232830951307
480034000.0 0.20891831052973067 -0.7655442395519151
495033500.0 2.473647448401482 1.1124015147551602
510033000.0 0.544504327980571 -10.545227698479026
525032500.0 0.6153308460921381 0.055505736997051865
540032000.0 2.3157888852276787 0.9171130011765032
555031500.0 0.3517444515212356 -0.2594797096959024
570031000.0 -0.8279355602447611 -0.5638309405760703
585030500.0 0.35502435142465905 1.329700566810815
600030000.0 -6.6000782191782745 7.035260184962359
615029500.0 -1.3210188612911553 -1.1429164712375601
630029000.0 -0.5090683501577187 0.4613522329883641
645028500.0 1.4095874983750853 -0.3052729361353085
660028000.0 0.7876932930653477 0.3868954123102321
675027500.0 -0.49768036353861755 0.10137587858726142
690027000.0 0.510547385821499 -1.533898436138583
705026500.0 0.29126384482587225 0.6851371343502184
720026000.0 -0.9426275802923305 2.0630010534333767
735025500.0 0.20062673625892039 1.4465675967447995
750025000.0 -0.540957690723966 -0.8244921992221603
765024500.0 1.5509444043082132 -2.672068637466209
780024000.0 -0.5542364964423289 -0.6543447304859443
795023500.0 -0.008581298077397185 -1.8489136645247015
810023000.0 -1.0613799316892518 -0.059553814113233565
825022500.0 0.2129795097302232 1.1400933936201463
840022000.0 1.381089337422495 -0.2483500600893882
855021500.0 -4.555050298123554 1.4891177191051803
870021000.0 1.815913946257987 -0.8501562823789979
885020500.0 -5.280404824366861 -2.008077051624691
900020000.0 -1.8790142648576764 -0.7120654802789074
915019500.0 0.41147325371318527 1.268964830489562
930019000.0 -1.7070408953358414 -0.7707323035233149
945018500.0 0.7292359098851111 -1.4596392630551793
960018000.0 0.5073408231725782 -4.794199143019027
975017500.0 -0.3479056524061887 -2.6778928128822246
990017000.0 2.447648213226471 -5.711882215056705
1005016500.0 -2.2595264983730163 0.9098313271101212
1020016000.0 -0.9016290974993351 0.31270955786127014
1035015500.0 0.8962942500325118 -13.021911827128745
1050015000.0 0.14819865686661055 1.2502444487903894
1065014500.0 0.3757045417241052 -0.28677339057353224
1080014000.0 -0.37032338167288253 0.4406100353439867
1095013500.0 -1.117042315054783 -2.2736236250242476
1110013000.0 0.5235018557871209 1.5160994313344835
1125012500.0 0.9976390879994995 -0.5515103406122319
1140012000.0 -3.273564794442185 -0.8383626989785828
1155011500.0 -0.37347789075411336 -0.704628055812288
1170011000.0 -0.9857011819891693 0.005500877688008216
1185010500.0 -1.140220713501192 5.54454273686464
1200010000.0 1.8278596801124443 0.25032877916553403
1215009500.0 -0.5783571634371235 -3.456679450379875
1230009000.0 2.5320165596249007 -4.080176796026188
1245008500.0 0.7546236111865576 0.9826823317211728
1260008000.0 -0.6528274316571725 1.354149723825352
1275007500.0 -0.22133771982607744 0.3891889184519127
1290007000.0 -1.808497829393155 10.890146931910111
1305006500.0 1.9503851871310705 -1.3896174183306584
1320006000.0 -5.188553690509937 -3.9218099686424237
1335005500.0 1.0879960297726232 -0.08421269636878904
1350005000.0 1.224809698202436 -0.6936311988406593
1365004500.0 4.047749949882986 -0.5676325071026319
1380004000.0 -0.6648860568692291 -1.1522905678180628
1395003500.0 0.3204272861543962 -1.0768548881210145
1410003000.0 0.22974877466720955 1.3909102654189789
1425002500.0 -0.600056953124369 -4.250783236778235
1440002000.0 1.9797506149403985 -1.6636018662866652
1455001500.0 -0.8456896825184518 1.0361415799375264
1470001000.0 -0.6714237597582345 0.04619410655099333
1485000500.0 5.528466250403333 -0.9082522485519687
1500000000.0 8.086786761629547 4.547943688537981
