! Created with skrf 1.8.0 (http://scikit-rf.org).
# Hz S RI R 50.0 
!freq ReS11 ImS11
50000.0 1.1835998282310867 0.81889979068939
15049500.0 -1.7919195601375826 0.7147886153469298
30049000.0 -1.387047374632675 0.8348589530258025
45048500.0 -0.15271484058381057 0.805394993803786
60048000.0 -1.52577533131379 -0.12131116016930006
75047500.0 0.02817962356093226 -0.7988183562508745
90047000.0 7.3287989942054965 0.5533034918309134
105046500.0 -0.7791997265823614 -3.978517732306288
120046000.0 -13.786662295869402 -2.5609248465850074
135045500.0 -1.0464601327060323 1.3681903320476434
150045000.0 1.4136042658656596 0.5353656588414512
165044500.0 1.015417684089289 0.23620076868581993
180044000.0 1.7060881787429087 -0.03918101594181044
195043500.0 -0.9409278490063078 0.11659256508327501
210043000.0 1.0323045975143659 -1.2262461752670604
225042500.0 -0.37933612625638 1.1676481055817896
240042000.0 -0.8276329733888542 -0.9890080018556069
255041500.0 -0.7644843253192529 0.03181277120833675
270041000.0 6.77216798714819 5.876816352959962
285040500.0 -1.3829019561635976 1.8700177932995101
300040000.0 0.09029853995832413 0.49766728415848455
315039500.0 0.947549500681635 0.371088055463522
330039000.0 -0.4563480318190195 1.136156640338969
345038500.0 0.8746945887313611 3.69116040302395
360038000.0 0.04703656490628166 0.785910692337855
375037500.0 0.8727285637039168 0.33447083337116146
390037000.0 2.33995697754049 7.358926992204231
405036500.0 0.6768220988901505 -0.6033366430214667
420036000.0 1.5535866739652056 -0.5097689673440043
435035500.0 0.9056977788442342 1.2112419454785432
450035000.0 -6.204350622258098 1.1344831919379676
465034500.0 0.742165662356447 -0.17182968242563948
480034000.0 0.6981213724128787 0.7727953479177055
495033500.0 0.5399715851069611 1.8890463537761528
510033000.0 -2.7011688667270044 -0.13973105405159703
525032500.0 2.108627015529191 -1.6973981928583273
540032000.0 1.1010310915994115 0.7476006812931199
555031500.0 1.9712064394206414 5.641214802502427
570031000.0 -0.34521499182431337 -0.18945782645358814
585030500.0 -0.07645289462193278 -4.849017967981732
600030000.0 -0.32543020071587136 3.877447366483782
615029500.0 -2.291375435686951 0.7528621568037664
630029000.0 2.3937620074284687 -0.6793264523053174
645028500.0 3.0951054792758343 2.495136998380698
660028000.0 0.6447790952119947 0.7107645368601582
675027500.0 -2.9173537393772584 0.09183675847968344
690027000.0 1.995224554844749 -2.5774145745276407
705026500.0 0.8162258314291849 -0.6387013839436911
720026000.0 0.08753149707812233 -1.4328299720228534
735025500.0 1.2812486874825477 0.03770633337229983
750025000.0 3.1033211633302393 -3.3493681417679646
765024500.0 2.785520227411289 1.3495971534355702
780024000.0 1.0124258916889284 1.0294959915072253
795023500.0 -0.260291644014715 -1.4361985113009816
810023000.0 -1.0311198416938792 0.24358804743496343
825022500.0 -18.285394389533955 -3.8059545597945816
840022000.0 0.020602636878510702 0.5013240309325276
855021500.0 -0.8546851975426141 -1.6178755246832228
870021000.0 0.599148715170684 -0.589433755872464
885020500.0 -0.9957514123789505 -2.0968994514110535
900020000.0 -15.072355946424796 17.609924123875338
915019500.0 -1.7368778207064033 -1.941900984651403
930019000.0 -0.28815935850567537 3.253730368807584
945018500.0 -0.3793921229454771 -1.0038393077987018
960018000.0 -1.485709446762655 -0.37856036606534144
975017500.0 0.5019211531266404 1.4927762880279112
990017000.0 -1.4611498535013532 0.3363706842970544
1005016500.0 -2.3128743993326184 -0.05592365528637432
1020016000.0 0.5383369884441415 -1.8416052794096962
1035015500.0 -1.0560884092408023 2.1351954162139792
1050015000.0 0.7487378792772243 1.3295477010410957
1065014500.0 0.01748783825897047 -2.063423494167786
1080014000.0 -0.7102561735413099 -0.5813468172772478
1095013500.0 -2.9603237566838474 3.561304164311119
1110013000.0 -0.9655416214329594 -0.9998066800780868
1125012500.0 0.8410664032516278 -0.8748394397486459
1140012000.0 -0.6561236243617111 3.4930603938436975
1155011500.0 -0.13256498801993719 0.34624341326263525
1170011000.0 -2.1096121937901557 0.8061147335392668
1185010500.0 -0.29652644533296635 -1.926821381753027
1200010000.0 -0.6129928304105009 3.5224082099422884
1215009500.0 -0.23337080493842569 -0.11486887641729507
1230009000.0 -0.48200627540978025 -2.1369824469041454
1245008500.0 0.4229977519931568 -0.8525127184913259
1260008000.0 -1.4032561482181338 0.6295820747183966
1275007500.0 -0.23315474991577737 -2.2756800364239744
1290007000.0 -1.5039833116903414 0.666488510850331
1305006500.0 -0.4587988619464886 0.2073980655208308
1320006000.0 3.0456894633218012 0.7148972243355274
1335005500.0 0.83884955305665 0.6419091594609212
1350005000.0 -0.11602619057537959 -1.9840420339676441
1365004500.0 0.6905278694537546 1.0772432674656132
1380004000.0 1.4329569868438166 -1.1628270379272936
1395003500.0 -4.9670220960522276 0.38791609388638626
1410003000.0 -2.2794588662627167 -1.6520566176075382
1425002500.0 0.3547238518935942 1.866002736469255
1440002000.0 0.8211019186213573 -0.031587609349048036
1455001500.0 0.5097888909163342 0.9918215996638577
1470001000.0 2.908620555529444 -0.22443120904629657
1485000500.0 -1.376144679851264 1.9212622124439769
1500000000.0 -17.83131589633272 0.2820608853373878
