! Created with skrf 1.8.0 (http://scikit-rf.org).
# Hz S RI R 50.0 
!freq ReS11 ImS11 ReS21 ImS21 ReS12 ImS12 ReS22 ImS22
50000.0 0.0 0.0 0.9937446560312856 0.0013097838780640684 0.0 0.0 0.0 0.0
15049500.0 0.0 0.0 0.9915504072036927 -0.005777839914676697 0.0 0.0 0.0 0.0
30049000.0 0.0 0.0 0.990777575648335 -0.010326102391830969 0.0 0.0 0.0 0.0
45048500.0 0.0 0.0 0.9899616228395061 -0.014602800594565406 0.0 0.0 0.0 0.0
60048000.0 0.0 0.0 0.9892754474662313 -0.01934157305594558 0.0 0.0 0.0 0.0
75047500.0 0.0 0.0 0.9889512149206184 -0.023390076009159138 0.0 0.0 0.0 0.0
90047000.0 0.0 0.0 0.9889278793308405 -0.027470922641585765 0.0 0.0 0.0 0.0
105046500.0 0.0 0.0 0.9885273964205302 -0.032005492332973645 0.0 0.0 0.0 0.0
120046000.0 0.0 0.0 0.9878854013841443 -0.03698543033643018 0.0 0.0 0.0 0.0
135045500.0 0.0 0.0 0.9873044246451944 -0.04179564570542912 0.0 0.0 0.0 0.0
150045000.0 0.0 0.0 0.9860102141482097 -0.04614501482715139 0.0 0.0 0.0 0.0
165044500.0 0.0 0.0 0.9841306862847797 -0.05002219812538413 0.0 0.0 0.0 0.0
180044000.0 0.0 0.0 0.9824435774526531 -0.05299739324411064 0.0 0.0 0.0 0.0
195043500.0 0.0 0.0 0.9811982803732131 -0.05494053053751813 0.0 0.0 0.0 0.0
210043000.0 0.0 0.0 0.9812108649445346 -0.056729796889877046 0.0 0.0 0.0 0.0
225042500.0 0.0 0.0 0.9822708539866075 -0.058270364689032336 0.0 0.0 0.0 0.0
240042000.0 0.0 0.0 0.9846316649452952 -0.06040075598606171 0.0 0.0 0.0 0.0
255041500.0 0.0 0.0 0.9875855977577904 -0.0645881663430303 0.0 0.0 0.0 0.0
270041000.0 0.0 0.0 0.9909957460026199 -0.07060765025936161 0.0 0.0 0.0 0.0
285040500.0 0.0 0.0 0.9917503079920746 -0.07779966026998877 0.0 0.0 0.0 0.0
300040000.0 0.0 0.0 0.9943157182194222 -0.0857962063435065 0.0 0.0 0.0 0.0
315039500.0 0.0 0.0 0.9919614797816787 -0.09575970569890907 0.0 0.0 0.0 0.0
330039000.0 0.0 0.0 0.9866147438874524 -0.10170980262468675 0.0 0.0 0.0 0.0
345038500.0 0.0 0.0 0.9834969968301475 -0.10906570982904584 0.0 0.0 0.0 0.0
360038000.0 0.0 0.0 0.9782802548889806 -0.11183951072212049 0.0 0.0 0.0 0.0
375037500.0 0.0 0.0 0.9731706632405311 -0.11423909974896852 0.0 0.0 0.0 0.0
390037000.0 0.0 0.0 0.9678478856421254 -0.11286952082532554 0.0 0.0 0.0 0.0
405036500.0 0.0 0.0 0.9675763854409736 -0.11607014058955144 0.0 0.0 0.0 0.0
420036000.0 0.0 0.0 0.9660536187508065 -0.1161883736221032 0.0 0.0 0.0 0.0
435035500.0 0.0 0.0 0.9692232273469888 -0.11586687725581511 0.0 0.0 0.0 0.0
450035000.0 0.0 0.0 0.9663805467418642 -0.11631866088961552 0.0 0.0 0.0 0.0
465034500.0 0.0 0.0 0.9730650460508027 -0.12470361180258309 0.0 0.0 0.0 0.0
480034000.0 0.0 0.0 0.9714828024371172 -0.1284286304163949 0.0 0.0 0.0 0.0
495033500.0 0.0 0.0 0.9710062387654751 -0.13675225492605467 0.0 0.0 0.0 0.0
510033000.0 0.0 0.0 0.9678672038000603 -0.1413009713465741 0.0 0.0 0.0 0.0
525032500.0 0.0 0.0 0.9664153296562037 -0.1468352363942558 0.0 0.0 0.0 0.0
540032000.0 0.0 0.0 0.9634270099096339 -0.14861232902067276 0.0 0.0 0.0 0.0
555031500.0 0.0 0.0 0.9610377095319106 -0.14934382500696147 0.0 0.0 0.0 0.0
570031000.0 0.0 0.0 0.9610195732051755 -0.15071913136997023 0.0 0.0 0.0 0.0
585030500.0 0.0 0.0 0.9627520056778452 -0.15149753375243769 0.0 0.0 0.0 0.0
600030000.0 0.0 0.0 0.9642744482237748 -0.15288770004997354 0.0 0.0 0.0 0.0
615029500.0 0.0 0.0 0.9732474253291318 -0.15344678831379882 0.0 0.0 0.0 0.0
630029000.0 0.0 0.0 0.9755462246192855 -0.15789618857772722 0.0 0.0 0.0 0.0
645028500.0 0.0 0.0 0.9826155305859999 -0.17104685927480556 0.0 0.0 0.0 0.0
660028000.0 0.0 0.0 0.9835171503305231 -0.17982420791175327 0.0 0.0 0.0 0.0
675027500.0 0.0 0.0 0.9870354069023174 -0.18914734681163534 0.0 0.0 0.0 0.0
690027000.0 0.0 0.0 0.9793127744036072 -0.2052114941622873 0.0 0.0 0.0 0.0
705026500.0 0.0 0.0 0.9733804642845835 -0.213762562792287 0.0 0.0 0.0 0.0
720026000.0 0.0 0.0 0.9652266182791102 -0.2201838107585849 0.0 0.0 0.0 0.0
735025500.0 0.0 0.0 0.9540824660658096 -0.2263147246897421 0.0 0.0 0.0 0.0
750025000.0 0.0 0.0 0.9440841218329836 -0.22743188815337131 0.0 0.0 0.0 0.0
765024500.0 0.0 0.0 0.9365065816813096 -0.2249105847517862 0.0 0.0 0.0 0.0
780024000.0 0.0 0.0 0.9296606565057023 -0.23005637915327126 0.0 0.0 0.0 0.0
795023500.0 0.0 0.0 0.9305855782663908 -0.21645325765078133 0.0 0.0 0.0 0.0
810023000.0 0.0 0.0 0.930901867178154 -0.21588028735753784 0.0 0.0 0.0 0.0
825022500.0 0.0 0.0 0.9344387430235007 -0.20937022716919743 0.0 0.0 0.0 0.0
840022000.0 0.0 0.0 0.933722877101704 -0.2043935896524258 0.0 0.0 0.0 0.0
855021500.0 0.0 0.0 0.9391336293099487 -0.21242761182902034 0.0 0.0 0.0 0.0
870021000.0 0.0 0.0 0.9452435980061021 -0.21647076150090058 0.0 0.0 0.0 0.0
885020500.0 0.0 0.0 0.94166414070224 -0.225612591697026 0.0 0.0 0.0 0.0
900020000.0 0.0 0.0 0.9454299828950753 -0.22848072333420766 0.0 0.0 0.0 0.0
915019500.0 0.0 0.0 0.9361549171949235 -0.23569544818652718 0.0 0.0 0.0 0.0
930019000.0 0.0 0.0 0.9359358304894497 -0.236871838346618 0.0 0.0 0.0 0.0
945018500.0 0.0 0.0 0.9348711754639103 -0.24199444451304883 0.0 0.0 0.0 0.0
960018000.0 0.0 0.0 0.9327734480381054 -0.24535226086674267 0.0 0.0 0.0 0.0
975017500.0 0.0 0.0 0.928281107109297 -0.2448802839097901 0.0 0.0 0.0 0.0
990017000.0 0.0 0.0 0.9375460986248866 -0.252257312522526 0.0 0.0 0.0 0.0
1005016500.0 0.0 0.0 0.9369211486020848 -0.2529814298105497 0.0 0.0 0.0 0.0
1020016000.0 0.0 0.0 0.9427584784096349 -0.2717682753009946 0.0 0.0 0.0 0.0
1035015500.0 0.0 0.0 0.9445947159542264 -0.27542477162607526 0.0 0.0 0.0 0.0
1050015000.0 0.0 0.0 0.9070592177980431 -0.2974379857241187 0.0 0.0 0.0 0.0
1065014500.0 0.0 0.0 0.9379341582495279 -0.29218512169036165 0.0 0.0 0.0 0.0
1080014000.0 0.0 0.0 0.921944096297861 -0.300720659242677 0.0 0.0 0.0 0.0
1095013500.0 0.0 0.0 0.9174194766149634 -0.3101502769107317 0.0 0.0 0.0 0.0
1110013000.0 0.0 0.0 0.9067364165357653 -0.3079273553979038 0.0 0.0 0.0 0.0
1125012500.0 0.0 0.0 0.8926826473124395 -0.3162540910238259 0.0 0.0 0.0 0.0
1140012000.0 0.0 0.0 0.8821493857373941 -0.31012700524298115 0.0 0.0 0.0 0.0
1155011500.0 0.0 0.0 0.9075848184678874 -0.30948681579131604 0.0 0.0 0.0 0.0
1170011000.0 0.0 0.0 0.8706463920740566 -0.30062101420606024 0.0 0.0 0.0 0.0
1185010500.0 0.0 0.0 0.8738403408629531 -0.28555454332829994 0.0 0.0 0.0 0.0
1200010000.0 0.0 0.0 0.8704635722988618 -0.2877082273518286 0.0 0.0 0.0 0.0
1215009500.0 0.0 0.0 0.8745347176069262 -0.27118317452424445 0.0 0.0 0.0 0.0
1230009000.0 0.0 0.0 0.8854467201673895 -0.2730309347274834 0.0 0.0 0.0 0.0
1245008500.0 0.0 0.0 0.9038127012571976 -0.28940237482554554 0.0 0.0 0.0 0.0
1260008000.0 0.0 0.0 0.909111684737353 -0.2992286888604017 0.0 0.0 0.0 0.0
1275007500.0 0.0 0.0 0.9174151462423594 -0.3036811656865698 0.0 0.0 0.0 0.0
1290007000.0 0.0 0.0 0.9020280113817513 -0.31626103896377517 0.0 0.0 0.0 0.0
1305006500.0 0.0 0.0 0.8745011591027219 -0.3378600082564184 0.0 0.0 0.0 0.0
1320006000.0 0.0 0.0 0.8896556390464289 -0.33358930713690405 0.0 0.0 0.0 0.0
1335005500.0 0.0 0.0 0.8869969040985285 -0.33329406317286703 0.0 0.0 0.0 0.0
1350005000.0 0.0 0.0 0.8762318156527714 -0.32977632875770924 0.0 0.0 0.0 0.0
1365004500.0 0.0 0.0 0.8780919439387708 -0.34557669648546285 0.0 0.0 0.0 0.0
1380004000.0 0.0 0.0 0.8767803610541046 -0.33947900809902404 0.0 0.0 0.0 0.0
1395003500.0 0.0 0.0 0.8577683674382759 -0.364533189352922 0.0 0.0 0.0 0.0
1410003000.0 0.0 0.0 0.8662098736864106 -0.3642190350521676 0.0 0.0 0.0 0.0
1425002500.0 0.0 0.0 0.8879072291481124 -0.3865418807013328 0.0 0.0 0.0 0.0
1440002000.0 0.0 0.0 0.8466152800557073 -0.3896586806264672 0.0 0.0 0.0 0.0
1455001500.0 0.0 0.0 0.8586437237320296 -0.3666322665277329 0.0 0.0 0.0 0.0
1470001000.0 0.0 0.0 0.8695833240917579 -0.3729199995694108 0.0 0.0 0.0 0.0
1485000500.0 0.0 0.0 0.8380318368661017 -0.3564929674584162 0.0 0.0 0.0 0.0
1500000000.0 0.0 0.0 0.7996050759474542 -0.3227736675436995 0.0 0.0 0.0 0.0
