! Created with skrf 1.8.0 (http://scikit-rf.org).
# Hz S RI R 50.0 
!freq ReS11 ImS11 ReS21 ImS21 ReS12 ImS12 ReS22 ImS22
50000.0 0.0 0.0 -0.00010992361658235317 3.147133923835798e-05 0.0 0.0 0.0 0.0
15049500.0 0.0 0.0 8.483586855010957e-05 6.607434662067063e-05 0.0 0.0 0.0 0.0
30049000.0 0.0 0.0 2.1641668991512867e-05 8.206762410463107e-06 0.0 0.0 0.0 0.0
45048500.0 0.0 0.0 1.6704124683507054e-05 2.606621590407496e-05 0.0 0.0 0.0 0.0
60048000.0 0.0 0.0 3.570892107757538e-05 2.2082900363754147e-05 0.0 0.0 0.0 0.0
75047500.0 0.0 0.0 5.455012477590162e-05 4.473500017808834e-05 0.0 0.0 0.0 0.0
90047000.0 0.0 0.0 3.0778654825010793e-05 7.052270091369755e-05 0.0 0.0 0.0 0.0
105046500.0 0.0 0.0 1.7366709097804478e-05 3.524406936084758e-05 0.0 0.0 0.0 0.0
120046000.0 0.0 0.0 2.817867054740292e-06 4.795910197513929e-05 0.0 0.0 0.0 0.0
135045500.0 0.0 0.0 -2.5398682757611254e-05 4.252464139976045e-05 0.0 0.0 0.0 0.0
150045000.0 0.0 0.0 -7.579731068557602e-07 0.00011352156997579483 0.0 0.0 0.0 0.0
165044500.0 0.0 0.0 4.328706404926184e-05 9.824808176750885e-05 0.0 0.0 0.0 0.0
180044000.0 0.0 0.0 -1.1338339056950128e-05 4.871713551133358e-05 0.0 0.0 0.0 0.0
195043500.0 0.0 0.0 -1.9284395413951826e-05 5.806171659982466e-05 0.0 0.0 0.0 0.0
210043000.0 0.0 0.0 -5.4159521345333286e-05 5.145607848101513e-05 0.0 0.0 0.0 0.0
225042500.0 0.0 0.0 -6.426451770296487e-05 7.468045260578778e-05 0.0 0.0 0.0 0.0
240042000.0 0.0 0.0 -5.3425290940759905e-05 5.436604576291307e-05 0.0 0.0 0.0 0.0
255041500.0 0.0 0.0 -7.295396940694955e-05 -7.2802388539022896e-06 0.0 0.0 0.0 0.0
270041000.0 0.0 0.0 -5.043792106619711e-05 3.4983125082246014e-05 0.0 0.0 0.0 0.0
285040500.0 0.0 0.0 -7.465927102901366e-05 1.2114489895009251e-05 0.0 0.0 0.0 0.0
300040000.0 0.0 0.0 0.000407712333791243 0.0005562106228179198 0.0 0.0 0.0 0.0
315039500.0 0.0 0.0 -0.00012040759196262773 0.00014694371102827553 0.0 0.0 0.0 0.0
330039000.0 0.0 0.0 -0.0008076842842599527 -0.0001575435889126808 0.0 0.0 0.0 0.0
345038500.0 0.0 0.0 -0.0003470217706494331 0.00038849450891400287 0.0 0.0 0.0 0.0
360038000.0 0.0 0.0 0.00021675524837747823 0.00010779515858246008 0.0 0.0 0.0 0.0
375037500.0 0.0 0.0 -0.000202109264045506 -0.0006670605091683841 0.0 0.0 0.0 0.0
390037000.0 0.0 0.0 1.3567451700100687e-05 6.119566736596173e-05 0.0 0.0 0.0 0.0
405036500.0 0.0 0.0 0.000273094905805877 -1.2792899902433209e-06 0.0 0.0 0.0 0.0
420036000.0 0.0 0.0 -0.0001481884131596494 -0.0004239782697618181 0.0 0.0 0.0 0.0
435035500.0 0.0 0.0 -0.0005503462314886444 -0.0002191013311512447 0.0 0.0 0.0 0.0
450035000.0 0.0 0.0 -0.0005809999495049564 -8.340900828590456e-05 0.0 0.0 0.0 0.0
465034500.0 0.0 0.0 -0.00036203974224657126 -8.101936422261162e-05 0.0 0.0 0.0 0.0
480034000.0 0.0 0.0 -0.00017449006510977545 -0.0007957359636072673 0.0 0.0 0.0 0.0
495033500.0 0.0 0.0 -0.0006295648084472513 -0.0008306122829682788 0.0 0.0 0.0 0.0
510033000.0 0.0 0.0 -0.0005672551712299463 -0.0009406316706994742 0.0 0.0 0.0 0.0
525032500.0 0.0 0.0 -0.0004641675751450947 -0.0006975884137347201 0.0 0.0 0.0 0.0
540032000.0 0.0 0.0 -7.793960054444286e-05 -0.0007448137266914276 0.0 0.0 0.0 0.0
555031500.0 0.0 0.0 0.00011825099842610902 -0.0011613505825650704 0.0 0.0 0.0 0.0
570031000.0 0.0 0.0 0.00014136155443600959 -0.0009034859623798452 0.0 0.0 0.0 0.0
585030500.0 0.0 0.0 0.00024278638513808 4.6960651875627436e-05 0.0 0.0 0.0 0.0
600030000.0 0.0 0.0 -2.1982595722907884e-05 -0.0013939892587427937 0.0 0.0 0.0 0.0
615029500.0 0.0 0.0 0.0005643774150888412 -0.0009612091547164113 0.0 0.0 0.0 0.0
630029000.0 0.0 0.0 0.0002953747589458578 -0.00023841406038796527 0.0 0.0 0.0 0.0
645028500.0 0.0 0.0 0.0011115542233808707 -5.107731501507644e-05 0.0 0.0 0.0 0.0
660028000.0 0.0 0.0 0.0010591601495435854 -4.749185686840974e-05 0.0 0.0 0.0 0.0
675027500.0 0.0 0.0 0.0003643260445454657 -0.0006493126692787192 0.0 0.0 0.0 0.0
690027000.0 0.0 0.0 0.0012651100830528984 0.00014976141900332094 0.0 0.0 0.0 0.0
705026500.0 0.0 0.0 0.00031989578697318974 0.0002538024960097981 0.0 0.0 0.0 0.0
720026000.0 0.0 0.0 0.00029277115127933844 0.0007935870567187765 0.0 0.0 0.0 0.0
735025500.0 0.0 0.0 0.0009455423083853484 0.0005385415472693882 0.0 0.0 0.0 0.0
750025000.0 0.0 0.0 0.00046878506907578474 0.0008896047930298104 0.0 0.0 0.0 0.0
765024500.0 0.0 0.0 0.000205043090290841 0.0012474010117135474 0.0 0.0 0.0 0.0
780024000.0 0.0 0.0 -0.00047907749416378325 0.0011519994608118315 0.0 0.0 0.0 0.0
795023500.0 0.0 0.0 0.00037399042130548186 0.00027219609845063566 0.0 0.0 0.0 0.0
810023000.0 0.0 0.0 -0.0008414949370616219 0.0003743616483624586 0.0 0.0 0.0 0.0
825022500.0 0.0 0.0 -0.0001185459424800847 0.0005558788123561721 0.0 0.0 0.0 0.0
840022000.0 0.0 0.0 -0.0004051564808878806 0.00013349545809707662 0.0 0.0 0.0 0.0
855021500.0 0.0 0.0 -0.00024295575912098688 -0.0005433280918146465 0.0 0.0 0.0 0.0
870021000.0 0.0 0.0 -0.0009630518163502558 0.0003777276309054887 0.0 0.0 0.0 0.0
885020500.0 0.0 0.0 -0.0011410957963336895 -5.710834627778319e-05 0.0 0.0 0.0 0.0
900020000.0 0.0 0.0 0.0032835698290561667 -0.0033492128197552726 0.0 0.0 0.0 0.0
915019500.0 0.0 0.0 0.002238669420887566 -0.001480816266725528 0.0 0.0 0.0 0.0
930019000.0 0.0 0.0 -0.0006419771017982651 0.002522381129772362 0.0 0.0 0.0 0.0
945018500.0 0.0 0.0 3.6416138647042054e-05 -0.00048799118312018645 0.0 0.0 0.0 0.0
960018000.0 0.0 0.0 -0.001466884806750114 -0.003863556749247471 0.0 0.0 0.0 0.0
975017500.0 0.0 0.0 0.0014353382535330066 -0.003442059247691972 0.0 0.0 0.0 0.0
990017000.0 0.0 0.0 0.002254587064597742 0.000262941184954998 0.0 0.0 0.0 0.0
1005016500.0 0.0 0.0 0.002709534868879245 -0.003612786300148063 0.0 0.0 0.0 0.0
1020016000.0 0.0 0.0 0.0010843465527946119 -0.0015092090209336286 0.0 0.0 0.0 0.0
1035015500.0 0.0 0.0 0.005892829046950291 0.00024244356229629653 0.0 0.0 0.0 0.0
1050015000.0 0.0 0.0 0.0013512549538134628 -0.001567015005256994 0.0 0.0 0.0 0.0
1065014500.0 0.0 0.0 0.0035909521508829226 -0.0009130103517700687 0.0 0.0 0.0 0.0
1080014000.0 0.0 0.0 0.004962324332788078 -0.0018764432867431312 0.0 0.0 0.0 0.0
1095013500.0 0.0 0.0 0.004730337233605818 1.8279886554862504e-05 0.0 0.0 0.0 0.0
1110013000.0 0.0 0.0 0.006031473982470432 -0.005305185224909613 0.0 0.0 0.0 0.0
1125012500.0 0.0 0.0 0.0009683899321609259 -0.0013425117763525792 0.0 0.0 0.0 0.0
1140012000.0 0.0 0.0 0.0015773234163689684 -0.0014012074967656026 0.0 0.0 0.0 0.0
1155011500.0 0.0 0.0 0.005093561470593601 -0.0034424669304808663 0.0 0.0 0.0 0.0
1170011000.0 0.0 0.0 0.002911102931711748 -0.005281966621920216 0.0 0.0 0.0 0.0
1185010500.0 0.0 0.0 0.0014008087230351245 -0.0014264208943063415 0.0 0.0 0.0 0.0
1200010000.0 0.0 0.0 0.004130821712819455 -0.0036275242756255033 0.0 0.0 0.0 0.0
1215009500.0 0.0 0.0 -0.000811807527798295 -0.0023209738928109515 0.0 0.0 0.0 0.0
1230009000.0 0.0 0.0 -0.003761006116302501 -0.001565089192147585 0.0 0.0 0.0 0.0
1245008500.0 0.0 0.0 -0.002414017562430474 -0.005196625467731847 0.0 0.0 0.0 0.0
1260008000.0 0.0 0.0 0.0007679996353477319 -0.005215682392542873 0.0 0.0 0.0 0.0
1275007500.0 0.0 0.0 -0.010851236163149789 -0.0015474609953553733 0.0 0.0 0.0 0.0
1290007000.0 0.0 0.0 -0.0031553877099439313 0.003202454850844864 0.0 0.0 0.0 0.0
1305006500.0 0.0 0.0 -0.0013723592585954292 0.0063393301759549015 0.0 0.0 0.0 0.0
1320006000.0 0.0 0.0 0.0019128045472169384 -0.0016261874020383387 0.0 0.0 0.0 0.0
1335005500.0 0.0 0.0 -0.0028045197029949614 -0.0002336861188112264 0.0 0.0 0.0 0.0
1350005000.0 0.0 0.0 0.005753276537957767 0.0017712222460464105 0.0 0.0 0.0 0.0
1365004500.0 0.0 0.0 -0.0010633973940997348 0.009002578603668057 0.0 0.0 0.0 0.0
1380004000.0 0.0 0.0 -0.0008581655614955178 -0.0021762349370975744 0.0 0.0 0.0 0.0
1395003500.0 0.0 0.0 0.00500095596316509 0.00500909740907846 0.0 0.0 0.0 0.0
1410003000.0 0.0 0.0 -0.01129223209360381 0.011633484373812347 0.0 0.0 0.0 0.0
1425002500.0 0.0 0.0 0.004596699736168141 0.011282436633596698 0.0 0.0 0.0 0.0
1440002000.0 0.0 0.0 0.0036427975728878788 -0.0010139609594911336 0.0 0.0 0.0 0.0
1455001500.0 0.0 0.0 0.012475570444263966 0.01861734344928471 0.0 0.0 0.0 0.0
1470001000.0 0.0 0.0 0.004481964381418618 0.010863317434992444 0.0 0.0 0.0 0.0
1485000500.0 0.0 0.0 0.007864811426036391 0.006384450618275968 0.0 0.0 0.0 0.0
1500000000.0 0.0 0.0 -0.022175877096730343 -0.004497912877675899 0.0 0.0 0.0 0.0
