! Created with skrf 1.8.0 (http://scikit-rf.org).
# Hz S RI R 50.0 
!freq ReS11 ImS11
50000.0 0.9992173419016349 0.0006650774497173423
15049500.0 0.9997352115577007 0.020338665527133475
30049000.0 1.0004760493062719 0.03950959239928428
45048500.0 0.9999291871217001 0.059070961999556935
60048000.0 0.9996870851344046 0.07793968068456805
75047500.0 0.9987391717605476 0.0972422128771481
90047000.0 0.9962714935303104 0.11699479090272669
105046500.0 0.995020658747106 0.13532898799948817
120046000.0 0.9928597977639333 0.15374422744349014
135045500.0 0.9910008136290777 0.17285937834895906
150045000.0 0.9874904041127985 0.19122407673053193
165044500.0 0.9847630247735489 0.20945268337847175
180044000.0 0.9812270180671918 0.2278627756582878
195043500.0 0.9778135014597907 0.24580777792795447
210043000.0 0.9733669423371952 0.2642516047475937
225042500.0 0.9688902364941784 0.2822810238556695
240042000.0 0.9638028107287798 0.3006028951648859
255041500.0 0.9583201758049155 0.3184936184766983
270041000.0 0.9520149727055107 0.3357017949356569
285040500.0 0.9463516558560551 0.3531430969385254
300040000.0 0.9425297111104756 0.36992895614365084
315039500.0 0.9352557085183871 0.3868517199100216
330039000.0 0.9303554850542918 0.40574997969061033
345038500.0 0.9225772902045937 0.4213421491481314
360038000.0 0.9175793556251389 0.43813520205012696
375037500.0 0.9091727544363137 0.4541171856597922
390037000.0 0.9023943940208353 0.46886752941675885
405036500.0 0.8938944315922105 0.4879369230304177
420036000.0 0.8859557814541595 0.5057665402772995
435035500.0 0.8764249550295069 0.5238205311714258
450035000.0 0.863814511060282 0.5425369065266161
465034500.0 0.8558045278813649 0.5583143646909123
480034000.0 0.8431691807635651 0.5737679825369117
495033500.0 0.8332743867881315 0.5873590463143871
510033000.0 0.8202485388646213 0.6024701986353149
525032500.0 0.8107423678514646 0.6163587408320663
540032000.0 0.7999158564320036 0.6296513237565337
555031500.0 0.788826862439667 0.644976220251743
570031000.0 0.7786419157122939 0.6602728534248548
585030500.0 0.7684150569498901 0.6745588390309347
600030000.0 0.7550841150973204 0.697947572204244
615029500.0 0.7407367609734425 0.7131478681087355
630029000.0 0.724149857998487 0.7267105871968855
645028500.0 0.7112461969865393 0.739019514707402
660028000.0 0.6930845140723649 0.752513397918459
675027500.0 0.6785734242721044 0.7673293005078752
690027000.0 0.6620071849966785 0.7746333608490529
705026500.0 0.6460250498622375 0.7890710015635269
720026000.0 0.6284199982256072 0.8002123959672762
735025500.0 0.6108084234300746 0.8110238766025144
750025000.0 0.5903347108770792 0.8208636591718288
765024500.0 0.5726986578639167 0.8323918897027243
780024000.0 0.5577111617304806 0.8332862389434118
795023500.0 0.537599438402167 0.8486385593173009
810023000.0 0.5214218188987818 0.855295198343209
825022500.0 0.5068574731841707 0.8613510532365153
840022000.0 0.48935090128683734 0.8660642642434553
855021500.0 0.4767206963741694 0.8694502613440601
870021000.0 0.47133657273011975 0.8717094978555273
885020500.0 0.4631143318391762 0.8788496201660958
900020000.0 0.46998751097671954 0.8862897530994831
915019500.0 0.46158717260645504 0.8967752385668791
930019000.0 0.44471791217292717 0.9122021680810607
945018500.0 0.4313582894356246 0.9185647529649168
960018000.0 0.414827428805283 0.9293994764285377
975017500.0 0.3925389053872878 0.9371603102931412
990017000.0 0.37407535250304796 0.9313849029169761
1005016500.0 0.3549856788636714 0.930631230733404
1020016000.0 0.35021897497152 0.9283729019523023
1035015500.0 0.33675362732855246 0.9328516303631433
1050015000.0 0.32924526380983365 0.9357189129917985
1065014500.0 0.3331221147918365 0.9577992826478913
1080014000.0 0.3346867527134854 0.9784215107341274
1095013500.0 0.3310669065684001 0.9957345851166081
1110013000.0 0.31596001675275964 1.0239754316834313
1125012500.0 0.28020833803430756 1.0682700816037884
1140012000.0 0.25798293729947835 1.0727104554663625
1155011500.0 0.1969645555188114 1.1014285583301302
1170011000.0 0.16476322599176355 1.128140078568036
1185010500.0 0.11889567388187437 1.1223505007901047
1200010000.0 0.05987083865505006 1.1110088059126326
1215009500.0 0.018358112575641773 1.089173985090668
1230009000.0 -0.015085436385764766 1.0574355431541704
1245008500.0 -0.04344084341136968 1.0263662398316546
1260008000.0 -0.06354598127017595 1.0121815905979012
1275007500.0 -0.05654697471002655 0.9801911187031089
1290007000.0 -0.06157226639846339 0.9578170816769433
1305006500.0 -0.03133713562153685 0.9426945344624825
1320006000.0 -0.025900284520978516 0.964285950462941
1335005500.0 0.010091225508258014 0.9705473781828262
1350005000.0 0.01572340759443611 1.0080243480911262
1365004500.0 0.05083864535245247 1.0685371271975113
1380004000.0 0.058643795566858774 1.1397509354453568
1395003500.0 0.058262420337552884 1.2178499286650788
1410003000.0 0.058047516878997514 1.3060676870327765
1425002500.0 -0.05093153949994807 1.4153306288656289
1440002000.0 -0.22236985244860194 1.575462035798704
1455001500.0 -0.5249595361262962 1.6489396964089513
1470001000.0 -0.8571292918644557 1.5626773748977179
1485000500.0 -1.1081459905844337 1.2561755828046444
1500000000.0 -1.225032260707814 0.8410541990852258
