! Created with skrf 1.8.0 (http://scikit-rf.org).
# Hz S RI R 50.0 
!freq ReS11 ImS11
50000.0 -0.012667092712784083 4.528310443428722e-05
15049500.0 -0.011848090957965404 0.0015008643160326417
30049000.0 -0.011844886380755657 0.002057200252057011
45048500.0 -0.011839533955348312 0.0032649361752760753
60048000.0 -0.011811123786815569 0.004335000684779533
75047500.0 -0.012105773759338308 0.005358131573584544
90047000.0 -0.012351680456225596 0.006333317449585568
105046500.0 -0.012315241446313055 0.007383164223492688
120046000.0 -0.01215235616427702 0.008993861170277376
135045500.0 -0.011733640515738969 0.010191156945798538
150045000.0 -0.011846096426816909 0.011698958175840022
165044500.0 -0.011838517011053228 0.01341669815055603
180044000.0 -0.012394621365900775 0.015277817891188834
195043500.0 -0.01280673109512043 0.01663242378619899
210043000.0 -0.012376181301626573 0.017807444646580812
225042500.0 -0.011293946173361623 0.018545587759403896
240042000.0 -0.010572912406192469 0.019796874187591868
255041500.0 -0.01002832156272656 0.02174837000979865
270041000.0 -0.009631306178187821 0.02361968482440095
285040500.0 -0.009883796183511736 0.025606187339417698
300040000.0 -0.008747963811661874 0.027124574162075518
315039500.0 -0.007330008791498165 0.029037458158386313
330039000.0 -0.007110189262191599 0.0300276807993567
345038500.0 -0.0044898831882301945 0.03008257691380171
360038000.0 -0.005789621882771141 0.03156486160253699
375037500.0 -0.005358826661425788 0.032534952728577225
390037000.0 -0.002115016707921644 0.03260257794177738
405036500.0 -0.003859838942080034 0.03234432120392571
420036000.0 -0.005049059277899328 0.03340491983696138
435035500.0 -0.005676633325133279 0.03382483384173752
450035000.0 -0.0070088800810064284 0.03249810639193874
465034500.0 -0.00486906075712748 0.03427919582892602
480034000.0 -0.0027617838599936165 0.03468691215007567
495033500.0 -0.003114711882084992 0.03652592268361845
510033000.0 -0.0038750377267214304 0.036454460292570684
525032500.0 -0.002198831463197931 0.03822368572524999
540032000.0 -0.004343416263133109 0.03983310404404717
555031500.0 -0.0035823412344907113 0.04382617888518315
570031000.0 -0.005263948017704887 0.046184449276893164
585030500.0 -0.006191661988997657 0.04937183503970293
600030000.0 -0.004146394386421322 0.050217609549520946
615029500.0 -0.005695610979992818 0.050979530409400536
630029000.0 -0.0016505627842468434 0.05113309816939506
645028500.0 -0.0014282829436942513 0.052590988424904624
660028000.0 -0.001647797933852682 0.0539220775332554
675027500.0 0.0005808533716293213 0.0559467793547626
690027000.0 0.0029568358797750407 0.05596537228408985
705026500.0 0.0008756174934391826 0.05981071241067335
720026000.0 0.0044683885643714795 0.0665408116403979
735025500.0 0.003610579922639564 0.0711987426963045
750025000.0 0.004269950975007449 0.0758655722381504
765024500.0 0.00020253413838596678 0.0810785337958987
780024000.0 -0.003007710678958633 0.09029616625272957
795023500.0 -0.0039005468633078627 0.08526788550161822
810023000.0 -0.008760953372488878 0.08566312451095572
825022500.0 -0.01205241220469071 0.08588017304303149
840022000.0 -0.014350728280112805 0.08665629661613859
855021500.0 -0.02164434533005897 0.08507893473790824
870021000.0 -0.024785342232528765 0.08214824974319562
885020500.0 -0.027027180747846095 0.07948693730078307
900020000.0 -0.023670785356666783 0.09375465481787722
915019500.0 -0.020620913667486987 0.08940526506096823
930019000.0 -0.03798490951759951 0.08743547576819993
945018500.0 -0.03713067466914833 0.08590739332899278
960018000.0 -0.04970823360948044 0.07834586670960594
975017500.0 -0.05456755601383212 0.07148660174756387
990017000.0 -0.05902709074869688 0.061977658524407314
1005016500.0 -0.05688140105078817 0.05896422770427214
1020016000.0 -0.05633627558993896 0.056864270686694154
1035015500.0 -0.04330292203785451 0.0417841870537609
1050015000.0 -0.03736290064280173 0.04504847296707994
1065014500.0 -0.032742556751051026 0.03493570696420652
1080014000.0 -0.0247535234610707 0.03829770692888796
1095013500.0 -0.022006263513742838 0.04175104109565725
1110013000.0 -0.010768970640783793 0.04339675225524661
1125012500.0 -0.004891786629973394 0.06320746280951853
1140012000.0 0.005233836538855276 0.07887422206108487
1155011500.0 -0.020341383389566235 0.06855321134533666
1170011000.0 -0.011744491636670363 0.10947447444444193
1185010500.0 -0.009495863224751993 0.14137153440123762
1200010000.0 -0.030854117706945832 0.15506126539594223
1215009500.0 -0.041273511964949085 0.15428869940769963
1230009000.0 -0.06273421555968016 0.14075639217775102
1245008500.0 -0.07664676559524392 0.14530687416259264
1260008000.0 -0.057954168800465396 0.1595075773743121
1275007500.0 -0.09952624729384235 0.12451321970960005
1290007000.0 -0.09692257571546456 0.11614416544485498
1305006500.0 -0.12056028155548473 0.08846754515710636
1320006000.0 -0.11962241820881982 0.09941785075296714
1335005500.0 -0.12908836768221713 0.0298555717365345
1350005000.0 -0.12887206689237002 0.02678908487827233
1365004500.0 -0.18987378817032902 -0.034994106821332055
1380004000.0 -0.1417913692528259 -0.10301001105715768
1395003500.0 -0.11796522241851441 -0.10464361959588776
1410003000.0 -0.11012173633958294 -0.1714240473804101
1425002500.0 -0.059136630053623324 -0.21173786725121044
1440002000.0 0.017213953670936966 -0.2493712488303555
1455001500.0 0.11379893577709711 -0.25669266314297784
1470001000.0 0.2505526941191027 -0.1351098695222468
1485000500.0 0.225756009272864 -0.038291963191422106
1500000000.0 0.12553257965078768 0.0023230466169485617
