! Created with skrf 1.8.0 (http://scikit-rf.org).
# Hz S RI R 50.0 
!freq ReS11 ImS11
50000.0 0.001509709499230062 4.010062656902971e-05
15049500.0 -0.0013125413204176169 -5.9434595428136064e-05
30049000.0 0.0003251941740964834 -0.0003207188420751636
45048500.0 -0.00047010083962453617 0.00024248553798971852
60048000.0 0.00013668763416387257 -0.00041510485708449546
75047500.0 -0.00010294072194672251 0.0001429682319676919
90047000.0 0.001093228916641637 -0.0006199257390288936
105046500.0 8.681189147114684e-05 9.483476831168827e-06
120046000.0 -0.00036307018519191986 0.001109934086567718
135045500.0 0.0009281140124882978 -0.0007681786506371442
150045000.0 0.0005927384367049928 0.001042475763717944
165044500.0 -0.00024635194830561964 0.000504783525011512
180044000.0 0.0001766719069204718 -0.0001804943331868016
195043500.0 -2.9632775917517246e-05 0.00012950343137540203
210043000.0 8.556778456240015e-06 0.0012397076545768914
225042500.0 -0.00034132918507947315 -0.0027000684330929442
240042000.0 0.0002219683615071255 -5.949658598760564e-06
255041500.0 -0.0002662535008198199 -0.0038235301523883774
270041000.0 0.001060072419634683 -4.391786644161609e-05
285040500.0 -0.00026184833565321374 -0.0007661372679950759
300040000.0 -0.0002877419320588623 0.0007746431676543918
315039500.0 0.015011449738843866 0.0013690982899408981
330039000.0 0.0017929052892060825 0.0005171823862608794
345038500.0 0.0014679613167242831 0.005561040821434821
360038000.0 -0.0013672837952972707 0.0059299347747996745
375037500.0 0.0005642294591059552 0.006698401141704532
390037000.0 -0.061792983793594436 0.020173835535831706
405036500.0 0.0004712848928948808 0.005437335036648341
420036000.0 -0.0013559000529679904 0.0006227721101990529
435035500.0 -0.0023509745567155574 0.0013698722723395485
450035000.0 -0.009527329837407988 -0.004742469799193963
465034500.0 0.00016013732414688916 -9.91812997850846e-05
480034000.0 0.0013673225298262077 0.001157824065984853
495033500.0 -0.0005137031911866598 0.004159059610230769
510033000.0 -0.003941914063751669 -0.0043679686049199135
525032500.0 -0.0038410050511828338 -0.00199119547392036
540032000.0 -0.00011539720391995957 -0.0011087846715862062
555031500.0 -0.0013127631649904983 0.0008531451553784242
570031000.0 -0.00017694226228986287 0.0006884081817250071
585030500.0 0.0072952825159142455 0.011408164722081707
600030000.0 -0.011579655187225849 0.016042306914027728
615029500.0 0.00010758899631265404 0.0010481885489443499
630029000.0 -0.003240321532272505 -0.0002789020270513821
645028500.0 -0.0005400203596240731 -0.003039511474711402
660028000.0 0.0006875581272791121 -0.0025476170704508577
675027500.0 0.01217775580856916 0.0012622248787700849
690027000.0 -0.009314467913030191 -0.007864323249583943
705026500.0 -0.004882208338289089 0.0037328832921442313
720026000.0 0.011257039236953722 -0.027275194264364387
735025500.0 0.0009545759252798083 0.0010757013006872764
750025000.0 0.006266000552212728 0.00021946036470334098
765024500.0 -0.02279307284901709 -0.01943928585904795
780024000.0 -0.13736275617649726 0.06515715369002603
795023500.0 0.003127856921922512 0.0025401515637606766
810023000.0 0.006717645232632495 -0.001878347195381128
825022500.0 -0.007315974890244087 -0.002014374665853677
840022000.0 -0.03387178608847985 -0.02618835147385403
855021500.0 -0.0029746697455091905 -0.003093340716099437
870021000.0 -0.0011665390851358876 0.00020772074216842957
885020500.0 -0.005432196275088561 0.009773097193776918
900020000.0 -0.01981815108821587 -0.002247036607756275
915019500.0 -0.0069348819869982994 0.005276479245180348
930019000.0 -0.010316870386435993 0.0010681470920284324
945018500.0 0.00040147822676461856 -0.004118749071056382
960018000.0 0.006036479111392092 -0.002127915549534609
975017500.0 0.00885154023504015 -0.09869235038538607
990017000.0 0.002893005644364814 0.0002896994994986026
1005016500.0 0.0036116108099031076 -0.009326197786084584
1020016000.0 0.038903268325402904 -0.004825096287104357
1035015500.0 -0.004068018872216023 0.0005633782405574267
1050015000.0 -0.027955141679277457 0.05887233099050073
1065014500.0 0.018542275029000577 0.005873246962704671
1080014000.0 -0.009022062223813042 0.001227242874206101
1095013500.0 0.005593065469343722 -0.00790085639552252
1110013000.0 0.0036297823913624843 0.008823726928887334
1125012500.0 0.002027608749682204 -0.0019766353785563
1140012000.0 -0.029515337115745104 -0.024037941272388577
1155011500.0 0.027655644130462165 -0.009656715749952345
1170011000.0 0.0761255241197929 0.014774169755762106
1185010500.0 0.000350982436413949 0.013976465323452382
1200010000.0 -0.01837818792908668 -0.018380634578110937
1215009500.0 -0.03742853302351645 -0.09550276670514755
1230009000.0 -0.014065132057289098 0.029722890402596108
1245008500.0 0.06497363131479984 0.12370330778336043
1260008000.0 -0.056434650053071626 -0.038344216974190444
1275007500.0 0.01497143173807205 0.010987133643197583
1290007000.0 -0.025566228477556772 0.02649459870489889
1305006500.0 0.10568564675267068 -0.004906949226082226
1320006000.0 0.003947734317319845 0.0007350042068705881
1335005500.0 -0.013564148397457803 0.02861966770181289
1350005000.0 0.06343836431802145 0.05760240159843502
1365004500.0 0.030138039024828922 -0.05912264609641445
1380004000.0 -0.015734872031631014 0.0029274732447683314
1395003500.0 0.007139736212608416 0.014240212733985614
1410003000.0 -0.016115777785873232 0.015418468354773927
1425002500.0 -0.026954594735038813 -0.013347700229702256
1440002000.0 0.07513110167183745 -0.05076180538776361
1455001500.0 0.032965234673143946 -0.04571404107061266
1470001000.0 0.021987698671324347 0.1879129326433054
1485000500.0 -0.003324177565501508 -0.028404012921854117
1500000000.0 -0.0246752326131874 -0.018289501367409564
