! Created with skrf 1.8.0 (http://scikit-rf.org).
# Hz S RI R 50.0 
!freq ReS11 ImS11
50000.0 -0.13436449739308648 -0.10292415360467287
15049500.0 3.5174265085726852 -0.5671443712266329
30049000.0 1.3469307186135542 1.1919679109356056
45048500.0 -0.1047309118538002 1.0318057649550296
60048000.0 1.4973057313939626 1.4984046116930474
75047500.0 0.23339345983184387 0.6180015500766329
90047000.0 -3.707681905580849 -0.23205873497935434
105046500.0 -0.5967282693271191 1.047501985690669
120046000.0 3.07901418803837 0.9579622307489352
135045500.0 -0.6632093436291409 0.7099834281572357
150045000.0 2.3058074855823847 -0.2501003905738754
165044500.0 0.6124682171655726 0.8230934448462879
180044000.0 0.019080450264140025 -0.5472300298603576
195043500.0 0.7522631662702837 0.27501396766170777
210043000.0 3.711778814840703 1.929199731359259
225042500.0 -0.11644712935951908 2.3383339314577767
240042000.0 -0.1962595132199441 -0.1385380314825568
255041500.0 -2.4514104938410264 -2.021992839670356
270041000.0 -0.3682984110335623 -0.9849217543720405
285040500.0 0.407749763057588 -0.8007014951785402
300040000.0 0.34818439129681483 -0.19004495979652708
315039500.0 5.4644494442499765 -6.297867175321902
330039000.0 -0.5254791804200766 0.6297001310810001
345038500.0 0.01351273937628822 -1.8864929583576198
360038000.0 0.662524152995391 1.9390968412920757
375037500.0 1.7533207726331397 -1.8292837230615533
390037000.0 -1.2919680550270756 3.331851539921397
405036500.0 1.5682484947636652 -4.32015204712522
420036000.0 -1.3252391364867784 0.4917269462695224
435035500.0 -1.6630299204008556 -0.06953202080657916
450035000.0 1.3274974221057194 -0.9642944378280617
465034500.0 1.0983073450629832 -0.13186924963849792
480034000.0 0.5609444271298673 0.38263002508299676
495033500.0 0.7152841232540199 1.0914298092175347
510033000.0 0.23643516665304662 2.040997605473185
525032500.0 -0.8575927030498439 1.5280219646297504
540032000.0 0.6331411861087441 0.14136195644903543
555031500.0 0.7500051620244474 -0.3976683724684848
570031000.0 1.0627902045442437 0.12405012680596769
585030500.0 1.470481722220987 1.7277591462351178
600030000.0 -2.961980465243979 2.7768851541484243
615029500.0 0.024854359233464 -0.24933357157871233
630029000.0 0.17912856952404654 0.5755518036360789
645028500.0 0.38575957281381285 0.6537698398118685
660028000.0 1.0106741102780479 -0.36339665407215394
675027500.0 2.035641134074477 -1.7542190326516425
690027000.0 0.724706697620845 1.9601171076187682
705026500.0 -2.4024625312325325 -0.7187638260934953
720026000.0 -3.9109285997154797 1.1687648674474134
735025500.0 1.0717906950502976 -0.6635686094413403
750025000.0 -1.4266230791209376 -0.7087113032044926
765024500.0 4.232632366721379 5.839847697509322
780024000.0 -1.973915602558189 -2.105843728200286
795023500.0 -0.21386306365911154 -0.034250646583569404
810023000.0 0.5989773797208247 0.47667655537557807
825022500.0 1.4690197453191587 -0.7917006673634069
840022000.0 -4.424432855650624 3.89081016539459
855021500.0 -0.11681283699085823 -0.4964197059445307
870021000.0 1.0370648692102764 -0.2029362883753254
885020500.0 1.0193069989180865 -0.6494724610735149
900020000.0 -2.856134638717851 2.958381344160746
915019500.0 -0.08984376200395307 -0.3927212810813729
930019000.0 0.2600438233997718 1.8087950109892015
945018500.0 1.4208215134196676 0.3873664371788468
960018000.0 1.7245305476947501 0.030367589665126586
975017500.0 0.9101014690006832 -4.430396785640224
990017000.0 1.8387977809049998 0.0163094159531102
1005016500.0 -0.6699885253577229 -1.695190400800703
1020016000.0 1.2889229845996761 -1.4984555056340154
1035015500.0 1.2549090809972079 0.21988912492062482
1050015000.0 -1.1450315608633743 -1.352861657007426
1065014500.0 0.24187369405528092 -1.3792169292058012
1080014000.0 -0.7334962489351228 -0.734475261858017
1095013500.0 0.6214132157964661 0.5367330408618483
1110013000.0 -0.4475139926553304 0.9123121702117545
1125012500.0 0.44571907433938457 0.1382488351100942
1140012000.0 2.6755416388835265 -0.39302914188434995
1155011500.0 0.8923578632776149 -0.2636497092904485
1170011000.0 -1.545588160773149 0.8548408950019762
1185010500.0 -1.18893737123347 0.7894408701968467
1200010000.0 1.6937507505006042 0.3676971279562269
1215009500.0 -0.7388314011756866 -2.8211786327794885
1230009000.0 0.8491828175097255 -1.362592030122775
1245008500.0 3.0880988628845274 0.6036365811005144
1260008000.0 0.6484386985170804 -1.5649446534216958
1275007500.0 -1.4958820273142848 -0.5930348048929347
1290007000.0 -2.8027976500721348 1.2508969919614947
1305006500.0 -4.048989009780685 -0.9099660968974426
1320006000.0 1.2519853444528122 0.2082508517599971
1335005500.0 -1.8927898858336043 -0.8238082389536265
1350005000.0 1.1437364899344689 2.503354169522058
1365004500.0 -0.3324586885308157 0.7938487822879087
1380004000.0 0.08124229267614333 0.011403495610232088
1395003500.0 0.19875526047684777 1.0272674647368927
1410003000.0 0.22129089507445507 -0.8017670709555079
1425002500.0 0.2077263838151284 -0.48169489858153747
1440002000.0 2.1854140588831217 3.617152801186941
1455001500.0 1.7288817289165048 -0.6546504960978904
1470001000.0 1.1947304301036008 2.17129863266685
1485000500.0 0.47804633441636546 0.1283771454360408
1500000000.0 0.1555086731995055 0.23988873487438878
