! Created with skrf 1.8.0 (http://scikit-rf.org).
# Hz S RI R 50.0 
!freq ReS11 ImS11 ReS21 ImS21 ReS12 ImS12 ReS22 ImS22
50000.0 0.997014272 0.001571184 -3.900305595515365e-05 -4.592524813123233e-06 0.0 0.0 0.0 0.0
15049500.0 0.975945472 0.219512944 6.385971076914821e-05 3.416405275257512e-05 0.0 0.0 0.0 0.0
30049000.0 0.907086656 0.427069824 2.366484140620463e-05 2.1334300884237626e-05 0.0 0.0 0.0 0.0
45048500.0 0.793725184 0.615202752 3.4990193916594386e-05 9.8932699959496e-08 0.0 0.0 0.0 0.0
60048000.0 0.644967616 0.772410304 5.432986818502702e-05 1.9004124499634014e-05 0.0 0.0 0.0 0.0
75047500.0 0.466117312 0.89609344 6.908521948818475e-05 2.7763380346588505e-05 0.0 0.0 0.0 0.0
90047000.0 0.253398864 0.980968832 -7.882598669397591e-06 3.515540382668376e-05 0.0 0.0 0.0 0.0
105046500.0 0.033294506 1.012808562 1.919760037209337e-05 5.936311101141347e-05 0.0 0.0 0.0 0.0
120046000.0 -0.187960448 0.99815744 1.8386558640449475e-05 3.763434709625388e-05 0.0 0.0 0.0 0.0
135045500.0 -0.40307888 0.934907264 1.730373811420991e-05 5.6333200799127675e-05 0.0 0.0 0.0 0.0
150045000.0 -0.599592192 0.823583552 8.981724931613256e-06 0.00010665997110093759 0.0 0.0 0.0 0.0
165044500.0 -0.767987072 0.671364032 3.1163388581056234e-05 7.275690332982909e-05 0.0 0.0 0.0 0.0
180044000.0 -0.898244032 0.484995296 -4.355088600914659e-06 3.593757749596073e-05 0.0 0.0 0.0 0.0
195043500.0 -0.984838784 0.274616736 -4.5755073259186144e-05 2.7565844101832053e-05 0.0 0.0 0.0 0.0
210043000.0 -1.023743152 0.046601932 -5.691924000277302e-05 4.037074502045661e-05 0.0 0.0 0.0 0.0
225042500.0 -1.008464814 -0.186353728 -5.121645281693162e-05 5.014844225747214e-05 0.0 0.0 0.0 0.0
240042000.0 -0.939542848 -0.410919136 -4.744538005163802e-05 6.119974816584583e-06 0.0 0.0 0.0 0.0
255041500.0 -0.820891328 -0.614869888 -0.00010267838078055365 3.751426988871878e-05 0.0 0.0 0.0 0.0
270041000.0 -0.65771488 -0.786053696 -3.282440554639851e-05 3.0989349420818164e-05 0.0 0.0 0.0 0.0
285040500.0 -0.459792384 -0.916112064 -5.645901988825264e-05 5.8215560559509276e-05 0.0 0.0 0.0 0.0
300040000.0 -0.241573136 -0.987350656 0.0002710695740470352 0.000646405583289593 0.0 0.0 0.0 0.0
315039500.0 -0.007399413 -1.016766906 4.7314532225353715e-05 -0.0004328743123185944 0.0 0.0 0.0 0.0
330039000.0 0.224131136 -0.991022336 -0.0004249156557119561 0.000297831246364243 0.0 0.0 0.0 0.0
345038500.0 0.442918464 -0.916068672 -0.00038381620935830694 6.423901010928104e-05 0.0 0.0 0.0 0.0
360038000.0 0.638470336 -0.796654976 -0.00035725571344122397 6.48871296837983e-05 0.0 0.0 0.0 0.0
375037500.0 0.805897216 -0.635733696 0.00014645352222372317 -0.00022356174775722574 0.0 0.0 0.0 0.0
390037000.0 0.930627328 -0.447152416 -0.00019025958030249225 0.00010195397294916715 0.0 0.0 0.0 0.0
405036500.0 1.013453842 -0.242503536 2.613161398424427e-05 -0.0008646535006553656 0.0 0.0 0.0 0.0
420036000.0 1.052267192 -0.01811947 0.00033195042687730186 -0.0008014343909123048 0.0 0.0 0.0 0.0
435035500.0 1.045491696 0.215714576 0.00018175190759122216 -0.0002161546067331248 0.0 0.0 0.0 0.0
450035000.0 0.983838976 0.44179728 -0.0005932538205917037 -0.00011929450359235645 0.0 0.0 0.0 0.0
465034500.0 0.86360032 0.65496704 -0.0005782082844328094 -0.0003855378627298065 0.0 0.0 0.0 0.0
480034000.0 0.704988032 0.828442304 -0.0007869264203180268 0.00022061917595135797 0.0 0.0 0.0 0.0
495033500.0 0.51542032 0.963235968 -0.00019865012496472393 -0.0008192137950355203 0.0 0.0 0.0 0.0
510033000.0 0.304564256 1.046306132 0.0003973106090975043 -0.0013676017147907392 0.0 0.0 0.0 0.0
525032500.0 0.078168616 1.08487868 0.00021358692014610415 -0.00046374516777159176 0.0 0.0 0.0 0.0
540032000.0 -0.141620432 1.075623872 0.0003017538291746557 -0.0010127470179938484 0.0 0.0 0.0 0.0
555031500.0 -0.355345472 1.02237475 0.0004408589190937132 -0.0007955730106945074 0.0 0.0 0.0 0.0
570031000.0 -0.551784128 0.923518016 0.00035891013768949337 -0.0006255874856434621 0.0 0.0 0.0 0.0
585030500.0 -0.721683968 0.781668096 0.0006610802910690925 -0.0004096590880732466 0.0 0.0 0.0 0.0
600030000.0 -0.868467712 0.63874368 0.0012629811022263056 -2.1292048004503122e-05 0.0 0.0 0.0 0.0
615029500.0 -0.9806288 0.43954864 0.0008631483887134016 6.777498293218827e-05 0.0 0.0 0.0 0.0
630029000.0 -1.043881772 0.217820784 0.0003308878037380331 -0.0007472962998693497 0.0 0.0 0.0 0.0
645028500.0 -1.063399196 -0.017191886 0.0007239463768303598 0.00019573751449375928 0.0 0.0 0.0 0.0
660028000.0 -1.025721192 -0.249295568 0.001065590255387295 0.00014268667426441475 0.0 0.0 0.0 0.0
675027500.0 -0.939924416 -0.474143904 0.0007144996006280905 -7.92272122966552e-05 0.0 0.0 0.0 0.0
690027000.0 -0.798676032 -0.680882752 0.0012248810239837119 0.0007827467305678216 0.0 0.0 0.0 0.0
705026500.0 -0.611404928 -0.846856064 0.0007591170937070044 0.0008362380123779539 0.0 0.0 0.0 0.0
720026000.0 -0.386106496 -0.968477824 0.0006789612013321058 0.00044382317810887664 0.0 0.0 0.0 0.0
735025500.0 -0.130053936 -1.039283276 -0.00032947934193891754 0.000472838602362897 0.0 0.0 0.0 0.0
750025000.0 0.142258416 -1.048941016 5.748599509137361e-06 0.0008084599050130338 0.0 0.0 0.0 0.0
765024500.0 0.407720608 -0.986342784 0.00033715787718175934 0.0009990105674332428 0.0 0.0 0.0 0.0
780024000.0 0.658876608 -0.823752128 -0.00022211563847771807 0.0004629029247268109 0.0 0.0 0.0 0.0
795023500.0 0.861679104 -0.66480768 -0.00016625996803607454 0.0014496235021517285 0.0 0.0 0.0 0.0
810023000.0 1.012901902 -0.424273952 -0.0007337545941296061 1.9579904665165605e-05 0.0 0.0 0.0 0.0
825022500.0 1.08899152 -0.15530264 -0.0017364019439232272 0.000468375745853302 0.0 0.0 0.0 0.0
840022000.0 1.09696484 0.115409384 -0.0007655686611885458 -0.0003182854205818699 0.0 0.0 0.0 0.0
855021500.0 1.038514136 0.368765856 -0.0017884542600872845 0.0007212131070527246 0.0 0.0 0.0 0.0
870021000.0 0.925126144 0.578838976 -0.0008785075702221387 -0.00011842778610779786 0.0 0.0 0.0 0.0
885020500.0 0.769448 0.765139328 -0.000334984800205013 0.0006290717184293118 0.0 0.0 0.0 0.0
900020000.0 0.615124032 0.928394048 -0.003545244477324335 -0.0003829949855524296 0.0 0.0 0.0 0.0
915019500.0 0.41759696 1.026423932 0.00019163549023246002 0.0005593823613525587 0.0 0.0 0.0 0.0
930019000.0 0.219277488 1.082585576 -0.0009490688617484274 -0.0029278558628480235 0.0 0.0 0.0 0.0
945018500.0 0.016339324 1.10788572 0.0014291627261734808 0.0015662328570622515 0.0 0.0 0.0 0.0
960018000.0 -0.186400928 1.08671236 0.002415078718329149 0.002845812388391342 0.0 0.0 0.0 0.0
975017500.0 -0.357637184 1.040200712 -0.0019997872056128 0.0009148723291784196 0.0 0.0 0.0 0.0
990017000.0 -0.538488256 0.954276032 0.0010999784653634537 -0.00498143419980287 0.0 0.0 0.0 0.0
1005016500.0 -0.68965344 0.847816832 0.001629376954480285 -0.000460616075293243 0.0 0.0 0.0 0.0
1020016000.0 -0.839852672 0.726070272 0.0014486407281547782 0.00044801860683368254 0.0 0.0 0.0 0.0
1035015500.0 -0.951709376 0.56033216 0.0023146423362847336 -0.0018880684140259196 0.0 0.0 0.0 0.0
1050015000.0 -1.045739532 0.410057504 0.003948296587657451 -0.0012935674944437692 0.0 0.0 0.0 0.0
1065014500.0 -1.112819072 0.17619432 0.0016590556694327102 -0.0017592595960298702 0.0 0.0 0.0 0.0
1080014000.0 -1.140659936 -0.035297624 0.0009923985627242852 -0.002058800533666332 0.0 0.0 0.0 0.0
1095013500.0 -1.136516096 -0.283127328 0.003495682086463271 0.004077373898477032 0.0 0.0 0.0 0.0
1110013000.0 -1.075789688 -0.484593088 -0.000750534628476253 -0.0002720697969768289 0.0 0.0 0.0 0.0
1125012500.0 -0.965523264 -0.720509568 -0.0003373240031607304 0.002311490516673088 0.0 0.0 0.0 0.0
1140012000.0 -0.794168 -0.923920128 -0.002041670108197782 0.0010600256715936921 0.0 0.0 0.0 0.0
1155011500.0 -0.541310528 -1.092076776 0.0031867603098110807 -0.003546889681136246 0.0 0.0 0.0 0.0
1170011000.0 -0.335259968 -1.287592064 -0.004178240928211676 -0.003975477645697662 0.0 0.0 0.0 0.0
1185010500.0 0.023035122 -1.377175584 -0.0014217950105163677 -0.0037912888040195197 0.0 0.0 0.0 0.0
1200010000.0 0.442569472 -1.360380064 0.0025360141754944667 -0.0019482543342877804 0.0 0.0 0.0 0.0
1215009500.0 0.881365312 -1.216086032 -0.0014290958576424245 0.00464356456371797 0.0 0.0 0.0 0.0
1230009000.0 1.284025792 -0.886493952 0.006902915891583397 -0.008507699451286781 0.0 0.0 0.0 0.0
1245008500.0 1.500348576 -0.410548192 0.0004773856222058483 0.008395519782788503 0.0 0.0 0.0 0.0
1260008000.0 1.481201056 0.070126984 -0.0052649120165589 -0.0008362163625137346 0.0 0.0 0.0 0.0
1275007500.0 1.273305888 0.500612736 -0.0008313016085521535 0.0024498977404901214 0.0 0.0 0.0 0.0
1290007000.0 1.039693592 0.753635264 -0.0026235749041145814 0.006653587856995441 0.0 0.0 0.0 0.0
1305006500.0 0.799788608 0.875125312 -0.0031733810289552387 0.0010925105171026915 0.0 0.0 0.0 0.0
1320006000.0 0.602420352 0.957047488 0.008288812303241034 -0.0007646717163816281 0.0 0.0 0.0 0.0
1335005500.0 0.44632704 0.985276032 0.003922977820392987 -0.009784691613905605 0.0 0.0 0.0 0.0
1350005000.0 0.2839488 1.00936699 0.0004759383959446988 -0.002600832484811274 0.0 0.0 0.0 0.0
1365004500.0 0.178230448 1.089175936 -0.001205639257951237 0.013649817170923674 0.0 0.0 0.0 0.0
1380004000.0 0.049615356 1.07007396 3.819532624344267e-05 0.005836599899204858 0.0 0.0 0.0 0.0
1395003500.0 -0.042913528 1.135408528 0.0037419028345430224 0.0053332814055326114 0.0 0.0 0.0 0.0
1410003000.0 -0.192151376 1.233111136 -0.0032763954059947934 0.006156251416057196 0.0 0.0 0.0 0.0
1425002500.0 -0.385182912 1.37060928 0.009996092385570202 0.0011044626317324756 0.0 0.0 0.0 0.0
1440002000.0 -0.7740064 1.419524544 -0.0006683697737646124 0.013292750766789764 0.0 0.0 0.0 0.0
1455001500.0 -1.414883136 1.304785376 -0.006687860978829646 0.00819308956760121 0.0 0.0 0.0 0.0
1470001000.0 -1.90604224 0.636099712 -0.015267509307211935 0.015181048160138913 0.0 0.0 0.0 0.0
1485000500.0 -1.790236736 -0.087365152 -0.0051872318120017415 0.001797260651711689 0.0 0.0 0.0 0.0
1500000000.0 -1.438306816 -0.446511072 0.003825299590847412 0.0069604969876939544 0.0 0.0 0.0 0.0
