! Created with skrf 1.8.0 (http://scikit-rf.org).
# Hz S RI R 50.0 
!freq ReS11 ImS11 ReS21 ImS21 ReS12 ImS12 ReS22 ImS22
50000.0 0.007779042 -0.004311955 0.9980700104033802 -0.0004654468193002187 0.0 0.0 0.0 0.0
15049500.0 0.011190496 0.001256823 1.000741610021013 -0.005245799966870249 0.0 0.0 0.0 0.0
30049000.0 0.011710652 0.001322084 1.000253657137771 -0.009314273944423461 0.0 0.0 0.0 0.0
45048500.0 0.011808466 0.001428381 0.9996558875139563 -0.013548863137737654 0.0 0.0 0.0 0.0
60048000.0 0.011937936 0.002097934 0.9994466100675239 -0.01756824528123293 0.0 0.0 0.0 0.0
75047500.0 0.012279634 0.003923793 0.9992469808429877 -0.021081995898949053 0.0 0.0 0.0 0.0
90047000.0 0.013494778 0.005444622 0.9991120764207212 -0.025254587299977812 0.0 0.0 0.0 0.0
105046500.0 0.01579148 0.007304383 0.9991222048850497 -0.02939319422675635 0.0 0.0 0.0 0.0
120046000.0 0.019492198 0.00922377 0.9991200252178706 -0.0336201041511274 0.0 0.0 0.0 0.0
135045500.0 0.024307156 0.01027836 0.9979504732164733 -0.038139575038295646 0.0 0.0 0.0 0.0
150045000.0 0.0299232 0.009845072 0.9971256268345542 -0.04219980600342436 0.0 0.0 0.0 0.0
165044500.0 0.036110668 0.007821908 0.9952270658744958 -0.0456004689151075 0.0 0.0 0.0 0.0
180044000.0 0.04200622 0.003986938 0.9940925057424331 -0.048227852112437034 0.0 0.0 0.0 0.0
195043500.0 0.047366604 -0.001925311 0.9932895441048523 -0.05003734445114327 0.0 0.0 0.0 0.0
210043000.0 0.051380344 -0.009360096 0.9934059198542332 -0.051375139581605944 0.0 0.0 0.0 0.0
225042500.0 0.053515252 -0.01796679 0.9948388689104775 -0.05292448762273256 0.0 0.0 0.0 0.0
240042000.0 0.05344926 -0.027233892 0.9979540357583929 -0.05497582332811888 0.0 0.0 0.0 0.0
255041500.0 0.05085622 -0.036301772 1.0006365860815354 -0.059205262419615504 0.0 0.0 0.0 0.0
270041000.0 0.045840056 -0.044525508 1.0037810663220412 -0.06458090915214679 0.0 0.0 0.0 0.0
285040500.0 0.038473924 -0.051526804 1.0059085815338957 -0.07267544425365294 0.0 0.0 0.0 0.0
300040000.0 0.029801446 -0.056250232 1.0040461245771732 -0.08118094242368461 0.0 0.0 0.0 0.0
315039500.0 0.020189792 -0.058465476 1.004569320793584 -0.08776048222064126 0.0 0.0 0.0 0.0
330039000.0 0.00949363 -0.057710676 1.0002835758096993 -0.09556152614287419 0.0 0.0 0.0 0.0
345038500.0 -0.00087649 -0.05493122 0.9962472939643232 -0.09926058535153816 0.0 0.0 0.0 0.0
360038000.0 -0.010089862 -0.048675244 0.9929890579478631 -0.10448223428468355 0.0 0.0 0.0 0.0
375037500.0 -0.017556716 -0.039913604 0.9879739877452727 -0.1056845798628521 0.0 0.0 0.0 0.0
390037000.0 -0.022462796 -0.031677798 0.9872051427063534 -0.10418011959303461 0.0 0.0 0.0 0.0
405036500.0 -0.02643971 -0.019736038 0.9843550757864691 -0.1067850338102618 0.0 0.0 0.0 0.0
420036000.0 -0.025765062 -0.008607914 0.9853557777896652 -0.1070503878995027 0.0 0.0 0.0 0.0
435035500.0 -0.021782078 0.001884459 0.9861462350681184 -0.10774583562875632 0.0 0.0 0.0 0.0
450035000.0 -0.017143678 0.010720962 0.982708981001201 -0.1118336192182881 0.0 0.0 0.0 0.0
465034500.0 -0.006992279 0.017612536 0.9902005769254623 -0.11918065132144885 0.0 0.0 0.0 0.0
480034000.0 0.002765411 0.021109844 0.9908786560784956 -0.12402086515305023 0.0 0.0 0.0 0.0
495033500.0 0.014121374 0.023228576 0.9890711718873718 -0.12978128775904277 0.0 0.0 0.0 0.0
510033000.0 0.026789018 0.020223618 0.9862994738834998 -0.1359562277576883 0.0 0.0 0.0 0.0
525032500.0 0.03736002 0.014282486 0.9838103694009992 -0.13953738309959707 0.0 0.0 0.0 0.0
540032000.0 0.046720084 0.004570261 0.9810018938575984 -0.14097207150160546 0.0 0.0 0.0 0.0
555031500.0 0.05345584 -0.007423171 0.9796387542024287 -0.1418680845210889 0.0 0.0 0.0 0.0
570031000.0 0.058328616 -0.021778692 0.9785045021184425 -0.14257100193266906 0.0 0.0 0.0 0.0
585030500.0 0.059531292 -0.037790932 0.9789910078643423 -0.14071764889886504 0.0 0.0 0.0 0.0
600030000.0 0.055034664 -0.056415948 0.9838479877146911 -0.14278757665845848 0.0 0.0 0.0 0.0
615029500.0 0.048087304 -0.073220592 0.9889794028920852 -0.1472449081016454 0.0 0.0 0.0 0.0
630029000.0 0.037495352 -0.088863512 0.9961336341146366 -0.1545612536652889 0.0 0.0 0.0 0.0
645028500.0 0.024504814 -0.103286904 0.9992186719859392 -0.16412493011047627 0.0 0.0 0.0 0.0
660028000.0 0.00657959 -0.114526464 1.0037471200605719 -0.1770012768559666 0.0 0.0 0.0 0.0
675027500.0 -0.011928686 -0.121102784 0.9983738822509192 -0.19069566368874843 0.0 0.0 0.0 0.0
690027000.0 -0.030973552 -0.12385344 0.998361910040136 -0.20091884961610498 0.0 0.0 0.0 0.0
705026500.0 -0.049954224 -0.125540288 0.9884133389040289 -0.20834722092891084 0.0 0.0 0.0 0.0
720026000.0 -0.06822104 -0.12046152 0.9791896266852581 -0.21648780241253346 0.0 0.0 0.0 0.0
735025500.0 -0.08598112 -0.11092308 0.9702814733812783 -0.2202763967310678 0.0 0.0 0.0 0.0
750025000.0 -0.097085376 -0.098321656 0.9603946448857701 -0.22031465940790845 0.0 0.0 0.0 0.0
765024500.0 -0.107404672 -0.086346712 0.9526642822334385 -0.21959663135067123 0.0 0.0 0.0 0.0
780024000.0 -0.109711872 -0.068502512 0.9532676581158022 -0.21008236364602315 0.0 0.0 0.0 0.0
795023500.0 -0.114564696 -0.051490644 0.9463281904208858 -0.20898174655533341 0.0 0.0 0.0 0.0
810023000.0 -0.110496592 -0.034937388 0.9514730852962472 -0.20920514996589887 0.0 0.0 0.0 0.0
825022500.0 -0.102346928 -0.018845688 0.9556013404433756 -0.2075357897374424 0.0 0.0 0.0 0.0
840022000.0 -0.090435144 -0.005123198 0.9552312098046233 -0.20791342239755026 0.0 0.0 0.0 0.0
855021500.0 -0.07488996 0.006268278 0.9646949579750861 -0.21419904496602044 0.0 0.0 0.0 0.0
870021000.0 -0.056465136 0.01366931 0.9682911067335195 -0.21974073815712614 0.0 0.0 0.0 0.0
885020500.0 -0.040056176 0.017776438 0.9633102248777505 -0.22766343757637802 0.0 0.0 0.0 0.0
900020000.0 -0.017272132 0.009512606 0.9588858829765946 -0.23227135006632624 0.0 0.0 0.0 0.0
915019500.0 0.002093038 0.005123297 0.9582953851887928 -0.23235770946937445 0.0 0.0 0.0 0.0
930019000.0 0.011966878 -0.006478927 0.9592267711196066 -0.23746761935290714 0.0 0.0 0.0 0.0
945018500.0 0.0249025 -0.02737833 0.9562327144318972 -0.24381146484156818 0.0 0.0 0.0 0.0
960018000.0 0.027640504 -0.040367276 0.9581112096927807 -0.24327131667272686 0.0 0.0 0.0 0.0
975017500.0 0.026896312 -0.058779872 0.9550965160134254 -0.24644158587532547 0.0 0.0 0.0 0.0
990017000.0 0.027487956 -0.074550944 0.9646480673327721 -0.24935274454694725 0.0 0.0 0.0 0.0
1005016500.0 0.016034936 -0.097674192 0.9633957044335079 -0.2574930188445291 0.0 0.0 0.0 0.0
1020016000.0 -0.002975079 -0.1114056 0.9814749586233615 -0.27211924350671807 0.0 0.0 0.0 0.0
1035015500.0 -0.020286682 -0.118162376 0.9628636165980663 -0.27745649262590644 0.0 0.0 0.0 0.0
1050015000.0 -0.047421752 -0.13072652 0.9883762027570524 -0.2962375610016729 0.0 0.0 0.0 0.0
1065014500.0 -0.073357024 -0.137572432 0.9579445484323849 -0.2947204350658501 0.0 0.0 0.0 0.0
1080014000.0 -0.111412456 -0.1350872 0.9330752668375316 -0.308145529442345 0.0 0.0 0.0 0.0
1095013500.0 -0.141931712 -0.133727864 0.9312971052176293 -0.30980679274340595 0.0 0.0 0.0 0.0
1110013000.0 -0.176562832 -0.119706256 0.9157253543666021 -0.32009536356822343 0.0 0.0 0.0 0.0
1125012500.0 -0.20862208 -0.102825944 0.8910176955135268 -0.3181391696598943 0.0 0.0 0.0 0.0
1140012000.0 -0.230334032 -0.090807552 0.8776252899801074 -0.3185700085151503 0.0 0.0 0.0 0.0
1155011500.0 -0.24731672 -0.08593524 0.8926997768413154 -0.28793169153215825 0.0 0.0 0.0 0.0
1170011000.0 -0.274241824 -0.055628704 0.8520645255458181 -0.3005177471276259 0.0 0.0 0.0 0.0
1185010500.0 -0.273885216 -0.040685976 0.8574431314283086 -0.282478242674604 0.0 0.0 0.0 0.0
1200010000.0 -0.264470912 -0.009511976 0.8728380063143744 -0.280464433151986 0.0 0.0 0.0 0.0
1215009500.0 -0.2687064 0.007961366 0.8876476208908806 -0.279142775106641 0.0 0.0 0.0 0.0
1230009000.0 -0.260396128 0.01517874 0.887767400256095 -0.29293331983769666 0.0 0.0 0.0 0.0
1245008500.0 -0.230326736 0.03699214 0.8924530564599449 -0.3127925825255337 0.0 0.0 0.0 0.0
1260008000.0 -0.214374064 0.03071326 0.8971937302440951 -0.3283502646994269 0.0 0.0 0.0 0.0
1275007500.0 -0.188306768 0.070276568 0.8981082699756936 -0.33089628806161786 0.0 0.0 0.0 0.0
1290007000.0 -0.154940496 0.049540172 0.90508137051198 -0.3445084350424258 0.0 0.0 0.0 0.0
1305006500.0 -0.124249584 0.069250176 0.8969088546078586 -0.34958379409747425 0.0 0.0 0.0 0.0
1320006000.0 -0.132733912 0.053599796 0.8934799595601308 -0.3650992173566538 0.0 0.0 0.0 0.0
1335005500.0 -0.10131296 0.05347608 0.8910471879630899 -0.37677548250962034 0.0 0.0 0.0 0.0
1350005000.0 -0.091765808 0.038438512 0.8914100022753094 -0.3789986607083229 0.0 0.0 0.0 0.0
1365004500.0 -0.07166408 0.038214448 0.8575654843395045 -0.3446447351969463 0.0 0.0 0.0 0.0
1380004000.0 -0.078937808 0.03150129 0.8758368379779143 -0.3794536050327395 0.0 0.0 0.0 0.0
1395003500.0 -0.093742912 0.001759355 0.8868016528823348 -0.39352375697225045 0.0 0.0 0.0 0.0
1410003000.0 -0.101243584 -0.020254306 0.8938398660903941 -0.4030030453829094 0.0 0.0 0.0 0.0
1425002500.0 -0.126086248 -0.038811288 0.8962553415013262 -0.4158343863853547 0.0 0.0 0.0 0.0
1440002000.0 -0.19804408 -0.085553072 0.8810016603537459 -0.4286903712233585 0.0 0.0 0.0 0.0
1455001500.0 -0.26207152 -0.079071376 0.8611924857886116 -0.39755415874707345 0.0 0.0 0.0 0.0
1470001000.0 -0.294166848 -0.150828752 0.8820636909665219 -0.38273262925308904 0.0 0.0 0.0 0.0
1485000500.0 -0.3197976 -0.182553552 0.8278059729906005 -0.35230940961918794 0.0 0.0 0.0 0.0
1500000000.0 -0.296321216 -0.216248032 0.8051936467209119 -0.34264008456774425 0.0 0.0 0.0 0.0
