! Created with skrf 1.8.0 (http://scikit-rf.org).
# Hz S RI R 50.0 
!freq ReS11 ImS11 ReS21 ImS21 ReS12 ImS12 ReS22 ImS22
50000.0 1.000064969 0.002300064 -2.063967661068157e-06 -7.942497485988942e-05 0.0 0.0 0.0 0.0
15049500.0 0.977419776 0.220703136 1.585715327099615e-05 2.2374001411015784e-05 0.0 0.0 0.0 0.0
30049000.0 0.90795264 0.428477504 1.4695723186701559e-05 -1.962212621047582e-05 0.0 0.0 0.0 0.0
45048500.0 0.794883776 0.61648384 -7.819640172378847e-06 5.537516909748013e-05 0.0 0.0 0.0 0.0
60048000.0 0.645463424 0.773938176 -1.7944330001861608e-05 3.305208454521877e-05 0.0 0.0 0.0 0.0
75047500.0 0.46618016 0.897567104 2.4348068020192392e-05 8.36177625249808e-05 0.0 0.0 0.0 0.0
90047000.0 0.252257024 0.982916736 -1.976799645111887e-05 7.186800265283955e-05 0.0 0.0 0.0 0.0
105046500.0 0.03267575 1.015185356 1.2525959417750366e-05 3.543302315164303e-05 0.0 0.0 0.0 0.0
120046000.0 -0.189554176 0.999686272 -8.972355601199887e-06 4.330293920700554e-05 0.0 0.0 0.0 0.0
135045500.0 -0.405294176 0.93603104 -2.195179113521623e-06 0.00012164107288929822 0.0 0.0 0.0 0.0
150045000.0 -0.602605184 0.824796608 -2.025496150628555e-06 0.00011115031686119384 0.0 0.0 0.0 0.0
165044500.0 -0.771498432 0.672626496 3.104160920825122e-05 9.248875361773568e-05 0.0 0.0 0.0 0.0
180044000.0 -0.902042816 0.485023488 4.2168455076404017e-05 7.818385870158428e-05 0.0 0.0 0.0 0.0
195043500.0 -0.988446784 0.272266592 -1.5392524113764776e-05 8.295192696018079e-05 0.0 0.0 0.0 0.0
210043000.0 -1.02699709 0.043918596 -2.7553014681742833e-05 6.622728114567036e-05 0.0 0.0 0.0 0.0
225042500.0 -1.011553646 -0.190466464 -3.1663282590618317e-05 7.785942636307211e-05 0.0 0.0 0.0 0.0
240042000.0 -0.941805888 -0.416072256 -4.866756221199087e-05 5.388009273694691e-05 0.0 0.0 0.0 0.0
255041500.0 -0.821503616 -0.620304 -9.287132931948115e-05 6.25866010854758e-05 0.0 0.0 0.0 0.0
270041000.0 -0.657493376 -0.791803328 -6.939676814441512e-05 2.5004231862407207e-06 0.0 0.0 0.0 0.0
285040500.0 -0.458598496 -0.921004864 -0.00011526286326791354 5.7940828362064954e-05 0.0 0.0 0.0 0.0
300040000.0 -0.238741712 -0.991472768 -0.0001553647673857031 -5.798834344233649e-05 0.0 0.0 0.0 0.0
315039500.0 -0.003829818 -1.017034412 -0.00014497489487660448 -0.0001966109947472864 0.0 0.0 0.0 0.0
330039000.0 0.232055696 -0.992954944 0.00024321701797867492 0.00023616695410357677 0.0 0.0 0.0 0.0
345038500.0 0.449423456 -0.91781792 0.00010915482695786683 -0.00035717291183094793 0.0 0.0 0.0 0.0
360038000.0 0.645396608 -0.794880192 -2.8544295885905376e-05 0.00010351304354707133 0.0 0.0 0.0 0.0
375037500.0 0.810255872 -0.636237184 -0.00027539999742881777 -0.00014295733101246387 0.0 0.0 0.0 0.0
390037000.0 0.94422048 -0.453221248 0.0003831460612138295 0.00010206958979700278 0.0 0.0 0.0 0.0
405036500.0 1.015268208 -0.239006368 2.2165422934737303e-05 6.638902606699561e-05 0.0 0.0 0.0 0.0
420036000.0 1.0578959 -0.013246216 -0.0005281748810047667 -0.00035432950974707215 0.0 0.0 0.0 0.0
435035500.0 1.045157792 0.222870528 -0.00026353163050584345 -0.00014329530864592738 0.0 0.0 0.0 0.0
450035000.0 0.988794496 0.457672128 0.000304407073179871 -0.0006380121733619702 0.0 0.0 0.0 0.0
465034500.0 0.863904384 0.663803904 1.8114882350279134e-05 -0.0007511142377977104 0.0 0.0 0.0 0.0
480034000.0 0.70456256 0.840670144 -0.0004026173836590698 -0.0001616111365609604 0.0 0.0 0.0 0.0
495033500.0 0.512699904 0.970538816 0.00016315034707125252 -0.001053313563263822 0.0 0.0 0.0 0.0
510033000.0 0.302059456 1.05504012 0.00040586100305374637 -0.00037393386405781294 0.0 0.0 0.0 0.0
525032500.0 0.073527064 1.095436456 0.00010699655001094323 -0.0009158879464294503 0.0 0.0 0.0 0.0
540032000.0 -0.1487128 1.082326296 0.00013518706560773622 -0.00040788289955496983 0.0 0.0 0.0 0.0
555031500.0 -0.362975904 1.024292946 0.0007221895103220713 -0.0011924137262065405 0.0 0.0 0.0 0.0
570031000.0 -0.563389568 0.929339456 0.00026414586856745594 -0.0012793666372931352 0.0 0.0 0.0 0.0
585030500.0 -0.735338496 0.791186048 0.0008042120990377208 -2.868547125886439e-05 0.0 0.0 0.0 0.0
600030000.0 -0.88356992 0.63967744 -0.00045998083761394334 -0.0011995046187776748 0.0 0.0 0.0 0.0
615029500.0 -0.988971328 0.438243648 0.0007120774249742154 -0.0001787236807982942 0.0 0.0 0.0 0.0
630029000.0 -1.056768416 0.213487552 0.0008670997638924914 1.7213075454010047e-05 0.0 0.0 0.0 0.0
645028500.0 -1.0735966 -0.014617738 0.000754982406034153 -8.142171304929281e-05 0.0 0.0 0.0 0.0
660028000.0 -1.033966064 -0.256915056 0.0009889758468525493 -0.00011050510722714756 0.0 0.0 0.0 0.0
675027500.0 -0.944319872 -0.485109088 0.00046027012819350386 -0.00016693416250946212 0.0 0.0 0.0 0.0
690027000.0 -0.804394944 -0.689818176 0.000931363017116312 0.0004373002684632153 0.0 0.0 0.0 0.0
705026500.0 -0.610651584 -0.855560704 0.0007550981547649683 0.00011481983992124336 0.0 0.0 0.0 0.0
720026000.0 -0.388587328 -0.98513024 -0.00021673061466259474 -1.5517395850266947e-05 0.0 0.0 0.0 0.0
735025500.0 -0.131748392 -1.052526116 0.0004408682102347444 0.00033361080078200887 0.0 0.0 0.0 0.0
750025000.0 0.134731152 -1.061679244 0.0002540474890400744 0.0007746031208228077 0.0 0.0 0.0 0.0
765024500.0 0.4074768 -0.997613248 0.0007197361613357663 0.0009429407262191277 0.0 0.0 0.0 0.0
780024000.0 0.661494464 -0.907398336 0.000374852085799725 0.0015381865871215352 0.0 0.0 0.0 0.0
795023500.0 0.8684016 -0.67063776 0.0006065000401546728 0.0006647624112789322 0.0 0.0 0.0 0.0
810023000.0 1.021273732 -0.425138688 -0.0011964822907738872 0.0010566269073185065 0.0 0.0 0.0 0.0
825022500.0 1.09926224 -0.164435072 -6.483341965025212e-05 0.0006443298263540609 0.0 0.0 0.0 0.0
840022000.0 1.11421752 0.1094894 -4.662336008473646e-05 0.00021850389337357127 0.0 0.0 0.0 0.0
855021500.0 1.042499424 0.3623584 -0.0014127510863501493 0.00032313891859303 0.0 0.0 0.0 0.0
870021000.0 0.929387392 0.581928 -0.00013973020514666495 0.000297389374905478 0.0 0.0 0.0 0.0
885020500.0 0.781094976 0.757616448 -0.0017953608785782553 -0.0008516394443611193 0.0 0.0 0.0 0.0
900020000.0 0.627946944 0.925397632 -0.004602790938172893 -0.001193112693047265 0.0 0.0 0.0 0.0
915019500.0 0.431197664 1.023627162 4.606681848086164e-05 -0.00016668301942624912 0.0 0.0 0.0 0.0
930019000.0 0.22885584 1.083518624 0.0003975665741055273 -0.0022822956119709806 0.0 0.0 0.0 0.0
945018500.0 0.025903684 1.103800176 0.0005466308779920913 -0.00028266084320895124 0.0 0.0 0.0 0.0
960018000.0 -0.164675856 1.087313176 0.0013882194237746436 -9.530244771146189e-05 0.0 0.0 0.0 0.0
975017500.0 -0.363848064 1.047017216 0.001281874473633382 -0.001305225977670204 0.0 0.0 0.0 0.0
990017000.0 -0.528158144 0.962235776 0.00037929890755630287 -0.0007377071038783584 0.0 0.0 0.0 0.0
1005016500.0 -0.679528704 0.852688 -0.0002626704253966587 -0.0026217570242962904 0.0 0.0 0.0 0.0
1020016000.0 -0.826287936 0.711579072 0.0009430641340294839 3.0022502830705782e-05 0.0 0.0 0.0 0.0
1035015500.0 -0.941071616 0.562076224 0.003946668316857111 0.0013210788400005722 0.0 0.0 0.0 0.0
1050015000.0 -1.034678696 0.365054592 0.0016900446172491376 -0.0010279842284574292 0.0 0.0 0.0 0.0
1065014500.0 -1.100888488 0.188013872 0.004318865157363534 0.0017205869388067115 0.0 0.0 0.0 0.0
1080014000.0 -1.124261736 -0.042139228 0.0020690947168301678 0.0004607303420217597 0.0 0.0 0.0 0.0
1095013500.0 -1.111815688 -0.260712112 0.0027021059587117088 -0.0014770406588742494 0.0 0.0 0.0 0.0
1110013000.0 -1.0458436 -0.484185536 0.003294018759344105 -0.0008519213445654007 0.0 0.0 0.0 0.0
1125012500.0 -0.951189888 -0.691807552 0.004885375496981701 -0.0026090086291752257 0.0 0.0 0.0 0.0
1140012000.0 -0.766887872 -0.899501632 0.00019648006549263336 -0.0019107860899252984 0.0 0.0 0.0 0.0
1155011500.0 -0.539579008 -1.11214328 -0.0002452663921878891 -0.002067742384720141 0.0 0.0 0.0 0.0
1170011000.0 -0.27409248 -1.207559584 -0.0023281044355797937 -0.0023122746408994524 0.0 0.0 0.0 0.0
1185010500.0 0.0379271 -1.325643072 0.007985087791355873 -0.0007809738384967666 0.0 0.0 0.0 0.0
1200010000.0 0.42408656 -1.311905024 0.004693607504207025 -0.0010989831294344315 0.0 0.0 0.0 0.0
1215009500.0 0.8478544 -1.154427168 1.3572576390295017e-05 -0.001373679848816357 0.0 0.0 0.0 0.0
1230009000.0 1.227357504 -0.800127296 0.0005819541928081534 0.005409095118381817 0.0 0.0 0.0 0.0
1245008500.0 1.390576352 -0.352559552 0.0029826898779858366 0.0011603937054314086 0.0 0.0 0.0 0.0
1260008000.0 1.400365248 0.105933376 0.006019269094987052 0.004882080047010572 0.0 0.0 0.0 0.0
1275007500.0 1.22676552 0.46815392 0.002893103771496832 -0.002171584372766531 0.0 0.0 0.0 0.0
1290007000.0 1.008496642 0.714568896 -0.004296130972872589 -0.0012948641878968712 0.0 0.0 0.0 0.0
1305006500.0 0.77171424 0.848666816 0.0039625706265263546 0.005497078493036146 0.0 0.0 0.0 0.0
1320006000.0 0.574770496 0.916635648 -0.003123271174395448 0.0003176790757155427 0.0 0.0 0.0 0.0
1335005500.0 0.41577152 0.95935488 0.0007421293265369365 0.006433169946851616 0.0 0.0 0.0 0.0
1350005000.0 0.273893536 0.987510912 0.003282684067095991 0.004302424572465637 0.0 0.0 0.0 0.0
1365004500.0 0.1650948 0.976018624 -0.0009741840413257794 0.0019937081708811277 0.0 0.0 0.0 0.0
1380004000.0 0.052397424 1.061214684 0.006558160085898872 -0.0009506756301514778 0.0 0.0 0.0 0.0
1395003500.0 -0.064951464 1.12889624 0.002995669803188296 0.004221022883587672 0.0 0.0 0.0 0.0
1410003000.0 -0.189912416 1.193415648 0.002546600967292944 0.001556182866544495 0.0 0.0 0.0 0.0
1425002500.0 -0.404722848 1.32918704 -0.004206534541414059 -0.005736814746139483 0.0 0.0 0.0 0.0
1440002000.0 -0.781982592 1.369744768 0.003987972983071225 0.01272972128003135 0.0 0.0 0.0 0.0
1455001500.0 -1.346446752 1.290806176 -0.012173389551054615 -0.006242695534837361 0.0 0.0 0.0 0.0
1470001000.0 -1.860445248 0.640465344 -0.0039659010769818375 0.015289374627447203 0.0 0.0 0.0 0.0
1485000500.0 -1.68296288 -0.03828266 0.005097810710034356 0.007597761831192593 0.0 0.0 0.0 0.0
1500000000.0 -1.382178432 -0.397578976 -0.011715133868698508 -0.0011810673807607708 0.0 0.0 0.0 0.0
