! Created with skrf 1.8.0 (http://scikit-rf.org).
# Hz S RI R 50.0 
!freq ReS11 ImS11 ReS21 ImS21 ReS12 ImS12 ReS22 ImS22
50000.0 0.999406656 0.001795179 1.6079579259585753e-05 -3.4534195905431185e-05 0.0 0.0 0.0 0.0
15049500.0 0.976807808 0.219474048 4.3365429549913084e-05 1.2309059425948222e-05 0.0 0.0 0.0 0.0
30049000.0 0.907607296 0.427845888 -1.627825584972077e-05 7.53638935373112e-06 0.0 0.0 0.0 0.0
45048500.0 0.79433984 0.615657536 4.496999569716306e-05 3.95647660424921e-05 0.0 0.0 0.0 0.0
60048000.0 0.64551744 0.773092416 2.5105490574015067e-05 1.1673926804552125e-05 0.0 0.0 0.0 0.0
75047500.0 0.4661104 0.896518656 8.104515098889463e-05 8.63304784776922e-05 0.0 0.0 0.0 0.0
90047000.0 0.25281992 0.98208832 4.425366768178652e-06 4.11589953316405e-06 0.0 0.0 0.0 0.0
105046500.0 0.03298045 1.013691546 -2.2158492949874554e-05 1.1321822829843248e-05 0.0 0.0 0.0 0.0
120046000.0 -0.1884544 0.998773184 -2.1776820763474315e-05 6.419436893089232e-05 0.0 0.0 0.0 0.0
135045500.0 -0.403418496 0.934551104 -2.5333545732853875e-05 8.337861494173072e-05 0.0 0.0 0.0 0.0
150045000.0 -0.601076032 0.824421376 3.626568195782577e-06 6.243416205989585e-05 0.0 0.0 0.0 0.0
165044500.0 -0.769269376 0.67202208 3.0435766129658387e-05 6.094160415595194e-05 0.0 0.0 0.0 0.0
180044000.0 -0.899587136 0.485157312 1.6539195638170142e-05 3.98179577783986e-05 0.0 0.0 0.0 0.0
195043500.0 -0.986876096 0.273869024 -3.3951319641854584e-05 3.607868690205645e-05 0.0 0.0 0.0 0.0
210043000.0 -1.02543044 0.045108216 -5.201624170190181e-05 6.241177806479583e-05 0.0 0.0 0.0 0.0
225042500.0 -1.00891602 -0.187953728 -6.18184447906964e-05 5.366880632788119e-05 0.0 0.0 0.0 0.0
240042000.0 -0.940373568 -0.412717504 -6.105580255051781e-05 2.936534888115895e-05 0.0 0.0 0.0 0.0
255041500.0 -0.820644736 -0.6173424 -1.893987483962888e-05 6.023153325343124e-05 0.0 0.0 0.0 0.0
270041000.0 -0.65747744 -0.787249664 -9.397578565338769e-05 5.285853232760564e-05 0.0 0.0 0.0 0.0
285040500.0 -0.460163712 -0.917968192 -7.706652766821675e-05 4.843411853398366e-05 0.0 0.0 0.0 0.0
300040000.0 -0.239390256 -0.986433664 0.00028405350200306915 0.000472775353885746 0.0 0.0 0.0 0.0
315039500.0 -0.005480955 -1.01487136 -0.0007452151652454394 0.00024263454158922324 0.0 0.0 0.0 0.0
330039000.0 0.22671264 -0.992125696 0.0002467843774922299 -0.00010601151055792273 0.0 0.0 0.0 0.0
345038500.0 0.445540032 -0.917948224 6.101643662207374e-05 4.057042394336617e-05 0.0 0.0 0.0 0.0
360038000.0 0.641549888 -0.794754432 5.2062115861781734e-05 0.00011302515152387286 0.0 0.0 0.0 0.0
375037500.0 0.805044736 -0.63570016 -0.00015752975859321597 -0.00019771027838370742 0.0 0.0 0.0 0.0
390037000.0 0.927044992 -0.45225296 -0.0004807297785482337 -0.0006894319387096643 0.0 0.0 0.0 0.0
405036500.0 1.015010118 -0.240552736 3.636400131360056e-05 -0.0006733729092757328 0.0 0.0 0.0 0.0
420036000.0 1.053897024 -0.016074404 -0.0003439446212383647 -0.0002526934795244979 0.0 0.0 0.0 0.0
435035500.0 1.043807388 0.21954584 -0.0004886614690917443 -0.00027043605028009523 0.0 0.0 0.0 0.0
450035000.0 0.988594688 0.449076128 -0.0003904797145469885 -0.0003478225228148723 0.0 0.0 0.0 0.0
465034500.0 0.863367936 0.659525248 -0.0004045868105757395 -0.00027753479427479114 0.0 0.0 0.0 0.0
480034000.0 0.708416896 0.83319456 -0.0002987637237102516 5.464587430394098e-06 0.0 0.0 0.0 0.0
495033500.0 0.515472576 0.966696512 -0.00040458658226611354 -0.0005215353050851163 0.0 0.0 0.0 0.0
510033000.0 0.302333984 1.052229764 -0.00025850722384155694 -0.000906017599565666 0.0 0.0 0.0 0.0
525032500.0 0.079666648 1.09084296 -0.00046712817779973986 -0.00038992034404285 0.0 0.0 0.0 0.0
540032000.0 -0.146424688 1.080944184 -0.000122789333538815 -0.0007092062326580989 0.0 0.0 0.0 0.0
555031500.0 -0.35916 1.023462892 0.0007335312002686897 -0.0013318320134616734 0.0 0.0 0.0 0.0
570031000.0 -0.554938944 0.922249984 0.0003218148938953735 -0.0007686918026882487 0.0 0.0 0.0 0.0
585030500.0 -0.719418176 0.789298432 0.0002705638630879579 -0.0006536179483711572 0.0 0.0 0.0 0.0
600030000.0 -0.874987264 0.638940992 -0.0001953707730065299 -0.00014821032067582535 0.0 0.0 0.0 0.0
615029500.0 -0.983430912 0.440227712 0.0006373070272599439 -0.00066803670619068 0.0 0.0 0.0 0.0
630029000.0 -1.049603344 0.21685488 -0.00015780683361882458 -0.0004095283109825262 0.0 0.0 0.0 0.0
645028500.0 -1.068212984 -0.016460394 0.0006987923860295227 -0.0002539136884478001 0.0 0.0 0.0 0.0
660028000.0 -1.02743888 -0.2540884 0.0007631784009548616 -0.00031038456731767534 0.0 0.0 0.0 0.0
675027500.0 -0.94514272 -0.477745536 0.0008618867570752507 -1.757544725768581e-05 0.0 0.0 0.0 0.0
690027000.0 -0.802100928 -0.680835264 0.000721229051338482 0.0004020694261161787 0.0 0.0 0.0 0.0
705026500.0 -0.612689536 -0.849612736 0.0003224802320198109 0.0004218269942884748 0.0 0.0 0.0 0.0
720026000.0 -0.381348192 -0.9804448 0.00026948963589728365 0.0004950031482667048 0.0 0.0 0.0 0.0
735025500.0 -0.13501104 -1.041799308 0.0004356373113754153 0.001166486163449271 0.0 0.0 0.0 0.0
750025000.0 0.138932608 -1.05703008 0.0008708580874983152 0.0006629634998337215 0.0 0.0 0.0 0.0
765024500.0 0.407488672 -0.986373248 -0.0008119298426955806 0.0004398954542051207 0.0 0.0 0.0 0.0
780024000.0 0.656096832 -0.885704128 -0.0006327034440981703 0.0009826218344624312 0.0 0.0 0.0 0.0
795023500.0 0.872118976 -0.668490176 -0.0010495303471183025 0.0004370567526897798 0.0 0.0 0.0 0.0
810023000.0 1.014957666 -0.418532352 0.0003104130160761048 0.000618706515462328 0.0 0.0 0.0 0.0
825022500.0 1.093524336 -0.159390112 -0.00014599454906910625 6.354987885203498e-05 0.0 0.0 0.0 0.0
840022000.0 1.09778428 0.112002336 -0.0007543530644476446 5.935863674013016e-08 0.0 0.0 0.0 0.0
855021500.0 1.0346117 0.36801008 -0.0012300128010326525 -0.00021065192070286975 0.0 0.0 0.0 0.0
870021000.0 0.924457536 0.583100608 -0.0008783718107137901 -0.0001337800412631776 0.0 0.0 0.0 0.0
885020500.0 0.774895936 0.757934784 -0.000356922957794831 0.00023425414176058725 0.0 0.0 0.0 0.0
900020000.0 0.618898432 0.920092096 -0.0013603695642514452 0.00311123446987644 0.0 0.0 0.0 0.0
915019500.0 0.421695328 1.028854966 -0.0018442451882696765 -0.0023275050055046385 0.0 0.0 0.0 0.0
930019000.0 0.221029712 1.088928936 -0.0005765152574968472 -0.0012690816681653488 0.0 0.0 0.0 0.0
945018500.0 0.022645732 1.100855352 0.001293546928382136 -0.00024428394086214685 0.0 0.0 0.0 0.0
960018000.0 -0.177827872 1.086546544 -0.000936889444938534 -0.0030346603427724435 0.0 0.0 0.0 0.0
975017500.0 -0.36688528 1.031566978 0.002338046759234672 9.476628946120633e-05 0.0 0.0 0.0 0.0
990017000.0 -0.535984512 0.957048768 0.0003383523772201402 -0.000675806527706325 0.0 0.0 0.0 0.0
1005016500.0 -0.688213312 0.850916224 0.0002489093656933131 -0.0020820533859971396 0.0 0.0 0.0 0.0
1020016000.0 -0.820941888 0.711819328 0.0009967259674447926 -0.0011883629085558177 0.0 0.0 0.0 0.0
1035015500.0 -0.954153728 0.565102336 -0.0014874915688598096 0.00019553904916149917 0.0 0.0 0.0 0.0
1050015000.0 -1.029587984 0.409511136 0.0022078706306947835 0.0005428791896871875 0.0 0.0 0.0 0.0
1065014500.0 -1.108312608 0.180382464 0.002191915643437259 -0.0010295996501908026 0.0 0.0 0.0 0.0
1080014000.0 -1.125804784 -0.040202652 0.0030781550309609907 -0.0009962199553223898 0.0 0.0 0.0 0.0
1095013500.0 -1.110095504 -0.251974288 0.0005216778493900875 -0.0017213821389920171 0.0 0.0 0.0 0.0
1110013000.0 -1.046627284 -0.481186912 -0.0007036458939667182 0.0008544917384157541 0.0 0.0 0.0 0.0
1125012500.0 -0.953156608 -0.72079872 0.0008399571170166877 -0.000553606583217735 0.0 0.0 0.0 0.0
1140012000.0 -0.77534656 -0.911371008 0.0033567250372459616 0.002782899961161396 0.0 0.0 0.0 0.0
1155011500.0 -0.622314816 -1.090226176 0.001156907025108108 -0.00036326809316468737 0.0 0.0 0.0 0.0
1170011000.0 -0.313149888 -1.21154368 0.0019932931250954363 -0.00511476076772866 0.0 0.0 0.0 0.0
1185010500.0 0.051527768 -1.344966304 0.0059735235445042565 -0.0015121228449115215 0.0 0.0 0.0 0.0
1200010000.0 0.43411792 -1.323757664 -0.005331439970195486 -0.001778189516303581 0.0 0.0 0.0 0.0
1215009500.0 0.853855296 -1.1867832 0.003916579695901708 0.005756473657160301 0.0 0.0 0.0 0.0
1230009000.0 1.241258496 -0.88358208 -0.005472347746777368 0.003142300620343901 0.0 0.0 0.0 0.0
1245008500.0 1.453501952 -0.37247968 0.004145670746154278 -0.005339815927992053 0.0 0.0 0.0 0.0
1260008000.0 1.473196256 0.117563192 0.009507717508209746 0.008152211493699539 0.0 0.0 0.0 0.0
1275007500.0 1.258992192 0.472940864 0.0017272657417524693 -0.0027586759498631395 0.0 0.0 0.0 0.0
1290007000.0 1.033252836 0.721707712 0.00442408030907108 -0.010936757409712144 0.0 0.0 0.0 0.0
1305006500.0 0.787276096 0.85481376 -0.0008145192056418991 0.006928049195216897 0.0 0.0 0.0 0.0
1320006000.0 0.579260864 0.917684864 0.006229143838619624 0.0006687167796909037 0.0 0.0 0.0 0.0
1335005500.0 0.438449824 0.968179136 0.005085341765440519 0.0025544744044001103 0.0 0.0 0.0 0.0
1350005000.0 0.295453376 0.990465856 -0.0016011397242278352 -0.0001956111123955192 0.0 0.0 0.0 0.0
1365004500.0 0.190653008 0.9955584 -0.005040239933422105 0.0044575872427054224 0.0 0.0 0.0 0.0
1380004000.0 0.058690228 1.085068944 -0.0004378009373945153 -0.0008988334761380906 0.0 0.0 0.0 0.0
1395003500.0 -0.01205574 1.118344184 -0.004964706004765482 -0.0015662055443429394 0.0 0.0 0.0 0.0
1410003000.0 -0.174594544 1.198718064 0.005515807211050905 0.011013990393903559 0.0 0.0 0.0 0.0
1425002500.0 -0.389526112 1.349987264 0.009815688427806044 0.008556807039664185 0.0 0.0 0.0 0.0
1440002000.0 -0.78249568 1.400449632 -0.019932281459860937 0.017427349702630286 0.0 0.0 0.0 0.0
1455001500.0 -1.373493792 1.333634496 -0.001332851675936273 0.016755987840103664 0.0 0.0 0.0 0.0
1470001000.0 -1.83880736 0.700780224 -0.00048329220020988276 0.010191782154346771 0.0 0.0 0.0 0.0
1485000500.0 -1.755330816 -0.034596276 -0.02732164739278774 0.00966060074213834 0.0 0.0 0.0 0.0
1500000000.0 -1.396954656 -0.393670752 -0.003182962601705872 0.007205081102366704 0.0 0.0 0.0 0.0
