! Created with skrf 1.8.0 (http://scikit-rf.org).
# Hz S RI R 50.0 
!freq ReS11 ImS11 ReS21 ImS21 ReS12 ImS12 ReS22 ImS22
50000.0 0.997335104 0.001441127 8.439704099486474e-05 -7.871502824309423e-05 0.0 0.0 0.0 0.0
15049500.0 0.97642112 0.220340464 -2.873126395141414e-06 2.1786682393552754e-05 0.0 0.0 0.0 0.0
30049000.0 0.907048192 0.427457408 -9.058895749715096e-06 1.4797724750643045e-05 0.0 0.0 0.0 0.0
45048500.0 0.793540224 0.615282432 5.0264401319420416e-05 2.9278031764451787e-05 0.0 0.0 0.0 0.0
60048000.0 0.644645696 0.772193472 -8.132678571857341e-06 3.336656223297289e-05 0.0 0.0 0.0 0.0
75047500.0 0.465881376 0.895538176 1.1914631120800906e-05 3.98477967051535e-05 0.0 0.0 0.0 0.0
90047000.0 0.252509232 0.9808496 -6.160337280749616e-05 6.574638439291275e-05 0.0 0.0 0.0 0.0
105046500.0 0.03328631 1.013122798 1.212644201551628e-05 6.77698407261248e-05 0.0 0.0 0.0 0.0
120046000.0 -0.18788928 0.997327808 3.4359003082724404e-06 7.304775891204064e-05 0.0 0.0 0.0 0.0
135045500.0 -0.402611744 0.935099648 -5.087467801877945e-05 3.267047078763206e-05 0.0 0.0 0.0 0.0
150045000.0 -0.600339328 0.8236416 -4.255787460064736e-05 0.00011811854627650803 0.0 0.0 0.0 0.0
165044500.0 -0.768711424 0.671379456 6.246273898142717e-06 7.427492338191527e-05 0.0 0.0 0.0 0.0
180044000.0 -0.898612672 0.485241536 1.446581113907099e-05 5.390043915487822e-05 0.0 0.0 0.0 0.0
195043500.0 -0.985491456 0.274007648 -3.310709331137356e-05 4.199926473727848e-05 0.0 0.0 0.0 0.0
210043000.0 -1.023446798 0.046241356 -5.2876838571132184e-05 7.387681731587001e-05 0.0 0.0 0.0 0.0
225042500.0 -1.007763386 -0.186770256 -7.321860362589948e-05 5.6532929846890274e-05 0.0 0.0 0.0 0.0
240042000.0 -0.939455552 -0.411382688 -7.803645550509847e-05 8.753445802197433e-05 0.0 0.0 0.0 0.0
255041500.0 -0.819745088 -0.614904192 -4.037291652889603e-05 1.9386788696191873e-05 0.0 0.0 0.0 0.0
270041000.0 -0.657465408 -0.787180736 -9.701504846567401e-05 3.347241921646717e-05 0.0 0.0 0.0 0.0
285040500.0 -0.459773792 -0.9167168 -9.323393267010794e-05 4.335587715484232e-05 0.0 0.0 0.0 0.0
300040000.0 -0.240022096 -0.988156032 -0.00014551600097231535 -1.8978535007347642e-05 0.0 0.0 0.0 0.0
315039500.0 -0.007588281 -1.014070512 2.379850611074894e-05 3.63339121881562e-05 0.0 0.0 0.0 0.0
330039000.0 0.225303136 -0.989533056 -0.00011273886562567196 -0.0003934319008766786 0.0 0.0 0.0 0.0
345038500.0 0.445434624 -0.91638208 -0.000241522658246764 -3.1563533870859104e-05 0.0 0.0 0.0 0.0
360038000.0 0.63963104 -0.795813888 -0.000314881421140539 3.861740458024798e-05 0.0 0.0 0.0 0.0
375037500.0 0.803283072 -0.636572288 0.00019552602158564837 -0.0002593974857065669 0.0 0.0 0.0 0.0
390037000.0 0.928374464 -0.454420224 -8.416276194724727e-05 -0.00012347149330274977 0.0 0.0 0.0 0.0
405036500.0 1.013522744 -0.239590672 0.000264734435581206 -1.5708719314453914e-05 0.0 0.0 0.0 0.0
420036000.0 1.053073884 -0.01602999 0.0006232030642885868 -0.0007370467790217359 0.0 0.0 0.0 0.0
435035500.0 1.04251194 0.215166672 -0.0005016430609519592 -0.00014062890584353187 0.0 0.0 0.0 0.0
450035000.0 0.98412064 0.453100256 -0.0006041831038756554 1.3376469645572004e-05 0.0 0.0 0.0 0.0
465034500.0 0.865443072 0.657656768 -0.0008069734408477854 -0.0007851720346613764 0.0 0.0 0.0 0.0
480034000.0 0.706584832 0.832738368 -0.00013928704686312884 -0.0005402001426519143 0.0 0.0 0.0 0.0
495033500.0 0.513185664 0.964060672 -0.0001463575445997073 -0.0006961479908868118 0.0 0.0 0.0 0.0
510033000.0 0.3020304 1.0472728 -0.0001880685090930442 0.0001753409976945482 0.0 0.0 0.0 0.0
525032500.0 0.080253344 1.087119104 -0.00020125257762885958 -0.0006005592724933484 0.0 0.0 0.0 0.0
540032000.0 -0.142337968 1.075194832 -9.641116665329565e-05 -2.5094998576418634e-05 0.0 0.0 0.0 0.0
555031500.0 -0.359075744 1.02368331 -0.0006415250185839714 -0.00048816025405069114 0.0 0.0 0.0 0.0
570031000.0 -0.550389952 0.92281824 0.0006247237555259058 -0.001095545802808631 0.0 0.0 0.0 0.0
585030500.0 -0.720488256 0.79113024 -4.9827047401774206e-05 -0.0006437710952413298 0.0 0.0 0.0 0.0
600030000.0 -0.872233856 0.636621568 0.001445880342552986 0.0006033200678113231 0.0 0.0 0.0 0.0
615029500.0 -0.97917312 0.442036 0.0009916284928074555 -0.0005240658874763879 0.0 0.0 0.0 0.0
630029000.0 -1.044821024 0.217636384 0.0005434121998419915 0.00011800910866491339 0.0 0.0 0.0 0.0
645028500.0 -1.061962368 -0.017538448 0.0006995670677371741 -0.0004894461434433948 0.0 0.0 0.0 0.0
660028000.0 -1.02394104 -0.251381248 0.0005372199764287439 0.00046148901115400343 0.0 0.0 0.0 0.0
675027500.0 -0.937166464 -0.478525344 0.0012275422887749183 -0.00035630903266579603 0.0 0.0 0.0 0.0
690027000.0 -0.792395264 -0.67938784 0.0013237794068877299 0.000779703619007229 0.0 0.0 0.0 0.0
705026500.0 -0.607644608 -0.848745216 0.001051622241425745 0.0005235897791780239 0.0 0.0 0.0 0.0
720026000.0 -0.378910144 -0.972602496 0.0011710805537227232 0.000557612723729902 0.0 0.0 0.0 0.0
735025500.0 -0.126035016 -1.041398288 0.0006288694021498223 0.0005506357718971089 0.0 0.0 0.0 0.0
750025000.0 0.142168816 -1.044784308 0.0002886155621746836 0.0008734935723121216 0.0 0.0 0.0 0.0
765024500.0 0.407562304 -0.985084928 -0.00012385689248047729 0.00052899220250877 0.0 0.0 0.0 0.0
780024000.0 0.655175296 -0.883655488 -0.0010775669830993357 0.0007434968229321468 0.0 0.0 0.0 0.0
795023500.0 0.865454528 -0.664267776 -0.001216415939816372 0.0004404801578387522 0.0 0.0 0.0 0.0
810023000.0 1.009274602 -0.423544928 -0.00023865609033336117 2.025285616387363e-05 0.0 0.0 0.0 0.0
825022500.0 1.092082504 -0.153935648 -0.00026497108402923606 0.0011904951893449093 0.0 0.0 0.0 0.0
840022000.0 1.098449472 0.116140176 -0.0006775646640489082 0.00030584366933498916 0.0 0.0 0.0 0.0
855021500.0 1.03932202 0.366088704 -0.000910041010244982 -0.00044575773615865863 0.0 0.0 0.0 0.0
870021000.0 0.927120064 0.588233024 -0.00043278463809365785 -0.0004460746977806987 0.0 0.0 0.0 0.0
885020500.0 0.764854144 0.772474112 -0.000936175143634457 0.00035928187166485843 0.0 0.0 0.0 0.0
900020000.0 0.61490176 0.929566976 -0.007381153711017242 0.0014504721724688146 0.0 0.0 0.0 0.0
915019500.0 0.416185664 1.036975264 -0.0009250214286571599 -0.0011124542492278356 0.0 0.0 0.0 0.0
930019000.0 0.2147724 1.094091896 0.0009850788248330954 -0.0019079672606348483 0.0 0.0 0.0 0.0
945018500.0 0.014665456 1.103020552 0.0015903674390254148 -0.003934712386247786 0.0 0.0 0.0 0.0
960018000.0 -0.181426864 1.096971152 -0.0008407982991977563 -0.0011487713217342953 0.0 0.0 0.0 0.0
975017500.0 -0.374535872 1.041767956 0.002106063092753363 -0.002958637674344416 0.0 0.0 0.0 0.0
990017000.0 -0.538496832 0.96085568 0.0028962018540176593 4.110100575015857e-05 0.0 0.0 0.0 0.0
1005016500.0 -0.69435072 0.858751168 0.0016586285256753942 0.002920231066201417 0.0 0.0 0.0 0.0
1020016000.0 -0.833067456 0.723570368 -0.0011543887701157653 0.0009958935646099995 0.0 0.0 0.0 0.0
1035015500.0 -0.960463872 0.560130368 0.0009207770425290846 -0.0016245405303978696 0.0 0.0 0.0 0.0
1050015000.0 -1.028606176 0.385238688 0.0026332658865680495 0.00030606703318225033 0.0 0.0 0.0 0.0
1065014500.0 -1.115696192 0.180706608 0.002255665073279138 -0.0004676716287531499 0.0 0.0 0.0 0.0
1080014000.0 -1.139245632 -0.037563728 0.0038683805514920246 -0.0006575723355884595 0.0 0.0 0.0 0.0
1095013500.0 -1.126062032 -0.255651168 0.0007619504481871748 -0.0053693311266928175 0.0 0.0 0.0 0.0
1110013000.0 -1.070263984 -0.496301696 0.002320750891380641 -0.0028859628386431035 0.0 0.0 0.0 0.0
1125012500.0 -0.944755968 -0.71243552 0.0017083973692442224 0.0027356027906944784 0.0 0.0 0.0 0.0
1140012000.0 -0.774447296 -0.92969152 -0.0009358154019109251 0.0026021236394712863 0.0 0.0 0.0 0.0
1155011500.0 -0.521334336 -1.11229944 0.00041401527842351184 -0.003759843568068478 0.0 0.0 0.0 0.0
1170011000.0 -0.301913792 -1.220803616 0.0002874827136995402 0.002143194292782143 0.0 0.0 0.0 0.0
1185010500.0 0.04996058 -1.3608632 0.0010928455297604903 -0.00446904875087837 0.0 0.0 0.0 0.0
1200010000.0 0.452413248 -1.343442432 0.0010506095410937396 -0.00269108429844771 0.0 0.0 0.0 0.0
1215009500.0 0.900913472 -1.217436784 0.0012197266955836982 -0.005465584462190524 0.0 0.0 0.0 0.0
1230009000.0 1.276880864 -0.882343744 -0.0038703846598350366 -0.0021118672410711885 0.0 0.0 0.0 0.0
1245008500.0 1.457608448 -0.418362368 0.0015695360745166123 -0.003964983523599685 0.0 0.0 0.0 0.0
1260008000.0 1.50300752 0.068014624 0.004636876235392398 0.0023512178373858135 0.0 0.0 0.0 0.0
1275007500.0 1.273090368 0.473071168 0.0018432703438439474 0.0012910900021684839 0.0 0.0 0.0 0.0
1290007000.0 1.041608692 0.741420928 -0.0019271376194814924 -0.003737060645086752 0.0 0.0 0.0 0.0
1305006500.0 0.806973184 0.865316224 0.003048341655054245 0.0026780907510624325 0.0 0.0 0.0 0.0
1320006000.0 0.58909472 0.954738624 -0.004190212768875285 0.0003047775816616439 0.0 0.0 0.0 0.0
1335005500.0 0.432573792 0.981021312 0.0051197558040519614 0.0007715916464388778 0.0 0.0 0.0 0.0
1350005000.0 0.297673056 1.02397132 0.008657037772443671 0.009167586968825359 0.0 0.0 0.0 0.0
1365004500.0 0.257222528 1.053407432 0.006464171125455074 0.016677735505052384 0.0 0.0 0.0 0.0
1380004000.0 0.074065808 1.072342872 0.0065990363908638465 0.005635812129057859 0.0 0.0 0.0 0.0
1395003500.0 -0.066790372 1.136942624 0.0035905421189546633 0.0026622989080808614 0.0 0.0 0.0 0.0
1410003000.0 -0.203377136 1.248282672 -0.00439987484944218 0.001639026653686924 0.0 0.0 0.0 0.0
1425002500.0 -0.414478464 1.327203872 0.0027081644007997973 0.0018501947622360396 0.0 0.0 0.0 0.0
1440002000.0 -0.785732224 1.414193504 -0.0016927994233003015 0.013071374237290398 0.0 0.0 0.0 0.0
1455001500.0 -1.343819616 1.30416144 -0.006935928081801673 0.007441599464805396 0.0 0.0 0.0 0.0
1470001000.0 -1.856873728 0.646937664 0.004562899567824913 0.009795331110234316 0.0 0.0 0.0 0.0
1485000500.0 -1.764913792 -0.07974148 0.0064322265494530595 0.007629437127899552 0.0 0.0 0.0 0.0
1500000000.0 -1.399956832 -0.419412512 0.0036854611042406904 0.015351912004271584 0.0 0.0 0.0 0.0
