! Created with skrf 1.8.0 (http://scikit-rf.org).
# Hz S RI R 50.0 
!freq ReS11 ImS11 ReS21 ImS21 ReS12 ImS12 ReS22 ImS22
50000.0 0.999085504 0.000886776 4.846488889237677e-05 7.295940954153602e-05 0.0 0.0 0.0 0.0
15049500.0 0.977389888 0.220655472 7.960574185312667e-06 2.2775961289046256e-05 0.0 0.0 0.0 0.0
30049000.0 0.907754944 0.428294112 -8.525533699392645e-06 1.6893875728811325e-05 0.0 0.0 0.0 0.0
45048500.0 0.794507776 0.616453888 2.7072059428810147e-05 3.165174776032078e-05 0.0 0.0 0.0 0.0
60048000.0 0.645379136 0.773934336 4.3744732772674644e-05 5.0580377417011076e-05 0.0 0.0 0.0 0.0
75047500.0 0.4661072 0.897107968 2.785070607824966e-05 2.707326090338855e-05 0.0 0.0 0.0 0.0
90047000.0 0.252479408 0.982364928 5.0452070153884384e-06 2.570649737268528e-05 0.0 0.0 0.0 0.0
105046500.0 0.032812708 1.014271498 -4.5017335538496354e-05 8.601432830066415e-05 0.0 0.0 0.0 0.0
120046000.0 -0.189026784 0.9993232 -1.3769733397140545e-05 3.5256806267324785e-05 0.0 0.0 0.0 0.0
135045500.0 -0.404690592 0.935541504 3.374375315793033e-06 7.238716981087303e-05 0.0 0.0 0.0 0.0
150045000.0 -0.602053696 0.825042176 2.946689789993711e-06 0.00010961454312399222 0.0 0.0 0.0 0.0
165044500.0 -0.770299328 0.672074624 5.081461605738154e-05 6.256758712736893e-05 0.0 0.0 0.0 0.0
180044000.0 -0.901026048 0.485022368 -7.501911556993058e-06 5.256458454121991e-05 0.0 0.0 0.0 0.0
195043500.0 -0.988227648 0.27319216 -4.7520467847745395e-06 8.359314627620684e-05 0.0 0.0 0.0 0.0
210043000.0 -1.02591312 0.044968536 -1.763419230970987e-05 7.011394202000176e-05 0.0 0.0 0.0 0.0
225042500.0 -1.011157274 -0.189636528 -6.072104820586613e-05 5.755049484392712e-05 0.0 0.0 0.0 0.0
240042000.0 -0.941575424 -0.414317184 -0.00010007772310191968 4.5801555909548453e-05 0.0 0.0 0.0 0.0
255041500.0 -0.82066048 -0.618931328 -6.913896272520958e-05 0.00010434731397253158 0.0 0.0 0.0 0.0
270041000.0 -0.657422016 -0.789471168 -4.209593730746176e-05 5.0875009299323474e-05 0.0 0.0 0.0 0.0
285040500.0 -0.459089952 -0.920091968 -7.508526783813905e-05 6.826844195288861e-05 0.0 0.0 0.0 0.0
300040000.0 -0.238009712 -0.990059584 -0.0005679157228066651 -0.00018445755099204565 0.0 0.0 0.0 0.0
315039500.0 -0.004681634 -1.01723528 -1.7534874465712927e-05 -3.385396206460461e-05 0.0 0.0 0.0 0.0
330039000.0 0.229986912 -0.993318144 0.00029392100204896754 1.8934684563806214e-05 0.0 0.0 0.0 0.0
345038500.0 0.448268224 -0.91919872 -6.784773364607011e-05 -0.0006657319395463101 0.0 0.0 0.0 0.0
360038000.0 0.644573056 -0.796715648 -0.00026095036404682494 -0.0006077696994222643 0.0 0.0 0.0 0.0
375037500.0 0.807593024 -0.636728576 -0.00012320343235720617 -0.0004105257951303465 0.0 0.0 0.0 0.0
390037000.0 0.928664 -0.443467712 -0.0006310895338698554 -0.00012067470598235892 0.0 0.0 0.0 0.0
405036500.0 1.014321328 -0.238419312 -0.0002815584887495165 -0.0003251814139616353 0.0 0.0 0.0 0.0
420036000.0 1.05634284 -0.015569014 -0.00048209063504741305 -0.00011945583604237147 0.0 0.0 0.0 0.0
435035500.0 1.04629004 0.220494672 -4.759471630591004e-06 -0.0005368236827691171 0.0 0.0 0.0 0.0
450035000.0 0.982190912 0.447603648 -0.00011634486174245988 -0.00025996280795169126 0.0 0.0 0.0 0.0
465034500.0 0.864809152 0.66010976 -0.0002659926564477171 -0.0001503551681881496 0.0 0.0 0.0 0.0
480034000.0 0.706455744 0.837482496 0.0003168861221667228 -0.0004244937263636965 0.0 0.0 0.0 0.0
495033500.0 0.514012352 0.96949056 -0.0004715224613820036 -0.0013058105196475701 0.0 0.0 0.0 0.0
510033000.0 0.30013968 1.05341494 -0.00014417917558139323 -0.00048243762340293247 0.0 0.0 0.0 0.0
525032500.0 0.077900272 1.094484568 0.0004126108826737013 8.729072289326655e-05 0.0 0.0 0.0 0.0
540032000.0 -0.146582224 1.081555008 0.00023156339778147977 -0.0007848623396544749 0.0 0.0 0.0 0.0
555031500.0 -0.361123872 1.026370764 0.0007179727209297944 -0.001056386055722844 0.0 0.0 0.0 0.0
570031000.0 -0.557599168 0.929256 0.0003666220741804892 -0.0005565331677946931 0.0 0.0 0.0 0.0
585030500.0 -0.730310464 0.788324352 0.0003698750754917196 -0.0011598197117569584 0.0 0.0 0.0 0.0
600030000.0 -0.876400768 0.637510656 -0.0003864751036858496 -0.001308035388906207 0.0 0.0 0.0 0.0
615029500.0 -0.986047296 0.440273664 0.00042916374564926763 -0.0006626137442381427 0.0 0.0 0.0 0.0
630029000.0 -1.052280188 0.217062672 0.000618078699944268 0.00012923350381462083 0.0 0.0 0.0 0.0
645028500.0 -1.068900704 -0.014066512 0.0009519071234686862 -0.0002495002327605551 0.0 0.0 0.0 0.0
660028000.0 -1.037519456 -0.254243232 0.0014420265697902342 -0.00010069957890681817 0.0 0.0 0.0 0.0
675027500.0 -0.940911616 -0.48028192 0.0008908672629040916 -0.00024248932824306318 0.0 0.0 0.0 0.0
690027000.0 -0.797734272 -0.686169344 0.0007114268301018898 0.0006018358266339557 0.0 0.0 0.0 0.0
705026500.0 -0.61440672 -0.854921024 0.001629453716393731 0.0002959286669227206 0.0 0.0 0.0 0.0
720026000.0 -0.38820656 -0.975018816 0.00026169689339847077 0.0003453012387620256 0.0 0.0 0.0 0.0
735025500.0 -0.133634624 -1.049528836 0.0006074236253671313 0.0002896647967079377 0.0 0.0 0.0 0.0
750025000.0 0.137978144 -1.059520484 0.0005936035225947594 0.001048913269358384 0.0 0.0 0.0 0.0
765024500.0 0.409040288 -0.993828416 -4.711019467996114e-05 0.0006216853292319324 0.0 0.0 0.0 0.0
780024000.0 0.645966464 -0.886634624 -0.00020494030092175846 0.0001839384503634275 0.0 0.0 0.0 0.0
795023500.0 0.870581952 -0.671728576 -0.00013212102058156216 0.0004141903294144933 0.0 0.0 0.0 0.0
810023000.0 1.016347886 -0.42854944 -0.0004844644949714492 0.0006181066147656557 0.0 0.0 0.0 0.0
825022500.0 1.096333624 -0.163133152 -0.0015205486375436054 0.00025007709505127563 0.0 0.0 0.0 0.0
840022000.0 1.105435368 0.11500312 8.224874904671328e-05 0.00042958376023920035 0.0 0.0 0.0 0.0
855021500.0 1.04267156 0.36664848 -0.0004649887805220437 -1.1214953661191547e-05 0.0 0.0 0.0 0.0
870021000.0 0.93115552 0.581151936 0.00040982011365367347 0.00060067981516769 0.0 0.0 0.0 0.0
885020500.0 0.780544896 0.764554816 -0.00023663610024644778 -0.000635169133624386 0.0 0.0 0.0 0.0
900020000.0 0.620851328 0.925885632 -0.0052755936275921175 0.0015488656990789859 0.0 0.0 0.0 0.0
915019500.0 0.427922848 1.020403982 0.002071536468162111 0.00047631912252128446 0.0 0.0 0.0 0.0
930019000.0 0.22706984 1.092866776 0.0008930898971880734 -0.0007409608742805496 0.0 0.0 0.0 0.0
945018500.0 0.027147484 1.107989432 0.001824652839299248 -0.0024531774327068543 0.0 0.0 0.0 0.0
960018000.0 -0.173379008 1.08173096 0.0009143466874935035 0.00024515330826782095 0.0 0.0 0.0 0.0
975017500.0 -0.354705312 1.034303784 -0.001166103717595199 -0.000735139489613132 0.0 0.0 0.0 0.0
990017000.0 -0.527523648 0.962750784 0.0013444691090831753 -0.0007966996250702603 0.0 0.0 0.0 0.0
1005016500.0 -0.69112256 0.856283584 0.0009043491296822154 -0.0004895874400104842 0.0 0.0 0.0 0.0
1020016000.0 -0.833055552 0.73090304 0.0008950166680552605 -0.0003841685757688409 0.0 0.0 0.0 0.0
1035015500.0 -0.944953152 0.563811264 0.004342809773049983 -0.0013900132606642858 0.0 0.0 0.0 0.0
1050015000.0 -1.031104326 0.370918176 0.0028620724375365537 0.00019791711019153698 0.0 0.0 0.0 0.0
1065014500.0 -1.101718664 0.195522336 0.001173552343085906 0.0030066665289588696 0.0 0.0 0.0 0.0
1080014000.0 -1.123538256 -0.025299922 0.003083943818776045 -0.0016568024325745734 0.0 0.0 0.0 0.0
1095013500.0 -1.118409392 -0.25585344 -0.00031078321470689275 -0.001817099407295718 0.0 0.0 0.0 0.0
1110013000.0 -1.051701428 -0.46742368 0.0026374728408198834 -0.0015476199451268694 0.0 0.0 0.0 0.0
1125012500.0 -0.958068224 -0.709219904 0.0008722867147895443 -0.00042051295026391807 0.0 0.0 0.0 0.0
1140012000.0 -0.77608864 -0.902083584 0.001110211087300772 0.0029012535108617165 0.0 0.0 0.0 0.0
1155011500.0 -0.605843456 -1.098151208 -0.0004922764806715649 0.00011707868744830673 0.0 0.0 0.0 0.0
1170011000.0 -0.313245056 -1.202235344 0.004568340402683295 0.00027876288040632906 0.0 0.0 0.0 0.0
1185010500.0 0.048461968 -1.302341088 0.006077328260921464 0.000710971880190975 0.0 0.0 0.0 0.0
1200010000.0 0.437330816 -1.3142872 0.0004943408107636986 0.000625692592023822 0.0 0.0 0.0 0.0
1215009500.0 0.859399616 -1.158546688 -0.006468176215868259 -0.00021310641387147357 0.0 0.0 0.0 0.0
1230009000.0 1.24571312 -0.830878528 -0.0009546124625689025 -0.0016188145364534924 0.0 0.0 0.0 0.0
1245008500.0 1.399349696 -0.353456864 0.0033097367652637237 -0.004441187069102318 0.0 0.0 0.0 0.0
1260008000.0 1.419386624 0.084224536 -0.0021001486805410233 -0.0007951830715538395 0.0 0.0 0.0 0.0
1275007500.0 1.240956432 0.500924 -0.0008309926569819993 -0.0027325643221552893 0.0 0.0 0.0 0.0
1290007000.0 1.014007926 0.69665984 -0.0020674366219563265 -0.0004875166639426945 0.0 0.0 0.0 0.0
1305006500.0 0.782917312 0.86783264 0.0010285830336927034 -0.00013199568918913446 0.0 0.0 0.0 0.0
1320006000.0 0.592288832 0.924871104 0.001420225868768759 -0.0008130487890649756 0.0 0.0 0.0 0.0
1335005500.0 0.416955488 0.9633664 0.00032432963596112425 0.003871225951253985 0.0 0.0 0.0 0.0
1350005000.0 0.278167904 0.993618816 -0.003770199521537091 0.002970380209647663 0.0 0.0 0.0 0.0
1365004500.0 0.171198256 1.0202173 -0.002085557606235005 0.0020556199538546314 0.0 0.0 0.0 0.0
1380004000.0 0.056973576 1.063059448 0.007017719721048676 0.0027413289174516237 0.0 0.0 0.0 0.0
1395003500.0 -0.043321272 1.128655192 0.000736712431986343 0.008135856905907438 0.0 0.0 0.0 0.0
1410003000.0 -0.19391392 1.209977872 -0.0023723343956821297 0.00013188871824953012 0.0 0.0 0.0 0.0
1425002500.0 -0.412658464 1.302401056 0.003358326892919209 0.00975313269517649 0.0 0.0 0.0 0.0
1440002000.0 -0.772419392 1.373329536 -0.005207389895911311 -0.000640055400512944 0.0 0.0 0.0 0.0
1455001500.0 -1.382014624 1.294356 -0.006363718166836531 0.002024852208182786 0.0 0.0 0.0 0.0
1470001000.0 -1.807070848 0.620354432 -0.016554727465694627 0.0001926987824972146 0.0 0.0 0.0 0.0
1485000500.0 -1.728021504 -0.076409512 -0.007675839998961183 0.006857785128614893 0.0 0.0 0.0 0.0
1500000000.0 -1.39905072 -0.385189152 -0.0020378467024775577 0.0030558256653347134 0.0 0.0 0.0 0.0
