! Created with skrf 1.8.0 (http://scikit-rf.org).
# Hz S RI R 50.0 
!freq ReS11 ImS11 ReS21 ImS21 ReS12 ImS12 ReS22 ImS22
50000.0 0.9987248 0.001366026 8.795828497381358e-05 2.338992837666248e-05 0.0 0.0 0.0 0.0
15049500.0 0.977276672 0.219697456 7.808867178900767e-05 3.903590715262855e-05 0.0 0.0 0.0 0.0
30049000.0 0.9080992 0.427998272 -5.102493324846194e-06 3.3549259110595874e-05 0.0 0.0 0.0 0.0
45048500.0 0.794306048 0.615976384 -2.4941887290091234e-05 6.342159128276843e-06 0.0 0.0 0.0 0.0
60048000.0 0.645212736 0.773310208 3.758015216910177e-05 5.174769741686248e-05 0.0 0.0 0.0 0.0
75047500.0 0.466444448 0.896278592 7.600491761871619e-05 6.91917764389105e-05 0.0 0.0 0.0 0.0
90047000.0 0.25274736 0.981791232 9.43359366657481e-06 5.110933208851354e-05 0.0 0.0 0.0 0.0
105046500.0 0.033318792 1.014135958 9.01149434025884e-06 4.9330523114553353e-05 0.0 0.0 0.0 0.0
120046000.0 -0.18841616 0.998810048 1.8749612426409915e-05 8.515705840304382e-05 0.0 0.0 0.0 0.0
135045500.0 -0.40400656 0.934572608 3.365683555829885e-05 7.284512031153237e-05 0.0 0.0 0.0 0.0
150045000.0 -0.601172672 0.824674944 -4.528999768393078e-06 8.34963464476015e-05 0.0 0.0 0.0 0.0
165044500.0 -0.769633984 0.671681728 -1.890639784544099e-05 9.978581339303651e-05 0.0 0.0 0.0 0.0
180044000.0 -0.899849152 0.48542896 4.000897308306087e-06 4.537619346891483e-05 0.0 0.0 0.0 0.0
195043500.0 -0.987319104 0.273595168 -2.1032084415839507e-05 4.983745905566415e-05 0.0 0.0 0.0 0.0
210043000.0 -1.025307774 0.045312364 -4.5083009292655155e-05 7.037050826247008e-05 0.0 0.0 0.0 0.0
225042500.0 -1.009562374 -0.188462144 -8.005330275362382e-05 5.8897078707153576e-05 0.0 0.0 0.0 0.0
240042000.0 -0.940001472 -0.413393184 -4.564489090596415e-05 5.515457623065045e-05 0.0 0.0 0.0 0.0
255041500.0 -0.820448 -0.617225216 -7.873837504303339e-05 5.586690068889284e-05 0.0 0.0 0.0 0.0
270041000.0 -0.657378496 -0.787924032 -7.419451798136783e-05 7.748816365428004e-05 0.0 0.0 0.0 0.0
285040500.0 -0.460380032 -0.919152768 -4.057313290212507e-05 3.619199602821728e-05 0.0 0.0 0.0 0.0
300040000.0 -0.238703392 -0.9878912 4.161452094247859e-06 -0.00017592893548949612 0.0 0.0 0.0 0.0
315039500.0 -0.004661299 -1.01660943 -0.00028080701266735165 0.0003640790768800616 0.0 0.0 0.0 0.0
330039000.0 0.225856 -0.991109248 -0.00023921425920693455 8.007756534808939e-05 0.0 0.0 0.0 0.0
345038500.0 0.446979904 -0.916535104 -7.692208783692631e-05 0.00029250975451736334 0.0 0.0 0.0 0.0
360038000.0 0.64313056 -0.795895936 0.0002021933333148178 -0.00036734122629109164 0.0 0.0 0.0 0.0
375037500.0 0.806576768 -0.638304192 -0.0003552397128180288 -0.00011286182118840904 0.0 0.0 0.0 0.0
390037000.0 0.926601088 -0.44132336 0.00010633962800654934 0.0005516010641300728 0.0 0.0 0.0 0.0
405036500.0 1.015288116 -0.239272736 -0.0004629258003110817 -0.0004341971150414803 0.0 0.0 0.0 0.0
420036000.0 1.054930328 -0.016782024 -0.0005478690956563824 -9.892379376903034e-05 0.0 0.0 0.0 0.0
435035500.0 1.046100496 0.219088128 -0.00023631281183030285 -0.0011083511838505232 0.0 0.0 0.0 0.0
450035000.0 0.980857088 0.444207712 -0.00030496045337267383 -0.0009710782240910013 0.0 0.0 0.0 0.0
465034500.0 0.867342144 0.660307968 -0.0002843389192198596 -0.0003104987530246815 0.0 0.0 0.0 0.0
480034000.0 0.703265728 0.83414304 0.00018282309927253218 -0.0005054777006084303 0.0 0.0 0.0 0.0
495033500.0 0.513976448 0.968122624 -5.086762799110503e-05 -0.00033638931192675925 0.0 0.0 0.0 0.0
510033000.0 0.301428864 1.051998736 0.0002824168949489661 -0.0008619447569446575 0.0 0.0 0.0 0.0
525032500.0 0.078742024 1.090533968 -0.0005035806717930462 -0.0007123394738532072 0.0 0.0 0.0 0.0
540032000.0 -0.145242928 1.078527096 0.0007090826233586068 -0.00046908994900858434 0.0 0.0 0.0 0.0
555031500.0 -0.36112352 1.02047646 -0.0002451443108221961 -0.0009143966882926198 0.0 0.0 0.0 0.0
570031000.0 -0.554876544 0.921068608 -0.00026204763289422824 -0.0005131976336963487 0.0 0.0 0.0 0.0
585030500.0 -0.72190656 0.787824576 0.00013180947853564935 -0.00011014644714270266 0.0 0.0 0.0 0.0
600030000.0 -0.876623744 0.6396448 -0.0002438064366117039 -1.1182894603062718e-05 0.0 0.0 0.0 0.0
615029500.0 -0.981982976 0.438194112 0.0005774755493559939 -3.5310951983670475e-05 0.0 0.0 0.0 0.0
630029000.0 -1.049110532 0.217353632 0.0005869581614195202 -0.0004590846926657615 0.0 0.0 0.0 0.0
645028500.0 -1.068558928 -0.018487488 0.0015530426137500208 -0.0008528401778331651 0.0 0.0 0.0 0.0
660028000.0 -1.028936982 -0.25373912 0.0004402185240982579 0.0005395942119461175 0.0 0.0 0.0 0.0
675027500.0 -0.945617216 -0.481510176 0.0010292705867838323 0.0002212999661989707 0.0 0.0 0.0 0.0
690027000.0 -0.800314432 -0.681123008 0.0005112225322514718 -0.00011447913502203335 0.0 0.0 0.0 0.0
705026500.0 -0.609218688 -0.851674944 0.0009787822392003625 0.0005910384477772355 0.0 0.0 0.0 0.0
720026000.0 -0.38741376 -0.978572416 0.001265815580718887 0.00017946794682423587 0.0 0.0 0.0 0.0
735025500.0 -0.134019184 -1.045616388 0.0006314299793059396 0.0009132478860806088 0.0 0.0 0.0 0.0
750025000.0 0.14023536 -1.054130556 1.6373161552013494e-05 0.0011295421235698964 0.0 0.0 0.0 0.0
765024500.0 0.40899968 -0.98955776 -5.418277703270724e-05 0.001162683512250012 0.0 0.0 0.0 0.0
780024000.0 0.623818688 -0.885095488 0.0007763632181395059 0.0005058094213486636 0.0 0.0 0.0 0.0
795023500.0 0.865024576 -0.670267904 -0.00016627821164899372 0.0008602353607099702 0.0 0.0 0.0 0.0
810023000.0 1.022194862 -0.424902656 -5.6164256078305655e-05 0.0008118969290465204 0.0 0.0 0.0 0.0
825022500.0 1.094984296 -0.160015248 -0.0005321743621017166 0.0010288651012074572 0.0 0.0 0.0 0.0
840022000.0 1.100097536 0.121222784 -0.0010285272172934358 0.0009288553766736893 0.0 0.0 0.0 0.0
855021500.0 1.040382028 0.364117536 -0.001030935911904189 -2.8464550361417614e-05 0.0 0.0 0.0 0.0
870021000.0 0.924251264 0.587998528 -0.0008225384824136398 0.00016434820223436086 0.0 0.0 0.0 0.0
885020500.0 0.774749312 0.766076608 -0.000568111638673297 -0.00020059948691096184 0.0 0.0 0.0 0.0
900020000.0 0.615119104 0.922800256 0.0031992082644643127 -0.004334397095954205 0.0 0.0 0.0 0.0
915019500.0 0.419330432 1.024374246 -0.000303561238626347 -0.0019841854308858434 0.0 0.0 0.0 0.0
930019000.0 0.22100616 1.085799816 -3.6609896766710025e-05 -0.0018947564778891062 0.0 0.0 0.0 0.0
945018500.0 0.02101964 1.105329392 -7.95086314944712e-05 -0.00199580334640036 0.0 0.0 0.0 0.0
960018000.0 -0.176643696 1.082751392 -0.00075751507266723 -0.001713322081590896 0.0 0.0 0.0 0.0
975017500.0 -0.3564688 1.03953862 0.0017058648708914888 -0.001995083070119729 0.0 0.0 0.0 0.0
990017000.0 -0.535606752 0.958598592 0.0017697048655122216 -0.000834114345959454 0.0 0.0 0.0 0.0
1005016500.0 -0.690733056 0.849392192 -0.00013175143363744818 0.00033025743918415685 0.0 0.0 0.0 0.0
1020016000.0 -0.81115584 0.713767616 0.0023639936053008706 0.003856002076558906 0.0 0.0 0.0 0.0
1035015500.0 -0.945822016 0.563580736 0.0019141309696196897 0.0009990412496247534 0.0 0.0 0.0 0.0
1050015000.0 -1.032247662 0.393917248 0.0011471232211427806 0.0017376072267540816 0.0 0.0 0.0 0.0
1065014500.0 -1.10257232 0.177341872 0.0008464589213211414 0.003007277995407284 0.0 0.0 0.0 0.0
1080014000.0 -1.129045488 -0.04579722 0.0009641641655828335 -0.0010502191962680739 0.0 0.0 0.0 0.0
1095013500.0 -1.119021296 -0.267036048 0.003764005038754361 0.00026294303818086046 0.0 0.0 0.0 0.0
1110013000.0 -1.068269368 -0.494856832 0.0028889203155912273 -0.0001758637793699537 0.0 0.0 0.0 0.0
1125012500.0 -0.95448864 -0.72466688 0.0018957672580352785 0.004322657394245165 0.0 0.0 0.0 0.0
1140012000.0 -0.780587776 -0.920099136 0.004891440248192194 -0.004010361519377334 0.0 0.0 0.0 0.0
1155011500.0 -0.544437632 -1.122479912 -0.0010360342810693624 -0.003003435639130976 0.0 0.0 0.0 0.0
1170011000.0 -0.30415456 -1.257542608 0.0038059356463052627 0.0034882557365088556 0.0 0.0 0.0 0.0
1185010500.0 0.036187672 -1.33743584 -0.0020062771461146892 -0.0007233976205517254 0.0 0.0 0.0 0.0
1200010000.0 0.436225056 -1.316795712 0.009528731610380304 -0.003008885069480582 0.0 0.0 0.0 0.0
1215009500.0 0.85090144 -1.209840064 0.0021878048752087937 0.0012811996466588003 0.0 0.0 0.0 0.0
1230009000.0 1.27800096 -0.860983872 0.006980994702789092 -0.0024388726842356143 0.0 0.0 0.0 0.0
1245008500.0 1.434451584 -0.385694688 0.0024216103057325355 -0.002216605215998098 0.0 0.0 0.0 0.0
1260008000.0 1.451850784 0.07301868 0.003359746910061659 0.0017769199549648074 0.0 0.0 0.0 0.0
1275007500.0 1.257620576 0.479402688 -0.005284901325956101 0.005583912122722512 0.0 0.0 0.0 0.0
1290007000.0 1.023200154 0.713085952 0.0034847577264577054 -0.005035459105567071 0.0 0.0 0.0 0.0
1305006500.0 0.790110848 0.858761536 -0.0004891466938392517 0.0053262360061751045 0.0 0.0 0.0 0.0
1320006000.0 0.59840992 0.948203008 0.005333242079314281 -0.002130900489794979 0.0 0.0 0.0 0.0
1335005500.0 0.430647424 0.97539808 0.0007931510176923713 0.00031642475115508203 0.0 0.0 0.0 0.0
1350005000.0 0.301840032 0.991541504 0.007595830354267085 -0.001897960380910984 0.0 0.0 0.0 0.0
1365004500.0 0.124614496 1.00304091 0.0029736667768532066 0.0033356883889430486 0.0 0.0 0.0 0.0
1380004000.0 0.057574448 1.083352448 -0.005030193470491827 0.00809899795212756 0.0 0.0 0.0 0.0
1395003500.0 -0.042461148 1.137753728 0.012868210281563463 0.004895676184631125 0.0 0.0 0.0 0.0
1410003000.0 -0.169301056 1.210807088 0.0004903608643948107 0.000940795407492497 0.0 0.0 0.0 0.0
1425002500.0 -0.407037344 1.32818688 -0.006318743098396406 0.015157895604853457 0.0 0.0 0.0 0.0
1440002000.0 -0.762108928 1.425921312 0.0012881252189418653 0.007079359764634862 0.0 0.0 0.0 0.0
1455001500.0 -1.375150688 1.308517696 0.0024406060258237803 0.005644102904879185 0.0 0.0 0.0 0.0
1470001000.0 -1.899022592 0.650623168 -0.009952314780677594 0.0067065353981398835 0.0 0.0 0.0 0.0
1485000500.0 -1.724969984 -0.109743304 -0.007799757737621426 0.00021271626532706785 0.0 0.0 0.0 0.0
1500000000.0 -1.432565088 -0.390885664 0.002712363357138727 -0.004514853760920848 0.0 0.0 0.0 0.0
