! Created with skrf 1.8.0 (http://scikit-rf.org).
# Hz S RI R 50.0 
!freq ReS11 ImS11 ReS21 ImS21 ReS12 ImS12 ReS22 ImS22
50000.0 0.009890898 -0.004435201 0.9947133876763188 -0.0016742139245375855 0.0 0.0 0.0 0.0
15049500.0 0.015132208 0.005551396 0.9975770980881504 0.022991408324099457 0.0 0.0 0.0 0.0
30049000.0 0.015040588 0.009462304 0.9969440104729045 0.04493373000440631 0.0 0.0 0.0 0.0
45048500.0 0.013862294 0.013300026 0.9958632250512431 0.06671626993531965 0.0 0.0 0.0 0.0
60048000.0 0.012136688 0.017489058 0.9944896641818305 0.08826172883710905 0.0 0.0 0.0 0.0
75047500.0 0.009851196 0.02254979 0.9928437755747834 0.11058441418943808 0.0 0.0 0.0 0.0
90047000.0 0.007954549 0.027269238 0.9895701160455571 0.13381640338677037 0.0 0.0 0.0 0.0
105046500.0 0.006401295 0.032572978 0.9867382718435578 0.15399419526519995 0.0 0.0 0.0 0.0
120046000.0 0.006018553 0.038140032 0.9838217002451096 0.17512184541850648 0.0 0.0 0.0 0.0
135045500.0 0.006731774 0.043684372 0.9790682529637857 0.19660130927446134 0.0 0.0 0.0 0.0
150045000.0 0.008854054 0.04839644 0.9748915295222105 0.21690647986275716 0.0 0.0 0.0 0.0
165044500.0 0.012142446 0.052502556 0.9682750016189804 0.2381158611664288 0.0 0.0 0.0 0.0
180044000.0 0.016467858 0.05562162 0.9624583651190011 0.260322322680215 0.0 0.0 0.0 0.0
195043500.0 0.021807972 0.057547416 0.9559811368014538 0.28277244459437834 0.0 0.0 0.0 0.0
210043000.0 0.027504928 0.058241064 0.9497553234648238 0.3056949765230283 0.0 0.0 0.0 0.0
225042500.0 0.033398162 0.057555008 0.9444168005131262 0.3287040126012675 0.0 0.0 0.0 0.0
240042000.0 0.03905912 0.055839712 0.93971915582873 0.3515772190558344 0.0 0.0 0.0 0.0
255041500.0 0.043861364 0.053086904 0.9350891519741966 0.37339385292378874 0.0 0.0 0.0 0.0
270041000.0 0.04751238 0.049742828 0.9306466919291789 0.3930466856715311 0.0 0.0 0.0 0.0
285040500.0 0.049652964 0.046134872 0.9261867235732033 0.41324015013957344 0.0 0.0 0.0 0.0
300040000.0 0.049792448 0.042236664 0.9235012003423636 0.4309332696168539 0.0 0.0 0.0 0.0
315039500.0 0.048369284 0.03860794 0.9139011968364072 0.44670422996438747 0.0 0.0 0.0 0.0
330039000.0 0.045240512 0.03701904 0.9045521753743893 0.45750626261316235 0.0 0.0 0.0 0.0
345038500.0 0.039297384 0.035440144 0.8920958507302736 0.4764138177419701 0.0 0.0 0.0 0.0
360038000.0 0.0313773 0.035054976 0.8797017939102938 0.4915541165448493 0.0 0.0 0.0 0.0
375037500.0 0.02168275 0.036834956 0.8658437722098441 0.5085925367264166 0.0 0.0 0.0 0.0
390037000.0 0.00975266 0.038894204 0.8471419881317546 0.5302858236906024 0.0 0.0 0.0 0.0
405036500.0 -0.001901623 0.044728884 0.8370705384155164 0.5497378866651512 0.0 0.0 0.0 0.0
420036000.0 -0.015434868 0.051359524 0.8238697818597704 0.571586791684573 0.0 0.0 0.0 0.0
435035500.0 -0.027878492 0.059209752 0.8090094269098915 0.5940049527114609 0.0 0.0 0.0 0.0
450035000.0 -0.041259328 0.067880608 0.7963605035120129 0.6135749856056185 0.0 0.0 0.0 0.0
465034500.0 -0.052331812 0.078154024 0.7872977797079188 0.633898474652134 0.0 0.0 0.0 0.0
480034000.0 -0.061210284 0.088400736 0.7717798470617891 0.6504373713578491 0.0 0.0 0.0 0.0
495033500.0 -0.070049552 0.098910264 0.756434471233872 0.6672721077921604 0.0 0.0 0.0 0.0
510033000.0 -0.075972816 0.109869376 0.7430048037993955 0.6823014397026551 0.0 0.0 0.0 0.0
525032500.0 -0.078767912 0.119662512 0.7239626263025012 0.6993592472438908 0.0 0.0 0.0 0.0
540032000.0 -0.080529048 0.130302784 0.7030189616154998 0.7161087925370129 0.0 0.0 0.0 0.0
555031500.0 -0.077888704 0.138778848 0.6856105427073994 0.7332538868629389 0.0 0.0 0.0 0.0
570031000.0 -0.07580508 0.147245936 0.665742856451325 0.7542554015542924 0.0 0.0 0.0 0.0
585030500.0 -0.066379652 0.153797008 0.6457512729685426 0.7690558151403744 0.0 0.0 0.0 0.0
600030000.0 -0.060044128 0.160525344 0.6355479485706945 0.801306589060612 0.0 0.0 0.0 0.0
615029500.0 -0.050839372 0.164795456 0.622873620788863 0.8206216439168772 0.0 0.0 0.0 0.0
630029000.0 -0.038852944 0.164613152 0.608788035718364 0.8390419790144042 0.0 0.0 0.0 0.0
645028500.0 -0.028157512 0.163309136 0.5984028706119036 0.8554140205121092 0.0 0.0 0.0 0.0
660028000.0 -0.015473962 0.16007896 0.5884264751219898 0.8695353413473423 0.0 0.0 0.0 0.0
675027500.0 -0.003916117 0.15402232 0.5762129832189391 0.8794136254491183 0.0 0.0 0.0 0.0
690027000.0 0.008554866 0.14799928 0.5644478303120423 0.8865154989327121 0.0 0.0 0.0 0.0
705026500.0 0.016190652 0.141043088 0.5494285447606618 0.895022286921418 0.0 0.0 0.0 0.0
720026000.0 0.023713702 0.131239888 0.5261845768997194 0.9001317803836407 0.0 0.0 0.0 0.0
735025500.0 0.027245332 0.122143176 0.5044549428135178 0.8991717644882417 0.0 0.0 0.0 0.0
750025000.0 0.029099418 0.112384848 0.4759167265116184 0.9013749116606156 0.0 0.0 0.0 0.0
765024500.0 0.027367292 0.101855 0.4487702242213116 0.9106888851189372 0.0 0.0 0.0 0.0
780024000.0 0.021185526 0.09610652 0.4272575400219186 0.9048511216130746 0.0 0.0 0.0 0.0
795023500.0 0.013247876 0.082812136 0.38614969205336513 0.921206483534541 0.0 0.0 0.0 0.0
810023000.0 0.001027957 0.073846752 0.35830167126188833 0.925286645704163 0.0 0.0 0.0 0.0
825022500.0 -0.012776346 0.067063668 0.3352681782962521 0.9316406356513797 0.0 0.0 0.0 0.0
840022000.0 -0.02988058 0.058371696 0.31504004371794425 0.9366605757230668 0.0 0.0 0.0 0.0
855021500.0 -0.047782568 0.056099964 0.29934702725087103 0.9409882840504945 0.0 0.0 0.0 0.0
870021000.0 -0.068286904 0.052832676 0.2852758435935888 0.9461978713955487 0.0 0.0 0.0 0.0
885020500.0 -0.087586976 0.054952672 0.275643027481191 0.9417302140595099 0.0 0.0 0.0 0.0
900020000.0 -0.099415656 0.061755136 0.2739833839031295 0.9368852737836394 0.0 0.0 0.0 0.0
915019500.0 -0.117728904 0.069683464 0.25641528087003085 0.9405695302068767 0.0 0.0 0.0 0.0
930019000.0 -0.137761648 0.076842056 0.23079020008344112 0.9367525092979685 0.0 0.0 0.0 0.0
945018500.0 -0.153003456 0.084607592 0.21002128476109605 0.944248958196509 0.0 0.0 0.0 0.0
960018000.0 -0.165396352 0.092191448 0.18675424412834607 0.9522571747762476 0.0 0.0 0.0 0.0
975017500.0 -0.170538048 0.101757272 0.16155400671150946 0.9477655742327444 0.0 0.0 0.0 0.0
990017000.0 -0.183054352 0.116754192 0.1531277184873478 0.9563437205689741 0.0 0.0 0.0 0.0
1005016500.0 -0.183058912 0.124997848 0.12809629742030126 0.9651809655969533 0.0 0.0 0.0 0.0
1020016000.0 -0.18304712 0.140348176 0.12096654169777643 0.9762302315274426 0.0 0.0 0.0 0.0
1035015500.0 -0.172251456 0.151479232 0.10925204398499289 0.9855242075055457 0.0 0.0 0.0 0.0
1050015000.0 -0.156960512 0.169862032 0.11030521875092368 0.9933882081913519 0.0 0.0 0.0 0.0
1065014500.0 -0.147560304 0.173047296 0.0937312622311459 0.9922779676466275 0.0 0.0 0.0 0.0
1080014000.0 -0.136544128 0.17560696 0.09420559602403193 0.998761072348636 0.0 0.0 0.0 0.0
1095013500.0 -0.11343888 0.188669696 0.08770015151476927 0.9999077367175585 0.0 0.0 0.0 0.0
1110013000.0 -0.112539504 0.197647728 0.0772853854238562 0.9957081012227669 0.0 0.0 0.0 0.0
1125012500.0 -0.092177304 0.211880736 0.057460970690851064 1.008361652731865 0.0 0.0 0.0 0.0
1140012000.0 -0.081669744 0.2130868 0.04571776892897505 0.9958796043031231 0.0 0.0 0.0 0.0
1155011500.0 -0.072103024 0.209031488 0.035356047697156306 0.9722613293465179 0.0 0.0 0.0 0.0
1170011000.0 -0.060181304 0.2028716 -0.010411811229419568 0.9743830292794371 0.0 0.0 0.0 0.0
1185010500.0 -0.051632876 0.199093376 -0.03389316508862966 0.9997570675797397 0.0 0.0 0.0 0.0
1200010000.0 -0.048441008 0.187578208 -0.06608515851900784 1.0016910873297848 0.0 0.0 0.0 0.0
1215009500.0 -0.027402578 0.179498752 -0.09023354225415446 1.025867795464355 0.0 0.0 0.0 0.0
1230009000.0 -0.05038522 0.161724208 -0.11779728212831549 1.0356878853065343 0.0 0.0 0.0 0.0
1245008500.0 -0.039293432 0.151398512 -0.1349449786509572 1.0491349009471809 0.0 0.0 0.0 0.0
1260008000.0 -0.049643428 0.125878024 -0.13866974773870688 1.057209918695682 0.0 0.0 0.0 0.0
1275007500.0 -0.047132016 0.101982448 -0.14610199312619554 1.0572334403152488 0.0 0.0 0.0 0.0
1290007000.0 -0.064513936 0.091579128 -0.167438475079967 1.0514452664992693 0.0 0.0 0.0 0.0
1305006500.0 -0.078879312 0.06255754 -0.148954368733935 1.0736925716442394 0.0 0.0 0.0 0.0
1320006000.0 -0.09442456 0.06781528 -0.15100011624271617 1.0589454599338481 0.0 0.0 0.0 0.0
1335005500.0 -0.099096744 0.055608688 -0.15124110415997774 1.0871954090074327 0.0 0.0 0.0 0.0
1350005000.0 -0.106490408 0.033422746 -0.16917107075136875 1.103630032095619 0.0 0.0 0.0 0.0
1365004500.0 -0.14120456 0.046647956 -0.19187785427413306 1.1339715990921237 0.0 0.0 0.0 0.0
1380004000.0 -0.176228432 0.051672212 -0.17278451948018453 1.17214517243238 0.0 0.0 0.0 0.0
1395003500.0 -0.219899648 0.031520798 -0.19085227699277946 1.2117572916069639 0.0 0.0 0.0 0.0
1410003000.0 -0.241005952 0.079003968 -0.2054818340125233 1.25876928091678 0.0 0.0 0.0 0.0
1425002500.0 -0.23632168 0.081444944 -0.2913858864611945 1.3196314813084036 0.0 0.0 0.0 0.0
1440002000.0 -0.321664832 0.098457288 -0.35641853729863926 1.3814858687232734 0.0 0.0 0.0 0.0
1455001500.0 -0.371107936 0.095400784 -0.4606480364312354 1.420669583882233 0.0 0.0 0.0 0.0
1470001000.0 -0.436971136 0.057304836 -0.5829305445937184 1.4268759254239494 0.0 0.0 0.0 0.0
1485000500.0 -0.457189728 0.005856632 -0.7726509896662846 1.404460193119911 0.0 0.0 0.0 0.0
1500000000.0 -0.45791824 -0.0397979 -0.8575874467419425 1.286675568790045 0.0 0.0 0.0 0.0
