! Created with skrf 1.8.0 (http://scikit-rf.org).
# Hz S RI R 50.0 
!freq ReS11 ImS11 ReS21 ImS21 ReS12 ImS12 ReS22 ImS22
50000.0 0.998693056 0.001192506 -2.3990621798984405e-05 -5.103670771805421e-05 0.0 0.0 0.0 0.0
15049500.0 0.97717696 0.219614928 3.8772911182279586e-05 2.226596738188258e-05 0.0 0.0 0.0 0.0
30049000.0 0.9073792 0.42778528 -3.918000909080067e-06 2.7457607099759748e-06 0.0 0.0 0.0 0.0
45048500.0 0.794286592 0.615884864 2.036093800172056e-05 5.3086704377745014e-05 0.0 0.0 0.0 0.0
60048000.0 0.645207296 0.773041472 3.608686713869571e-05 7.381796943436211e-06 0.0 0.0 0.0 0.0
75047500.0 0.466295872 0.89615104 2.1433997325772443e-05 7.095293043024214e-05 0.0 0.0 0.0 0.0
90047000.0 0.2526784 0.982021504 1.5969271354611967e-05 2.4404513381806442e-05 0.0 0.0 0.0 0.0
105046500.0 0.032953396 1.013578058 1.69882014557147e-05 6.12512758422227e-05 0.0 0.0 0.0 0.0
120046000.0 -0.188348064 0.998396928 -9.408129931866848e-06 9.969880968288996e-05 0.0 0.0 0.0 0.0
135045500.0 -0.404207168 0.936312192 3.2641921199461522e-06 0.00010669936998316383 0.0 0.0 0.0 0.0
150045000.0 -0.601033856 0.824740672 -2.2612942178640036e-06 6.954913480741695e-05 0.0 0.0 0.0 0.0
165044500.0 -0.76952288 0.671813376 7.779904937120284e-06 9.356085734520272e-05 0.0 0.0 0.0 0.0
180044000.0 -0.899490816 0.48512592 -5.136589648919849e-05 5.332204072295945e-05 0.0 0.0 0.0 0.0
195043500.0 -0.987213568 0.273644608 -4.0352256575212705e-05 3.772664150554887e-05 0.0 0.0 0.0 0.0
210043000.0 -1.02530539 0.045420108 -2.590773052095846e-05 4.25581182532005e-05 0.0 0.0 0.0 0.0
225042500.0 -1.00892079 -0.188407456 -5.059156399031348e-05 8.182180106190535e-05 0.0 0.0 0.0 0.0
240042000.0 -0.940552256 -0.413131968 -4.526367405532366e-05 8.126894878127452e-05 0.0 0.0 0.0 0.0
255041500.0 -0.8203696 -0.617263488 -6.814273804667674e-05 5.860714714522448e-05 0.0 0.0 0.0 0.0
270041000.0 -0.65656288 -0.788301504 -5.09505372982064e-05 3.7347948458035526e-05 0.0 0.0 0.0 0.0
285040500.0 -0.459527296 -0.918906752 -3.68931498597261e-05 7.453705944983203e-05 0.0 0.0 0.0 0.0
300040000.0 -0.239411456 -0.990123968 0.0003211271716921639 0.0005223838417964241 0.0 0.0 0.0 0.0
315039500.0 -0.006639037 -1.017849802 -0.00033508670111726934 -0.00015768683262513012 0.0 0.0 0.0 0.0
330039000.0 0.228176288 -0.992003456 5.548591647854285e-05 -0.0002382513474558668 0.0 0.0 0.0 0.0
345038500.0 0.449193376 -0.91720192 -0.0003386263122776342 0.0003840146736796006 0.0 0.0 0.0 0.0
360038000.0 0.644961536 -0.795005952 -8.534031211895119e-05 6.053504446549943e-05 0.0 0.0 0.0 0.0
375037500.0 0.80560672 -0.63795008 -0.0005127805297816283 -0.0004265962155468243 0.0 0.0 0.0 0.0
390037000.0 0.93244832 -0.4581976 0.0001844412910875141 -0.00036634900473042213 0.0 0.0 0.0 0.0
405036500.0 1.012480378 -0.239049616 -0.0004938886692494814 0.00023686033271102275 0.0 0.0 0.0 0.0
420036000.0 1.055645228 -0.017376492 -0.0005235961051349922 -0.00015967568802878595 0.0 0.0 0.0 0.0
435035500.0 1.045551656 0.218047376 0.0005032490356771346 -0.00035653968539004746 0.0 0.0 0.0 0.0
450035000.0 0.981857984 0.442813312 2.9822952498469244e-06 -0.001026012093468709 0.0 0.0 0.0 0.0
465034500.0 0.864668736 0.660193216 0.00013248139498759024 -0.0011725565321242049 0.0 0.0 0.0 0.0
480034000.0 0.705377024 0.83192416 -0.0005373100311951874 0.00019096890763427077 0.0 0.0 0.0 0.0
495033500.0 0.513287296 0.965039104 0.00027199307971391293 -0.00011307377346556096 0.0 0.0 0.0 0.0
510033000.0 0.30137232 1.054912092 0.00015207088474584367 -0.0006167552337975061 0.0 0.0 0.0 0.0
525032500.0 0.077095448 1.08818388 6.880405301960437e-07 3.245242655378496e-05 0.0 0.0 0.0 0.0
540032000.0 -0.146442768 1.078467728 0.00034746496026747255 -0.0013366367892544047 0.0 0.0 0.0 0.0
555031500.0 -0.359130176 1.020785808 6.042316918492374e-05 -0.0006939556608700949 0.0 0.0 0.0 0.0
570031000.0 -0.55844864 0.924629824 0.001119449286810008 -0.0009337348650953143 0.0 0.0 0.0 0.0
585030500.0 -0.730625792 0.786789888 0.0006976050312904734 -0.0008598223492316409 0.0 0.0 0.0 0.0
600030000.0 -0.873644608 0.640588864 0.0010670559405677703 -0.0009125988928110921 0.0 0.0 0.0 0.0
615029500.0 -0.984692928 0.44229184 0.000698708916966602 -0.0009005744843267313 0.0 0.0 0.0 0.0
630029000.0 -1.049668072 0.216679632 0.0009516877842857894 0.0002269064416674957 0.0 0.0 0.0 0.0
645028500.0 -1.067213416 -0.0199146 0.0005689609182126894 -0.000673392271987564 0.0 0.0 0.0 0.0
660028000.0 -1.029428362 -0.254592832 0.0004489297608851868 -0.00019394694494260278 0.0 0.0 0.0 0.0
675027500.0 -0.938494656 -0.47368448 0.00056523565847532 0.0004930826846979839 0.0 0.0 0.0 0.0
690027000.0 -0.805613696 -0.681554944 0.0010876918682495727 -5.079563505611848e-05 0.0 0.0 0.0 0.0
705026500.0 -0.605457792 -0.855391232 0.0013243834442158947 0.0006185263339420916 0.0 0.0 0.0 0.0
720026000.0 -0.39052448 -0.978152384 0.0009754277173904046 0.0007531735704122556 0.0 0.0 0.0 0.0
735025500.0 -0.131573152 -1.04367304 -0.00028248767683471484 0.00040784666366482114 0.0 0.0 0.0 0.0
750025000.0 0.144050304 -1.052135704 0.0002845860374917545 0.0004025724315880829 0.0 0.0 0.0 0.0
765024500.0 0.4090848 -0.99283008 0.0009368970855394038 0.0013425871717932403 0.0 0.0 0.0 0.0
780024000.0 0.675582144 -0.888600384 -0.0005727910539827164 0.00015698880662763474 0.0 0.0 0.0 0.0
795023500.0 0.86875456 -0.664768192 0.00012240186192553077 0.0006821276221105281 0.0 0.0 0.0 0.0
810023000.0 1.021256804 -0.422021184 -5.789738341705077e-06 0.0011395644586902204 0.0 0.0 0.0 0.0
825022500.0 1.09564924 -0.158224096 -0.0011258204990789859 0.0002313111913625081 0.0 0.0 0.0 0.0
840022000.0 1.109928368 0.115296744 -0.001191823658699739 0.0007924401945822592 0.0 0.0 0.0 0.0
855021500.0 1.0406121 0.36614992 -0.00033672875103169745 -0.00034735768231843256 0.0 0.0 0.0 0.0
870021000.0 0.922924096 0.587593344 -0.001248694983310036 -0.0008846435910265493 0.0 0.0 0.0 0.0
885020500.0 0.766270592 0.764633088 -0.0008571726089134342 -3.327077590824556e-05 0.0 0.0 0.0 0.0
900020000.0 0.6191408 0.920876864 0.0030638254912342885 0.0002914281339901294 0.0 0.0 0.0 0.0
915019500.0 0.422379776 1.0251714 -0.0021059487311876845 0.0018652799824876107 0.0 0.0 0.0 0.0
930019000.0 0.2301716 1.093546984 0.00012077108159482267 0.0006183517992885738 0.0 0.0 0.0 0.0
945018500.0 0.021030736 1.102116104 0.0011930842213014924 -0.0005183113153177454 0.0 0.0 0.0 0.0
960018000.0 -0.170883072 1.083224056 -0.00040404285032304024 -0.0013381610086954532 0.0 0.0 0.0 0.0
975017500.0 -0.357952928 1.034663796 -0.00015512741835815071 -0.00033701627670416055 0.0 0.0 0.0 0.0
990017000.0 -0.536423392 0.960449728 0.0034299992195199786 8.498384750845097e-05 0.0 0.0 0.0 0.0
1005016500.0 -0.69279136 0.847952128 0.0016831146089455365 -0.0012425327765182349 0.0 0.0 0.0 0.0
1020016000.0 -0.811350976 0.721367872 0.0033126794912136073 -0.0014708626838208778 0.0 0.0 0.0 0.0
1035015500.0 -0.949520768 0.560997568 0.003863472395686704 0.000987556415798529 0.0 0.0 0.0 0.0
1050015000.0 -1.03370416 0.351764064 0.000690291983828928 -0.0009261050599961773 0.0 0.0 0.0 0.0
1065014500.0 -1.102452632 0.179282896 0.00274134181144435 0.00038149327695256695 0.0 0.0 0.0 0.0
1080014000.0 -1.133981344 -0.035237608 0.002289590291338773 -0.001015402010388118 0.0 0.0 0.0 0.0
1095013500.0 -1.112464072 -0.261566544 -0.00012190788440804326 -0.001787088002022048 0.0 0.0 0.0 0.0
1110013000.0 -1.056254984 -0.48321776 0.0022723032908393923 0.00021754300331076602 0.0 0.0 0.0 0.0
1125012500.0 -0.9545744 -0.717833984 0.0025393905883194603 -0.0015726714403023101 0.0 0.0 0.0 0.0
1140012000.0 -0.778393024 -0.91185984 0.0022692133852755393 -0.003128061076719463 0.0 0.0 0.0 0.0
1155011500.0 -0.569285568 -1.14160872 0.002514493875585533 -0.0013024818006939086 0.0 0.0 0.0 0.0
1170011000.0 -0.304097696 -1.26853024 0.0008218791215941323 0.0004603773269152789 0.0 0.0 0.0 0.0
1185010500.0 0.033128672 -1.33697808 -0.0003016443174393623 -0.001615977654101857 0.0 0.0 0.0 0.0
1200010000.0 0.452690496 -1.3067944 -0.004630176374646932 0.000504023296730802 0.0 0.0 0.0 0.0
1215009500.0 0.821976448 -1.1904968 -0.008551396820967913 -0.0005560438160081264 0.0 0.0 0.0 0.0
1230009000.0 1.265004032 -0.814597504 -0.003208017751492738 -0.005056820497641327 0.0 0.0 0.0 0.0
1245008500.0 1.448267328 -0.37322192 -0.0013253162176549663 0.002278405630941456 0.0 0.0 0.0 0.0
1260008000.0 1.42199648 0.13340516 0.0020220278649162255 -0.003540365845902416 0.0 0.0 0.0 0.0
1275007500.0 1.260584352 0.474545952 -0.0009051266093614047 0.0018433394368848422 0.0 0.0 0.0 0.0
1290007000.0 1.019697428 0.708103744 0.0011491485830141294 0.005369379426281647 0.0 0.0 0.0 0.0
1305006500.0 0.815104 0.836501184 0.005205904944274319 0.00199691388586819 0.0 0.0 0.0 0.0
1320006000.0 0.599236736 0.923992 0.002255554234407288 -0.0008049732182081289 0.0 0.0 0.0 0.0
1335005500.0 0.445965152 0.976979776 0.0003774168655520712 0.0027341680324656074 0.0 0.0 0.0 0.0
1350005000.0 0.306745504 1.000219703 -0.004927586909181533 0.001352639407333964 0.0 0.0 0.0 0.0
1365004500.0 0.147854144 1.000319719 -0.002548609198104261 0.0004366738082635093 0.0 0.0 0.0 0.0
1380004000.0 0.062986032 1.06757748 0.0037920599920638334 0.008290197294306622 0.0 0.0 0.0 0.0
1395003500.0 -0.04021016 1.114601848 0.007320226777425954 0.00747274578240261 0.0 0.0 0.0 0.0
1410003000.0 -0.177587536 1.220701456 -0.005309353571212895 0.004163586369009639 0.0 0.0 0.0 0.0
1425002500.0 -0.413445696 1.330405952 0.018973587263908635 0.0029799080270344193 0.0 0.0 0.0 0.0
1440002000.0 -0.768209408 1.406331424 0.003969184450083611 0.022395912168722366 0.0 0.0 0.0 0.0
1455001500.0 -1.349804288 1.296778208 0.0008729003069227031 0.00037432249982501825 0.0 0.0 0.0 0.0
1470001000.0 -1.89060448 0.646966784 -0.013263629069648957 0.009982009741076353 0.0 0.0 0.0 0.0
1485000500.0 -1.75190208 -0.059884768 -0.018167949020876484 -0.006128099127994032 0.0 0.0 0.0 0.0
1500000000.0 -1.380392192 -0.402072576 -0.004075607679187284 0.006733853122184923 0.0 0.0 0.0 0.0
