! Created with skrf 1.8.0 (http://scikit-rf.org).
# Hz S RI R 50.0 
!freq ReS11 ImS11 ReS21 ImS21 ReS12 ImS12 ReS22 ImS22
50000.0 0.997759872 0.000655094 5.301587743742829e-06 0.00013032093541866328 0.0 0.0 0.0 0.0
15049500.0 0.975583552 0.219832128 4.5930740829171265e-05 -5.063464513897442e-06 0.0 0.0 0.0 0.0
30049000.0 0.906743104 0.427319648 1.571170206489459e-05 -8.156257734033854e-06 0.0 0.0 0.0 0.0
45048500.0 0.793523136 0.61513664 3.79135082357312e-05 1.3503652219275433e-05 0.0 0.0 0.0 0.0
60048000.0 0.644620736 0.771959808 3.8965308939658026e-05 1.3080318180405318e-06 0.0 0.0 0.0 0.0
75047500.0 0.465816224 0.895243968 -5.567817994173088e-06 3.582680069143438e-05 0.0 0.0 0.0 0.0
90047000.0 0.252718448 0.980661504 -2.4223694560044236e-05 6.769175405366361e-05 0.0 0.0 0.0 0.0
105046500.0 0.033327292 1.012728214 4.103333081873987e-05 2.5002001878246736e-05 0.0 0.0 0.0 0.0
120046000.0 -0.187603472 0.997425984 2.961423193233941e-07 6.858867999696966e-05 0.0 0.0 0.0 0.0
135045500.0 -0.402773376 0.935455424 -1.573378400296486e-05 4.059962268233594e-05 0.0 0.0 0.0 0.0
150045000.0 -0.59972768 0.823985216 -2.3482459021192495e-05 8.41585913814984e-05 0.0 0.0 0.0 0.0
165044500.0 -0.767862208 0.671954304 2.8167305168977714e-05 6.433355018586863e-05 0.0 0.0 0.0 0.0
180044000.0 -0.897996928 0.485698656 1.8635786851989253e-05 2.4417190223431208e-05 0.0 0.0 0.0 0.0
195043500.0 -0.984960128 0.274778976 -4.487658709285546e-05 7.213743629972831e-05 0.0 0.0 0.0 0.0
210043000.0 -1.023196102 0.047426892 -4.389686365015904e-05 4.2605470759978074e-05 0.0 0.0 0.0 0.0
225042500.0 -1.008199334 -0.185311712 -8.196605178064434e-05 3.669454020004516e-05 0.0 0.0 0.0 0.0
240042000.0 -0.939589568 -0.410816896 -6.270636807442382e-05 3.602422291895941e-05 0.0 0.0 0.0 0.0
255041500.0 -0.821489408 -0.614330624 -8.537455689310376e-05 4.17558016724166e-05 0.0 0.0 0.0 0.0
270041000.0 -0.65883808 -0.784030528 -6.310763265675823e-05 4.039289746303999e-05 0.0 0.0 0.0 0.0
285040500.0 -0.461889024 -0.915277504 -3.16965577520332e-05 4.2750783614713125e-05 0.0 0.0 0.0 0.0
300040000.0 -0.243149072 -0.988758336 -0.0004384180409845433 -0.0001425687629611599 0.0 0.0 0.0 0.0
315039500.0 -0.007891629 -1.01529932 0.000171418018482501 -0.00020593238156135847 0.0 0.0 0.0 0.0
330039000.0 0.223720704 -0.991080704 -0.00032232774851109606 -0.0002688814942902684 0.0 0.0 0.0 0.0
345038500.0 0.442823616 -0.91726016 0.00022399956471717182 0.00028405187362965506 0.0 0.0 0.0 0.0
360038000.0 0.638166464 -0.796266048 -2.6707780344111374e-05 -0.00034115695286787094 0.0 0.0 0.0 0.0
375037500.0 0.802637824 -0.639209984 0.00028248674369777196 -0.0003104854307693508 0.0 0.0 0.0 0.0
390037000.0 0.928489344 -0.45419632 -0.0006918886589673614 -0.00036932321501544736 0.0 0.0 0.0 0.0
405036500.0 1.011990906 -0.2433352 -0.0001971356926885851 0.0003817029961608786 0.0 0.0 0.0 0.0
420036000.0 1.052411912 -0.019962018 -0.0002485883286801149 -0.000392310674344998 0.0 0.0 0.0 0.0
435035500.0 1.04287052 0.213958544 0.00035442534887968795 -0.000575567792876314 0.0 0.0 0.0 0.0
450035000.0 0.975555136 0.439494368 -0.00017350262605212504 -0.0004937960391467478 0.0 0.0 0.0 0.0
465034500.0 0.861985344 0.654793472 -0.0001495543038383392 -0.0008763267033226991 0.0 0.0 0.0 0.0
480034000.0 0.706001152 0.828990336 4.017412827818671e-05 -0.0006356407198237757 0.0 0.0 0.0 0.0
495033500.0 0.514778912 0.960161088 0.0003253972616403633 -0.00042401529451536633 0.0 0.0 0.0 0.0
510033000.0 0.30575248 1.049062252 5.9536073414459544e-05 -5.668115266460345e-05 0.0 0.0 0.0 0.0
525032500.0 0.081608224 1.086444736 -0.0006394749281207158 -0.0013246071209856926 0.0 0.0 0.0 0.0
540032000.0 -0.142883248 1.074743744 0.00016755725288481732 -8.695566278680974e-05 0.0 0.0 0.0 0.0
555031500.0 -0.354949184 1.01749301 0.00031392669535298864 -0.0014012593809722565 0.0 0.0 0.0 0.0
570031000.0 -0.552337984 0.924369216 3.62515018616211e-05 -0.0005050844199119361 0.0 0.0 0.0 0.0
585030500.0 -0.718390528 0.779793216 -0.0005012167120137683 -0.0007491277904223734 0.0 0.0 0.0 0.0
600030000.0 -0.869075328 0.639005824 0.0007475478467893678 -0.0011460595830848326 0.0 0.0 0.0 0.0
615029500.0 -0.977029888 0.438268352 0.0009469092455773402 -3.44290301241729e-06 0.0 0.0 0.0 0.0
630029000.0 -1.040588736 0.22051472 0.000988237673308452 -0.00032853997012524514 0.0 0.0 0.0 0.0
645028500.0 -1.0627594 -0.010755954 0.0011837528831266737 0.00024510248684843654 0.0 0.0 0.0 0.0
660028000.0 -1.026230454 -0.249327632 0.0004827535850410106 -0.0007695300774304095 0.0 0.0 0.0 0.0
675027500.0 -0.93718592 -0.476894816 0.0009371988266728922 -0.00039773297519435575 0.0 0.0 0.0 0.0
690027000.0 -0.79473792 -0.67794368 -0.00035251088145321147 -0.0003408271301071554 0.0 0.0 0.0 0.0
705026500.0 -0.60919744 -0.8435808 0.0008759070024320807 0.000795838366971238 0.0 0.0 0.0 0.0
720026000.0 -0.379745696 -0.969345792 0.001227624300614455 0.000686928304784328 0.0 0.0 0.0 0.0
735025500.0 -0.132436824 -1.043038608 0.0007373228190980922 0.0009493195770688824 0.0 0.0 0.0 0.0
750025000.0 0.13724664 -1.045992492 0.0005913172534113125 0.00034164531541220006 0.0 0.0 0.0 0.0
765024500.0 0.405305024 -0.984278784 -0.0004936284856965729 0.0012572934565207553 0.0 0.0 0.0 0.0
780024000.0 0.64047872 -0.835805184 -0.0007574009070479786 0.0008694073324810984 0.0 0.0 0.0 0.0
795023500.0 0.865357056 -0.665640256 -0.001075211167327284 0.001118671374947397 0.0 0.0 0.0 0.0
810023000.0 1.011798502 -0.417199072 0.00029505547576063506 0.0015363188966889866 0.0 0.0 0.0 0.0
825022500.0 1.08706796 -0.15453616 -0.0007061862716742467 0.0011828343894272888 0.0 0.0 0.0 0.0
840022000.0 1.098987576 0.115333544 -0.0009941919134553304 -2.5323073076327675e-05 0.0 0.0 0.0 0.0
855021500.0 1.034450292 0.368410624 -0.0009074628048268349 -0.0003226968808600632 0.0 0.0 0.0 0.0
870021000.0 0.9196192 0.587392 -0.0008415778227571467 0.00036581551952499265 0.0 0.0 0.0 0.0
885020500.0 0.76876736 0.75395808 -0.0017976443072199515 0.00020278117152166904 0.0 0.0 0.0 0.0
900020000.0 0.616400384 0.93461376 -0.0007150885484697253 -0.004228850196499806 0.0 0.0 0.0 0.0
915019500.0 0.4141056 1.036980152 0.00044589462977236936 -0.0016045232419971862 0.0 0.0 0.0 0.0
930019000.0 0.218297744 1.0833056 -0.0030256898478066914 0.0015691746924346955 0.0 0.0 0.0 0.0
945018500.0 0.012122566 1.11099076 -0.0011848658230308633 -0.0002510261762812702 0.0 0.0 0.0 0.0
960018000.0 -0.18181848 1.083855392 0.003211772259990545 0.0008222079534693335 0.0 0.0 0.0 0.0
975017500.0 -0.362734432 1.043336628 0.00020915617580379746 -0.004574316070203844 0.0 0.0 0.0 0.0
990017000.0 -0.53660064 0.961466048 0.0022822243564897455 -0.00214890923228855 0.0 0.0 0.0 0.0
1005016500.0 -0.692429568 0.856946816 0.001783783390660539 -0.0016240393248211668 0.0 0.0 0.0 0.0
1020016000.0 -0.840480192 0.716303616 -0.00013817982754235706 0.0018099314736012423 0.0 0.0 0.0 0.0
1035015500.0 -0.96343488 0.555819456 0.003095231778706776 0.0005176834812041861 0.0 0.0 0.0 0.0
1050015000.0 -1.077738048 0.372833696 0.0054469701404618745 -0.0029552009823431216 0.0 0.0 0.0 0.0
1065014500.0 -1.1161896 0.170241488 0.000348347060957144 -0.000708741133635208 0.0 0.0 0.0 0.0
1080014000.0 -1.14520728 -0.05532126 0.0019896864681161744 0.002395168348995407 0.0 0.0 0.0 0.0
1095013500.0 -1.136997216 -0.284982368 0.0004391677620374516 -0.0031155161037881053 0.0 0.0 0.0 0.0
1110013000.0 -1.078567144 -0.511434848 0.0025664193048386733 0.0018721467126687425 0.0 0.0 0.0 0.0
1125012500.0 -0.978449984 -0.73824768 0.004381046518680701 0.003033062942379487 0.0 0.0 0.0 0.0
1140012000.0 -0.82457152 -0.947017216 8.777402993913107e-05 -0.00353234547598621 0.0 0.0 0.0 0.0
1155011500.0 -0.61251072 -1.080270888 0.0028242159101297534 -0.002943984595564142 0.0 0.0 0.0 0.0
1170011000.0 -0.315363616 -1.2855432 -1.5257127588489448e-05 -7.882157412630475e-05 0.0 0.0 0.0 0.0
1185010500.0 0.025490178 -1.377991904 -0.0025953835520919613 -0.005399539856962583 0.0 0.0 0.0 0.0
1200010000.0 0.41897744 -1.361429568 -0.0018260463673098145 -0.000546481612777255 0.0 0.0 0.0 0.0
1215009500.0 0.87597728 -1.251278752 0.0021022695831044275 0.0027065162089749133 0.0 0.0 0.0 0.0
1230009000.0 1.2965448 -0.900576448 0.00575659204002576 0.007203377361475453 0.0 0.0 0.0 0.0
1245008500.0 1.488780128 -0.383451424 -0.0035540774329269244 -0.0004822671866139788 0.0 0.0 0.0 0.0
1260008000.0 1.50438976 0.130088448 0.0024701175648260175 -0.009942769335389763 0.0 0.0 0.0 0.0
1275007500.0 1.315095424 0.49705936 0.0011023682807013019 -0.005108696661921184 0.0 0.0 0.0 0.0
1290007000.0 1.07660556 0.73896448 -0.004243100055074537 -0.0024401138889845837 0.0 0.0 0.0 0.0
1305006500.0 0.815823744 0.87776576 0.005214829953143005 0.0080069547185213 0.0 0.0 0.0 0.0
1320006000.0 0.586687168 0.950564288 0.00594804499982282 -0.0017991117499888004 0.0 0.0 0.0 0.0
1335005500.0 0.447278624 0.99382912 -0.003630607932276184 0.0052993291803554955 0.0 0.0 0.0 0.0
1350005000.0 0.289816 0.999355264 0.007990921358064389 0.001568053042034091 0.0 0.0 0.0 0.0
1365004500.0 0.160697488 1.075914856 0.003469073827040685 0.001641402382741751 0.0 0.0 0.0 0.0
1380004000.0 0.061110664 1.087038992 -0.008587751951134242 5.197348772195928e-05 0.0 0.0 0.0 0.0
1395003500.0 -0.049245056 1.147179728 -0.0022092382869771787 0.008177462255218555 0.0 0.0 0.0 0.0
1410003000.0 -0.193805344 1.24106992 0.0035114659319219897 0.003547177866460213 0.0 0.0 0.0 0.0
1425002500.0 -0.45728704 1.333516608 0.008587486909120822 0.003733134398443149 0.0 0.0 0.0 0.0
1440002000.0 -0.785864448 1.439557664 -0.01460194752864663 0.009037168826073546 0.0 0.0 0.0 0.0
1455001500.0 -1.398758784 1.354751456 0.011035965635772993 0.007505627969904822 0.0 0.0 0.0 0.0
1470001000.0 -1.881286592 0.74047616 -0.004319904532504602 0.021861394670784712 0.0 0.0 0.0 0.0
1485000500.0 -1.767613632 -0.077690304 -0.008825588417636006 0.002663426973778356 0.0 0.0 0.0 0.0
1500000000.0 -1.400706176 -0.440449152 -0.00263675796601828 -0.006712106766603177 0.0 0.0 0.0 0.0
