! Created with skrf 1.8.0 (http://scikit-rf.org).
# Hz S RI R 50.0 
!freq ReS11 ImS11 ReS21 ImS21 ReS12 ImS12 ReS22 ImS22
50000000.0 0.754316544 0.67542688 2.0609390902777787e-05 1.993439458866258e-05 0.0 0.0 0.0 0.0
50500000.0 0.74986912 0.681110592 2.047063223764533e-05 3.820300408071432e-05 0.0 0.0 0.0 0.0
51000000.0 0.745240192 0.686954112 2.9457225193466528e-05 1.4320050205966493e-05 0.0 0.0 0.0 0.0
51500000.0 0.740165824 0.692416704 9.537977411093615e-06 1.6115581525513376e-05 0.0 0.0 0.0 0.0
52000000.0 0.735284416 0.697711872 1.4094218364533201e-05 1.9738006046530006e-05 0.0 0.0 0.0 0.0
52500000.0 0.7302544 0.702886976 3.8140526951921874e-05 9.313572126649217e-05 0.0 0.0 0.0 0.0
53000000.0 0.7252032 0.70837408 1.7456788778517695e-05 5.7018318175321676e-05 0.0 0.0 0.0 0.0
53500000.0 0.720122752 0.713584256 -3.2532033200586975e-06 6.774216412367086e-05 0.0 0.0 0.0 0.0
54000000.0 0.714887296 0.718764352 1.791836163946284e-05 5.533716035127454e-06 0.0 0.0 0.0 0.0
54500000.0 0.709430016 0.72401792 4.34590878895106e-05 1.9146575798606734e-05 0.0 0.0 0.0 0.0
55000000.0 0.703956544 0.728657984 2.8260273852494972e-05 9.503619215799319e-07 0.0 0.0 0.0 0.0
55500000.0 0.698566848 0.733398464 3.990766498486705e-06 2.9608739972422944e-05 0.0 0.0 0.0 0.0
56000000.0 0.693066368 0.73834368 1.778311425987266e-05 2.216641462258418e-05 0.0 0.0 0.0 0.0
56500000.0 0.687109504 0.743136256 3.100318558732908e-05 3.590158972020084e-05 0.0 0.0 0.0 0.0
57000000.0 0.681331904 0.747342976 -1.7925082008137113e-05 2.243911771887565e-05 0.0 0.0 0.0 0.0
57500000.0 0.675631552 0.751885504 2.7001716023537256e-05 2.9625603602023895e-05 0.0 0.0 0.0 0.0
58000000.0 0.669502464 0.756297024 4.165047095366914e-05 2.3160700320533568e-05 0.0 0.0 0.0 0.0
58500000.0 0.66354336 0.760288832 3.1452743267982e-06 4.124835777833081e-05 0.0 0.0 0.0 0.0
59000000.0 0.657660608 0.76460224 2.5374011847058963e-05 3.884224119158564e-05 0.0 0.0 0.0 0.0
59500000.0 0.651322304 0.768467392 1.5044300156524915e-05 5.1230277002963646e-05 0.0 0.0 0.0 0.0
60000000.0 0.645327232 0.772232384 1.4857385685057427e-05 -5.280771591865213e-06 0.0 0.0 0.0 0.0
60500000.0 0.640461248 0.77776544 2.033779998386974e-05 1.3878702454340174e-05 0.0 0.0 0.0 0.0
61000000.0 0.635547072 0.782957824 3.14947592027762e-05 8.351411480557729e-05 0.0 0.0 0.0 0.0
61500000.0 0.630818368 0.788177216 -2.7663022197205356e-06 -4.604064077439544e-06 0.0 0.0 0.0 0.0
62000000.0 0.62580832 0.793572608 2.5654433664850133e-05 1.7972495578961874e-05 0.0 0.0 0.0 0.0
62500000.0 0.620627328 0.798561728 -4.744879539299675e-06 4.5944585569548185e-05 0.0 0.0 0.0 0.0
63000000.0 0.61561888 0.803592576 -1.9387405427377725e-05 3.061021098905535e-05 0.0 0.0 0.0 0.0
63500000.0 0.610584704 0.808722624 2.178677156709885e-05 1.4229613687063086e-05 0.0 0.0 0.0 0.0
64000000.0 0.604894016 0.813823552 1.9876201908572036e-05 3.698754730567678e-05 0.0 0.0 0.0 0.0
64500000.0 0.599281856 0.818311232 1.3465982787801248e-05 3.858013531026868e-05 0.0 0.0 0.0 0.0
65000000.0 0.593449536 0.82332512 -2.2544485592796526e-06 4.766068299650733e-05 0.0 0.0 0.0 0.0
65500000.0 0.588194624 0.827492224 2.5934658664787564e-05 9.996282745071269e-05 0.0 0.0 0.0 0.0
66000000.0 0.582362112 0.832159552 -1.551480595826534e-05 4.490930568465042e-05 0.0 0.0 0.0 0.0
66500000.0 0.576724992 0.836465088 -1.9747059960317292e-05 7.069824526764179e-05 0.0 0.0 0.0 0.0
67000000.0 0.570825024 0.84101792 5.067666259764201e-06 1.1821846035186193e-05 0.0 0.0 0.0 0.0
67500000.0 0.564911296 0.845454848 1.6173405343856563e-05 4.525012031567776e-05 0.0 0.0 0.0 0.0
68000000.0 0.558547264 0.849533632 3.6971711901739045e-05 3.5527308201646916e-05 0.0 0.0 0.0 0.0
68500000.0 0.552511744 0.853413504 -9.401556262125504e-06 6.673021078829354e-05 0.0 0.0 0.0 0.0
69000000.0 0.546319872 0.85741088 6.915199379899092e-06 2.880181094195716e-05 0.0 0.0 0.0 0.0
69500000.0 0.539894144 0.861267776 1.1905240303200878e-06 6.539221628399843e-05 0.0 0.0 0.0 0.0
70000000.0 0.533745632 0.864757696 -2.9048701603264998e-05 6.839439872653659e-05 0.0 0.0 0.0 0.0
70500000.0 0.527323648 0.86853888 3.0873180385620714e-05 3.6188010595733566e-05 0.0 0.0 0.0 0.0
71000000.0 0.52065664 0.872087744 5.750705266667195e-05 2.8350401030543078e-05 0.0 0.0 0.0 0.0
71500000.0 0.514019904 0.875232 -1.2787968690421533e-05 6.75020270938051e-05 0.0 0.0 0.0 0.0
72000000.0 0.507631488 0.878517056 1.0585581851074127e-05 3.630788357745753e-05 0.0 0.0 0.0 0.0
72500000.0 0.500684384 0.881833344 4.28558672487642e-05 5.67328071961568e-05 0.0 0.0 0.0 0.0
73000000.0 0.493864768 0.884654528 2.431520109987005e-05 8.339670518355552e-05 0.0 0.0 0.0 0.0
73500000.0 0.487147232 0.887768 6.750581298054906e-05 4.0873624243944086e-05 0.0 0.0 0.0 0.0
74000000.0 0.47996704 0.890565824 4.26891904037846e-05 4.499361287637862e-05 0.0 0.0 0.0 0.0
74500000.0 0.473214944 0.893192768 3.770192089929601e-05 5.3641466548773875e-05 0.0 0.0 0.0 0.0
75000000.0 0.466309824 0.895942656 4.9932618502063166e-05 5.5175745636352005e-05 0.0 0.0 0.0 0.0
75500000.0 0.460578016 0.90010336 3.6873950410024604e-05 6.972847360410988e-05 0.0 0.0 0.0 0.0
76000000.0 0.454204064 0.905044416 2.283453273318888e-05 2.6008618664914246e-05 0.0 0.0 0.0 0.0
76500000.0 0.447744 0.909555008 8.989284408580323e-05 3.9659339507428357e-05 0.0 0.0 0.0 0.0
77000000.0 0.441257536 0.913621696 6.229234575915975e-05 5.1669413048933425e-05 0.0 0.0 0.0 0.0
77500000.0 0.435126848 0.918002688 3.566474705665639e-05 3.677309768546457e-05 0.0 0.0 0.0 0.0
78000000.0 0.428320512 0.922160896 5.1055375532378216e-05 2.910595676571784e-05 0.0 0.0 0.0 0.0
78500000.0 0.421862432 0.925993856 5.677899752063329e-05 4.4211094654531216e-05 0.0 0.0 0.0 0.0
79000000.0 0.4151904 0.930152448 2.7405457120647652e-05 2.4645052647708884e-05 0.0 0.0 0.0 0.0
79500000.0 0.408215968 0.93369984 6.939582550313705e-06 5.401471261635463e-05 0.0 0.0 0.0 0.0
80000000.0 0.405130432 0.942707456 -2.4644931696453694e-05 7.073382007694151e-05 0.0 0.0 0.0 0.0
80500000.0 0.394285664 0.94044832 1.3189491586655341e-06 7.442144679537516e-05 0.0 0.0 0.0 0.0
81000000.0 0.387501472 0.94413216 2.3774779655290855e-05 1.0394812232184284e-05 0.0 0.0 0.0 0.0
81500000.0 0.380318944 0.94735552 2.239086341236511e-05 2.756880883623392e-05 0.0 0.0 0.0 0.0
82000000.0 0.373102048 0.95055392 4.5589569258744865e-05 3.9213978028275905e-05 0.0 0.0 0.0 0.0
82500000.0 0.365835008 0.953458624 1.4689585625113064e-05 2.7790337496375817e-05 0.0 0.0 0.0 0.0
83000000.0 0.358586624 0.956344256 7.831439751037598e-06 1.0771828044759543e-05 0.0 0.0 0.0 0.0
83500000.0 0.35106592 0.959211072 3.8932575933803963e-05 3.502217474912986e-05 0.0 0.0 0.0 0.0
84000000.0 0.343705152 0.961533632 1.8359983635722158e-05 3.7287044330383904e-05 0.0 0.0 0.0 0.0
84500000.0 0.336483552 0.964095808 3.9285152245422175e-05 2.3694204735631044e-05 0.0 0.0 0.0 0.0
85000000.0 0.328692128 0.96640256 2.4375041411686644e-05 3.2149083675566266e-05 0.0 0.0 0.0 0.0
85500000.0 0.321253088 0.968369664 1.3226107382379496e-05 4.527829965347381e-05 0.0 0.0 0.0 0.0
86000000.0 0.313794432 0.970553152 1.4271633273070679e-05 1.2002590292057043e-05 0.0 0.0 0.0 0.0
86500000.0 0.305983904 0.972341632 2.1464022620127983e-05 7.270278112261343e-05 0.0 0.0 0.0 0.0
87000000.0 0.298525152 0.973959552 1.638707145912097e-05 4.356142433384914e-05 0.0 0.0 0.0 0.0
87500000.0 0.291076384 0.975740096 4.083350733025834e-05 3.0124308242841663e-05 0.0 0.0 0.0 0.0
88000000.0 0.283241408 0.9770448 1.464044252447436e-05 3.801483298250253e-05 0.0 0.0 0.0 0.0
88500000.0 0.275724576 0.97819936 1.6458931916975443e-05 4.8653411033064955e-05 0.0 0.0 0.0 0.0
89000000.0 0.268234816 0.979314176 1.1640433857635304e-05 6.450174836084694e-05 0.0 0.0 0.0 0.0
89500000.0 0.26047856 0.980463616 9.592450355576718e-06 5.788058617685032e-05 0.0 0.0 0.0 0.0
90000000.0 0.252812688 0.98133472 -3.4027734913592325e-06 5.9559938193105124e-05 0.0 0.0 0.0 0.0
90500000.0 0.246084944 0.984031296 6.229779551996473e-06 2.341332560174924e-05 0.0 0.0 0.0 0.0
91000000.0 0.239090032 0.98685728 1.309058224368534e-05 2.8385735528981976e-05 0.0 0.0 0.0 0.0
91500000.0 0.232840992 0.989268928 -2.5258171006877635e-05 4.6116558429563296e-05 0.0 0.0 0.0 0.0
92000000.0 0.225439456 0.991965568 9.692781209753604e-06 1.5852715017303737e-05 0.0 0.0 0.0 0.0
92500000.0 0.218168576 0.994310464 2.831156939960438e-05 8.441037478373962e-05 0.0 0.0 0.0 0.0
93000000.0 0.21135272 0.996382848 -1.3549707320353775e-06 4.6311592839324016e-05 0.0 0.0 0.0 0.0
93500000.0 0.204233008 0.998800064 2.83270192193806e-05 3.044958829187748e-05 0.0 0.0 0.0 0.0
94000000.0 0.19688608 1.00076437 4.685469859500383e-05 4.7130264900288294e-05 0.0 0.0 0.0 0.0
94500000.0 0.18992752 1.002544403 2.1858625323889505e-05 5.2979761692082165e-05 0.0 0.0 0.0 0.0
95000000.0 0.182610624 1.004654646 3.293637975575865e-05 5.55405257139726e-05 0.0 0.0 0.0 0.0
95500000.0 0.175237328 1.00609386 1.59801584204059e-05 4.589259749522498e-05 0.0 0.0 0.0 0.0
96000000.0 0.168089664 1.007534743 2.659239566759876e-05 2.7025401045273592e-05 0.0 0.0 0.0 0.0
96500000.0 0.160548784 1.009288788 3.884993827789008e-05 4.8409955554659735e-05 0.0 0.0 0.0 0.0
97000000.0 0.153235104 1.010133506 2.5011351705916704e-05 2.874592409095483e-05 0.0 0.0 0.0 0.0
97500000.0 0.14577584 1.01167524 2.7376249988291945e-05 5.4410024237988945e-05 0.0 0.0 0.0 0.0
98000000.0 0.138878992 1.012574078 -1.7031297373470212e-05 3.8051505762274724e-05 0.0 0.0 0.0 0.0
98500000.0 0.131054192 1.0134691 -2.3275633692052272e-05 4.154655470954723e-05 0.0 0.0 0.0 0.0
99000000.0 0.12358692 1.014307142 -1.1322182287166686e-06 1.9489980371528383e-05 0.0 0.0 0.0 0.0
99500000.0 0.115961072 1.014913918 7.738968001080235e-06 3.2079816384734136e-05 0.0 0.0 0.0 0.0
100000000.0 0.108441072 1.015673162 4.2175734093432914e-07 6.479295814936502e-05 0.0 0.0 0.0 0.0
