! Created with skrf 1.8.0 (http://scikit-rf.org).
# Hz S RI R 50.0 
!freq ReS11 ImS11 ReS21 ImS21 ReS12 ImS12 ReS22 ImS22
50000.0 0.0 0.0 9.33e-07 -2.479e-05 0.0 0.0 0.0 0.0
15049500.0 0.0 0.0 5.6456e-05 1.6011e-05 0.0 0.0 0.0 0.0
30049000.0 0.0 0.0 1.5537e-05 6.1847e-05 0.0 0.0 0.0 0.0
45048500.0 0.0 0.0 3.5583e-05 2.3079e-05 0.0 0.0 0.0 0.0
60048000.0 0.0 0.0 4.9579e-05 4.7951e-05 0.0 0.0 0.0 0.0
75047500.0 0.0 0.0 6.8272e-05 7.3111e-05 0.0 0.0 0.0 0.0
90047000.0 0.0 0.0 -1.2024e-05 -1.4274e-05 0.0 0.0 0.0 0.0
105046500.0 0.0 0.0 -3.1291e-05 7.527e-05 0.0 0.0 0.0 0.0
120046000.0 0.0 0.0 -1.9259e-05 5.0993e-05 0.0 0.0 0.0 0.0
135045500.0 0.0 0.0 1.0579e-05 5.6639e-05 0.0 0.0 0.0 0.0
150045000.0 0.0 0.0 3.9816e-05 0.000106713 0.0 0.0 0.0 0.0
165044500.0 0.0 0.0 3.8472e-05 6.4916e-05 0.0 0.0 0.0 0.0
180044000.0 0.0 0.0 -2.4877e-05 5.5857e-05 0.0 0.0 0.0 0.0
195043500.0 0.0 0.0 -3.2319e-05 4.9562e-05 0.0 0.0 0.0 0.0
210043000.0 0.0 0.0 -6.7862e-05 6.0297e-05 0.0 0.0 0.0 0.0
225042500.0 0.0 0.0 -6.8172e-05 5.6925e-05 0.0 0.0 0.0 0.0
240042000.0 0.0 0.0 -3.3331e-05 2.6679e-05 0.0 0.0 0.0 0.0
255041500.0 0.0 0.0 -6.6635e-05 4.1386e-05 0.0 0.0 0.0 0.0
270041000.0 0.0 0.0 -7.894e-05 4.3015e-05 0.0 0.0 0.0 0.0
285040500.0 0.0 0.0 -6.8055e-05 3.8794e-05 0.0 0.0 0.0 0.0
300040000.0 0.0 0.0 0.00012538 8.7443e-05 0.0 0.0 0.0 0.0
315039500.0 0.0 0.0 -0.000120322 6.8287e-05 0.0 0.0 0.0 0.0
330039000.0 0.0 0.0 -9.3698e-05 -0.00018527 0.0 0.0 0.0 0.0
345038500.0 0.0 0.0 9.2848e-05 0.000507144 0.0 0.0 0.0 0.0
360038000.0 0.0 0.0 0.000247288 0.000290521 0.0 0.0 0.0 0.0
375037500.0 0.0 0.0 0.00026899 -0.000429747 0.0 0.0 0.0 0.0
390037000.0 0.0 0.0 3.1754e-05 -0.000728743 0.0 0.0 0.0 0.0
405036500.0 0.0 0.0 -0.000236553 -0.000193604 0.0 0.0 0.0 0.0
420036000.0 0.0 0.0 1.176e-05 -0.000277415 0.0 0.0 0.0 0.0
435035500.0 0.0 0.0 -0.00052325 -7.451e-05 0.0 0.0 0.0 0.0
450035000.0 0.0 0.0 -0.000122837 -0.00027907 0.0 0.0 0.0 0.0
465034500.0 0.0 0.0 -0.000316572 -8.9375e-05 0.0 0.0 0.0 0.0
480034000.0 0.0 0.0 -0.000138773 -0.000117279 0.0 0.0 0.0 0.0
495033500.0 0.0 0.0 -0.000125727 -0.001139403 0.0 0.0 0.0 0.0
510033000.0 0.0 0.0 -2.7802e-05 -0.000906303 0.0 0.0 0.0 0.0
525032500.0 0.0 0.0 0.000453475 -0.000994613 0.0 0.0 0.0 0.0
540032000.0 0.0 0.0 0.00034052 -0.000698491 0.0 0.0 0.0 0.0
555031500.0 0.0 0.0 -0.000110585 -0.000595327 0.0 0.0 0.0 0.0
570031000.0 0.0 0.0 0.000125899 -0.000110401 0.0 0.0 0.0 0.0
585030500.0 0.0 0.0 0.000124444 -0.000383468 0.0 0.0 0.0 0.0
600030000.0 0.0 0.0 -0.000566228 -0.000330839 0.0 0.0 0.0 0.0
615029500.0 0.0 0.0 0.000537766 -0.000488095 0.0 0.0 0.0 0.0
630029000.0 0.0 0.0 0.000680457 -7.1703e-05 0.0 0.0 0.0 0.0
645028500.0 0.0 0.0 0.000369646 0.000366376 0.0 0.0 0.0 0.0
660028000.0 0.0 0.0 0.001177543 -0.000402565 0.0 0.0 0.0 0.0
675027500.0 0.0 0.0 9.769e-05 0.000191364 0.0 0.0 0.0 0.0
690027000.0 0.0 0.0 0.000627484 0.000416052 0.0 0.0 0.0 0.0
705026500.0 0.0 0.0 0.000135008 0.000236772 0.0 0.0 0.0 0.0
720026000.0 0.0 0.0 9.673e-06 0.000635764 0.0 0.0 0.0 0.0
735025500.0 0.0 0.0 0.000537392 0.000497284 0.0 0.0 0.0 0.0
750025000.0 0.0 0.0 0.000418069 0.001473451 0.0 0.0 0.0 0.0
765024500.0 0.0 0.0 -5.6994e-05 0.000379492 0.0 0.0 0.0 0.0
780024000.0 0.0 0.0 8.1007e-05 0.000701581 0.0 0.0 0.0 0.0
795023500.0 0.0 0.0 -0.000308774 0.001541112 0.0 0.0 0.0 0.0
810023000.0 0.0 0.0 -0.000272472 0.0009817 0.0 0.0 0.0 0.0
825022500.0 0.0 0.0 -0.000329863 0.001181363 0.0 0.0 0.0 0.0
840022000.0 0.0 0.0 -0.000921364 0.000401149 0.0 0.0 0.0 0.0
855021500.0 0.0 0.0 0.000368683 2.0654e-05 0.0 0.0 0.0 0.0
870021000.0 0.0 0.0 -0.000762163 -0.000125069 0.0 0.0 0.0 0.0
885020500.0 0.0 0.0 -0.000123096 0.000733414 0.0 0.0 0.0 0.0
900020000.0 0.0 0.0 -0.002985818 0.00050063 0.0 0.0 0.0 0.0
915019500.0 0.0 0.0 -0.0016727 -0.001537841 0.0 0.0 0.0 0.0
930019000.0 0.0 0.0 -6.0672e-05 -0.002816362 0.0 0.0 0.0 0.0
945018500.0 0.0 0.0 -0.000253245 0.00035364 0.0 0.0 0.0 0.0
960018000.0 0.0 0.0 -0.000915375 -0.00071193 0.0 0.0 0.0 0.0
975017500.0 0.0 0.0 -0.001193344 -0.000954341 0.0 0.0 0.0 0.0
990017000.0 0.0 0.0 0.001024129 -0.001721412 0.0 0.0 0.0 0.0
1005016500.0 0.0 0.0 0.000603874 -0.001765724 0.0 0.0 0.0 0.0
1020016000.0 0.0 0.0 -0.002959023 -0.002134305 0.0 0.0 0.0 0.0
1035015500.0 0.0 0.0 0.005961854 0.002718175 0.0 0.0 0.0 0.0
1050015000.0 0.0 0.0 0.003437204 -0.001584261 0.0 0.0 0.0 0.0
1065014500.0 0.0 0.0 0.004666183 -0.001108649 0.0 0.0 0.0 0.0
1080014000.0 0.0 0.0 0.007062746 0.000669722 0.0 0.0 0.0 0.0
1095013500.0 0.0 0.0 0.001483836 -6.8322e-05 0.0 0.0 0.0 0.0
1110013000.0 0.0 0.0 -0.000830727 -0.000998495 0.0 0.0 0.0 0.0
1125012500.0 0.0 0.0 -0.000667783 -0.003044173 0.0 0.0 0.0 0.0
1140012000.0 0.0 0.0 0.004374715 0.001982113 0.0 0.0 0.0 0.0
1155011500.0 0.0 0.0 0.005239127 0.001004565 0.0 0.0 0.0 0.0
1170011000.0 0.0 0.0 -0.000545212 -0.001587952 0.0 0.0 0.0 0.0
1185010500.0 0.0 0.0 0.003878727 0.000692539 0.0 0.0 0.0 0.0
1200010000.0 0.0 0.0 0.002756321 -0.000116148 0.0 0.0 0.0 0.0
1215009500.0 0.0 0.0 -0.00066334 0.004636035 0.0 0.0 0.0 0.0
1230009000.0 0.0 0.0 0.000907879 -0.003449643 0.0 0.0 0.0 0.0
1245008500.0 0.0 0.0 -0.002188276 0.005439579 0.0 0.0 0.0 0.0
1260008000.0 0.0 0.0 4.8745e-05 -0.004580298 0.0 0.0 0.0 0.0
1275007500.0 0.0 0.0 -0.002189877 0.004917746 0.0 0.0 0.0 0.0
1290007000.0 0.0 0.0 0.000608495 0.002087748 0.0 0.0 0.0 0.0
1305006500.0 0.0 0.0 -0.003399559 0.00756306 0.0 0.0 0.0 0.0
1320006000.0 0.0 0.0 0.006381763 -0.007274614 0.0 0.0 0.0 0.0
1335005500.0 0.0 0.0 -0.003980314 -0.00829952 0.0 0.0 0.0 0.0
1350005000.0 0.0 0.0 -0.00056573 0.005056654 0.0 0.0 0.0 0.0
1365004500.0 0.0 0.0 -0.0081614 -0.002557214 0.0 0.0 0.0 0.0
1380004000.0 0.0 0.0 -0.000855412 -0.002232405 0.0 0.0 0.0 0.0
1395003500.0 0.0 0.0 -0.001429189 0.010199936 0.0 0.0 0.0 0.0
1410003000.0 0.0 0.0 0.001016445 0.009282364 0.0 0.0 0.0 0.0
1425002500.0 0.0 0.0 -0.003986742 0.003906579 0.0 0.0 0.0 0.0
1440002000.0 0.0 0.0 0.000202097 0.010898946 0.0 0.0 0.0 0.0
1455001500.0 0.0 0.0 -0.000877806 -0.005496134 0.0 0.0 0.0 0.0
1470001000.0 0.0 0.0 -0.017669294 -0.008426962 0.0 0.0 0.0 0.0
1485000500.0 0.0 0.0 0.00229445 0.010730624 0.0 0.0 0.0 0.0
1500000000.0 0.0 0.0 -0.004102354 -0.015079472 0.0 0.0 0.0 0.0
