! Created with skrf 1.8.0 (http://scikit-rf.org).
# Hz S RI R 50.0 
!freq ReS11 ImS11
50000.0 0.99715968 0.001644079
15049500.0 0.976633856 0.219543936
30049000.0 0.907290176 0.427644768
45048500.0 0.794169024 0.615700352
60048000.0 0.644701952 0.772357376
75047500.0 0.466252832 0.895943744
90047000.0 0.252661472 0.980638976
105046500.0 0.033226174 1.013185382
120046000.0 -0.18830904 0.998357056
135045500.0 -0.403487744 0.93403232
150045000.0 -0.600588928 0.824382272
165044500.0 -0.768686144 0.671353984
180044000.0 -0.899137408 0.485205376
195043500.0 -0.986030336 0.273771136
210043000.0 -1.023622156 0.045639988
225042500.0 -1.008790612 -0.18751552
240042000.0 -0.93948832 -0.411776224
255041500.0 -0.820126144 -0.615973824
270041000.0 -0.656973824 -0.786854976
285040500.0 -0.459274016 -0.91588096
300040000.0 -0.24037352 -0.986139904
315039500.0 -0.004964616 -1.014474988
330039000.0 0.225146928 -0.99354816
345038500.0 0.445329792 -0.915787136
360038000.0 0.641281856 -0.794755712
375037500.0 0.804142784 -0.635886784
390037000.0 0.927838848 -0.44471712
405036500.0 1.01365471 -0.241017424
420036000.0 1.05318296 -0.0176929
435035500.0 1.043383716 0.217373312
450035000.0 0.980824064 0.456022976
465034500.0 0.866360448 0.659022208
480034000.0 0.707227264 0.830796032
495033500.0 0.51524096 0.960335424
510033000.0 0.301408576 1.04981506
525032500.0 0.080121512 1.086412552
540032000.0 -0.145157376 1.077182176
555031500.0 -0.35937584 1.01972711
570031000.0 -0.553352384 0.920859776
585030500.0 -0.726514944 0.78233984
600030000.0 -0.873563968 0.638502016
615029500.0 -0.979446592 0.436462464
630029000.0 -1.047813296 0.217218176
645028500.0 -1.06295228 -0.01414823
660028000.0 -1.026260734 -0.25097344
675027500.0 -0.941172096 -0.474251968
690027000.0 -0.799102848 -0.682668224
705026500.0 -0.609136064 -0.847093184
720026000.0 -0.384096736 -0.968160384
735025500.0 -0.128759144 -1.041713716
750025000.0 0.139416864 -1.048564552
765024500.0 0.409956512 -0.9841936
780024000.0 0.627752832 -0.860050304
795023500.0 0.86536864 -0.663978304
810023000.0 1.0218122 -0.41836432
825022500.0 1.092547176 -0.150171904
840022000.0 1.09676492 0.11889372
855021500.0 1.036691068 0.368748256
870021000.0 0.92292512 0.58412064
885020500.0 0.771773568 0.765479488
900020000.0 0.614673408 0.926691136
915019500.0 0.424208448 1.026363016
930019000.0 0.21288368 1.09206784
945018500.0 0.014150768 1.107742432
960018000.0 -0.179640528 1.088820336
975017500.0 -0.371648864 1.040535688
990017000.0 -0.54212896 0.957071744
1005016500.0 -0.693038016 0.856877504
1020016000.0 -0.837670976 0.718667776
1035015500.0 -0.959234432 0.568369088
1050015000.0 -1.022583842 0.378585344
1065014500.0 -1.12533796 0.181288896
1080014000.0 -1.142634752 -0.048018648
1095013500.0 -1.132109168 -0.254745328
1110013000.0 -1.067236424 -0.493083328
1125012500.0 -0.9468592 -0.714510592
1140012000.0 -0.789787392 -0.910758272
1155011500.0 -0.577480768 -1.159019232
1170011000.0 -0.318246496 -1.221594448
1185010500.0 0.03756936 -1.346230752
1200010000.0 0.451174112 -1.34371616
1215009500.0 0.890056704 -1.209449056
1230009000.0 1.248128896 -0.89609152
1245008500.0 1.471146944 -0.373646464
1260008000.0 1.466549888 0.083599792
1275007500.0 1.272386304 0.48242848
1290007000.0 1.025330306 0.750266944
1305006500.0 0.802603648 0.846001344
1320006000.0 0.59176736 0.939778624
1335005500.0 0.432596832 0.984835968
1350005000.0 0.297898368 0.967106304
1365004500.0 0.242114016 1.035369752
1380004000.0 0.05725302 1.074776768
1395003500.0 -0.037951664 1.134234304
1410003000.0 -0.194403488 1.211774464
1425002500.0 -0.403487488 1.34036864
1440002000.0 -0.772646336 1.41985392
1455001500.0 -1.323498496 1.330936896
1470001000.0 -1.9112512 0.686146688
1485000500.0 -1.76297952 -0.1275202
1500000000.0 -1.405177248 -0.401742624
