! Created with skrf 1.8.0 (http://scikit-rf.org).
# Hz S RI R 50.0 
!freq ReS11 ImS11
50000.0 0.997513152 0.00208294
15049500.0 0.976677952 0.219950832
30049000.0 0.907248896 0.428146944
45048500.0 0.793930112 0.616075456
60048000.0 0.64481984 0.772870784
75047500.0 0.465768576 0.896559936
90047000.0 0.252152528 0.981863616
105046500.0 0.032395686 1.013616086
120046000.0 -0.188905744 0.998370432
135045500.0 -0.403842752 0.935740288
150045000.0 -0.601174464 0.82391104
165044500.0 -0.769808448 0.671392896
180044000.0 -0.900074176 0.484916448
195043500.0 -0.987470016 0.273069344
210043000.0 -1.025153398 0.044526084
225042500.0 -1.009010792 -0.188681584
240042000.0 -0.940300736 -0.414059296
255041500.0 -0.820420992 -0.617835008
270041000.0 -0.656563008 -0.78924416
285040500.0 -0.457970464 -0.918911232
300040000.0 -0.238502768 -0.989816
315039500.0 -0.004625275 -1.016304016
330039000.0 0.22851488 -0.990677824
345038500.0 0.446950976 -0.91555744
360038000.0 0.644704768 -0.79626272
375037500.0 0.807822912 -0.637219008
390037000.0 0.929516352 -0.442686112
405036500.0 1.015507936 -0.240208592
420036000.0 1.05521238 -0.01596247
435035500.0 1.043472648 0.2193804
450035000.0 0.973574336 0.450158368
465034500.0 0.865018432 0.661826688
480034000.0 0.707359168 0.835343552
495033500.0 0.515030336 0.967688064
510033000.0 0.29951808 1.0543257
525032500.0 0.0773898 1.087358
540032000.0 -0.148784672 1.077661872
555031500.0 -0.359069344 1.023874282
570031000.0 -0.557202176 0.92424032
585030500.0 -0.725653184 0.785805376
600030000.0 -0.874295488 0.6411696
615029500.0 -0.983290112 0.440598816
630029000.0 -1.049750208 0.217005056
645028500.0 -1.070414304 -0.016043118
660028000.0 -1.033824204 -0.25089216
675027500.0 -0.945066304 -0.473673664
690027000.0 -0.79764352 -0.684672384
705026500.0 -0.610939904 -0.852707584
720026000.0 -0.390585088 -0.978065792
735025500.0 -0.131276336 -1.046352148
750025000.0 0.136752768 -1.057900668
765024500.0 0.40829136 -0.989386944
780024000.0 0.630796416 -0.883250496
795023500.0 0.864220032 -0.670263168
810023000.0 1.017104626 -0.424925632
825022500.0 1.097215056 -0.155627984
840022000.0 1.10242164 0.109464232
855021500.0 1.044939996 0.365144992
870021000.0 0.929182656 0.586625792
885020500.0 0.778300864 0.76583104
900020000.0 0.622616192 0.927993088
915019500.0 0.425503456 1.031883002
930019000.0 0.225538352 1.087674736
945018500.0 0.024314026 1.108349088
960018000.0 -0.180872656 1.09132516
975017500.0 -0.359265216 1.034764884
990017000.0 -0.53956672 0.958710976
1005016500.0 -0.676434432 0.865317504
1020016000.0 -0.838767168 0.718003008
1035015500.0 -0.95143392 0.559056256
1050015000.0 -1.04311824 0.412657504
1065014500.0 -1.105520128 0.181483392
1080014000.0 -1.121221064 -0.029471758
1095013500.0 -1.105229496 -0.26212648
1110013000.0 -1.058584928 -0.489000864
1125012500.0 -0.957479488 -0.71660384
1140012000.0 -0.78573248 -0.911648576
1155011500.0 -0.592675008 -1.063058972
1170011000.0 -0.370457504 -1.259752992
1185010500.0 0.052972392 -1.334607968
1200010000.0 0.435272032 -1.297226784
1215009500.0 0.856573248 -1.177895184
1230009000.0 1.257317184 -0.834645312
1245008500.0 1.44721568 -0.375257984
1260008000.0 1.444527872 0.1156032
1275007500.0 1.248742704 0.475686368
1290007000.0 1.019999504 0.724602816
1305006500.0 0.782948544 0.853698304
1320006000.0 0.586145088 0.92752768
1335005500.0 0.412183584 0.978821248
1350005000.0 0.292844864 1.003660441
1365004500.0 0.154911984 1.068267104
1380004000.0 0.049712988 1.061956644
1395003500.0 -0.0436554 1.125742552
1410003000.0 -0.18615048 1.215366128
1425002500.0 -0.408781984 1.315529696
1440002000.0 -0.773499008 1.405514848
1455001500.0 -1.369339456 1.33609248
1470001000.0 -1.861479552 0.670964032
1485000500.0 -1.733590464 -0.110410408
1500000000.0 -1.405571232 -0.416827968
