! Created with skrf 1.8.0 (http://scikit-rf.org).
# Hz S RI R 50.0 
!freq ReS11 ImS11
50000.0 0.007202013 -0.004445432
15049500.0 0.01910974 0.004499314
30049000.0 0.018250434 0.006808272
45048500.0 0.015952078 0.00909271
60048000.0 0.01263409 0.011421406
75047500.0 0.009099708 0.014046974
90047000.0 0.005899945 0.015800932
105046500.0 0.003627538 0.017341938
120046000.0 0.002859559 0.017739838
135045500.0 0.003771796 0.016821204
150045000.0 0.005778604 0.013668034
165044500.0 0.009135122 0.008582026
180044000.0 0.013425692 0.001389014
195043500.0 0.018068882 -0.007956647
210043000.0 0.022297564 -0.018616276
225042500.0 0.025817064 -0.030242194
240042000.0 0.028269474 -0.041597276
255041500.0 0.029094194 -0.052279632
270041000.0 0.028165224 -0.061177568
285040500.0 0.025534718 -0.067765632
300040000.0 0.022021262 -0.071370672
315039500.0 0.015817608 -0.071828896
330039000.0 0.009076006 -0.067487512
345038500.0 0.002503065 -0.059066204
360038000.0 -0.003198472 -0.048944436
375037500.0 -0.010168334 -0.035168524
390037000.0 -0.01602176 -0.020028294
405036500.0 -0.018837186 -0.002085804
420036000.0 -0.020326406 0.014369198
435035500.0 -0.02003618 0.03072593
450035000.0 -0.019425064 0.044168712
465034500.0 -0.016001274 0.055196216
480034000.0 -0.013049838 0.061963656
495033500.0 -0.00852591 0.064336276
510033000.0 -0.003542394 0.062022884
525032500.0 0.001743077 0.05405708
540032000.0 0.003714458 0.043413708
555031500.0 0.005994293 0.027001896
570031000.0 0.006676405 0.007326414
585030500.0 0.005173241 -0.014742498
600030000.0 0.000804671 -0.037164716
615029500.0 -0.004800051 -0.06060374
630029000.0 -0.012074948 -0.08325736
645028500.0 -0.020773172 -0.103798696
660028000.0 -0.032020304 -0.118254184
675027500.0 -0.045361532 -0.130695504
690027000.0 -0.054345684 -0.137856192
705026500.0 -0.067086064 -0.138875568
720026000.0 -0.078260408 -0.13444496
735025500.0 -0.087718136 -0.124892136
750025000.0 -0.093838032 -0.110843792
765024500.0 -0.098662032 -0.090047904
780024000.0 -0.100465552 -0.065845048
795023500.0 -0.101795296 -0.043987644
810023000.0 -0.098674072 -0.01883483
825022500.0 -0.092731696 0.006738403
840022000.0 -0.085721344 0.029372794
855021500.0 -0.078005512 0.048871852
870021000.0 -0.06950816 0.06329006
885020500.0 -0.059680476 0.072690128
900020000.0 -0.045727364 0.07026676
915019500.0 -0.044306612 0.072036024
930019000.0 -0.035442968 0.06549962
945018500.0 -0.035156924 0.049887652
960018000.0 -0.03765854 0.030437284
975017500.0 -0.043628944 0.01293608
990017000.0 -0.051813768 -0.009263418
1005016500.0 -0.058350376 -0.036019548
1020016000.0 -0.070983384 -0.0569194
1035015500.0 -0.090103336 -0.067260704
1050015000.0 -0.116959728 -0.082817464
1065014500.0 -0.132345256 -0.108575184
1080014000.0 -0.144243088 -0.111543856
1095013500.0 -0.17055344 -0.12520336
1110013000.0 -0.182403008 -0.111383864
1125012500.0 -0.20684864 -0.114602328
1140012000.0 -0.209491728 -0.092335632
1155011500.0 -0.210046224 -0.098005656
1170011000.0 -0.226511104 -0.072755976
1185010500.0 -0.219505136 -0.045017044
1200010000.0 -0.204196928 -0.023447956
1215009500.0 -0.209454752 -0.002079477
1230009000.0 -0.180029392 0.028670148
1245008500.0 -0.161439696 0.047215992
1260008000.0 -0.147288896 0.069547512
1275007500.0 -0.11758256 0.087395008
1290007000.0 -0.107821632 0.097393592
1305006500.0 -0.093532536 0.114522168
1320006000.0 -0.082296384 0.100770224
1335005500.0 -0.069628896 0.110498616
1350005000.0 -0.042994388 0.11288664
1365004500.0 -0.072216656 0.08329608
1380004000.0 -0.062182152 0.089301224
1395003500.0 -0.078169648 0.07133464
1410003000.0 -0.1194692 0.045580428
1425002500.0 -0.176031408 0.042312668
1440002000.0 -0.223807072 0.017845622
1455001500.0 -0.266884592 -0.011328544
1470001000.0 -0.347827936 -0.082234664
1485000500.0 -0.31391456 -0.100503736
1500000000.0 -0.317779296 -0.245660192
