! Created with skrf 1.8.0 (http://scikit-rf.org).
# Hz S RI R 50.0 
!freq ReS11 ImS11
50000.0 0.999421248 0.002248448
15049500.0 0.976618752 0.220328624
30049000.0 0.9072 0.428133632
45048500.0 0.794214208 0.61588512
60048000.0 0.644905344 0.773056
75047500.0 0.465897216 0.896447808
90047000.0 0.252118592 0.9817504
105046500.0 0.032488986 1.013895274
120046000.0 -0.188811424 0.998968192
135045500.0 -0.40439552 0.936047168
150045000.0 -0.601564096 0.824183424
165044500.0 -0.770053888 0.672025856
180044000.0 -0.900198464 0.48470848
195043500.0 -0.987336832 0.273170208
210043000.0 -1.025975466 0.045126808
225042500.0 -1.009403706 -0.188874528
240042000.0 -0.94011104 -0.413724288
255041500.0 -0.820468992 -0.618059904
270041000.0 -0.657033472 -0.788120768
285040500.0 -0.458296288 -0.918842688
300040000.0 -0.239203088 -0.989017792
315039500.0 -0.00740743 -1.01657486
330039000.0 0.22604768 -0.99105248
345038500.0 0.44815888 -0.917391872
360038000.0 0.643431744 -0.796521088
375037500.0 0.806895808 -0.63746912
390037000.0 0.922738688 -0.45501824
405036500.0 1.013559104 -0.241018496
420036000.0 1.054761648 -0.01378679
435035500.0 1.045841216 0.217729776
450035000.0 0.97721408 0.450167904
465034500.0 0.864684672 0.660255232
480034000.0 0.706395072 0.835946368
495033500.0 0.514176416 0.965750144
510033000.0 0.300508 1.053653836
525032500.0 0.076622104 1.089616064
540032000.0 -0.148369664 1.080655096
555031500.0 -0.360309376 1.02127409
570031000.0 -0.55708128 0.924597312
585030500.0 -0.7281008 0.781141312
600030000.0 -0.874424896 0.640429312
615029500.0 -0.982846208 0.440097344
630029000.0 -1.051285744 0.219382352
645028500.0 -1.067868944 -0.015109448
660028000.0 -1.033488154 -0.254504496
675027500.0 -0.940206016 -0.47948624
690027000.0 -0.799864448 -0.6859776
705026500.0 -0.614222464 -0.850238208
720026000.0 -0.385906048 -0.978130688
735025500.0 -0.131923688 -1.043156268
750025000.0 0.141461424 -1.049583792
765024500.0 0.408124768 -0.991213312
780024000.0 0.648977088 -0.824608832
795023500.0 0.866654784 -0.666217856
810023000.0 1.024137854 -0.42395696
825022500.0 1.093411448 -0.158019952
840022000.0 1.097568152 0.110338968
855021500.0 1.034113764 0.366311744
870021000.0 0.926998656 0.589059776
885020500.0 0.7802688 0.768618496
900020000.0 0.620666752 0.9305824
915019500.0 0.425848672 1.026797534
930019000.0 0.218912112 1.08904672
945018500.0 0.027159518 1.112882256
960018000.0 -0.178332672 1.085332512
975017500.0 -0.369918176 1.052060604
990017000.0 -0.534410848 0.95675552
1005016500.0 -0.692661248 0.852906496
1020016000.0 -0.83892384 0.724257024
1035015500.0 -0.944929728 0.563700544
1050015000.0 -1.031307578 0.407509792
1065014500.0 -1.101273536 0.187013472
1080014000.0 -1.134966256 -0.026711968
1095013500.0 -1.112851616 -0.261442576
1110013000.0 -1.049626948 -0.489418272
1125012500.0 -0.957866816 -0.713600704
1140012000.0 -0.781207168 -0.904314816
1155011500.0 -0.609439232 -1.09601772
1170011000.0 -0.298644544 -1.235803248
1185010500.0 0.051394276 -1.327665216
1200010000.0 0.438482336 -1.307101504
1215009500.0 0.852681856 -1.180088048
1230009000.0 1.254659776 -0.853642816
1245008500.0 1.40152 -0.391655712
1260008000.0 1.464863296 0.070600688
1275007500.0 1.268631936 0.471156224
1290007000.0 1.0057441 0.737929344
1305006500.0 0.77982496 0.852927296
1320006000.0 0.585048256 0.940267264
1335005500.0 0.41177344 0.9595504
1350005000.0 0.293850016 0.982287296
1365004500.0 0.164586 1.03134489
1380004000.0 0.06922124 1.052096724
1395003500.0 -0.049736312 1.125393152
1410003000.0 -0.169288304 1.213120336
1425002500.0 -0.407763424 1.340921536
1440002000.0 -0.764980608 1.405440224
1455001500.0 -1.326177248 1.302531968
1470001000.0 -1.869198656 0.66722688
1485000500.0 -1.74956704 -0.018384042
1500000000.0 -1.403055904 -0.395157856
