! Created with skrf 1.8.0 (http://scikit-rf.org).
# Hz S RI R 50.0 
!freq ReS11 ImS11
50000.0 1.000310063 0.000266034
15049500.0 0.977479232 0.2202464
30049000.0 0.90803488 0.428138048
45048500.0 0.794824 0.616444992
60048000.0 0.646164544 0.773443264
75047500.0 0.466975776 0.897249664
90047000.0 0.252994176 0.982041856
105046500.0 0.033530426 1.01447785
120046000.0 -0.187657024 0.99980064
135045500.0 -0.403061024 0.935437504
150045000.0 -0.600905408 0.825674624
165044500.0 -0.769869632 0.673832896
180044000.0 -0.90050208 0.486858816
195043500.0 -0.988039296 0.27547184
210043000.0 -1.026653648 0.046653492
225042500.0 -1.011323334 -0.187276512
240042000.0 -0.941824704 -0.412811168
255041500.0 -0.8236688 -0.616542272
270041000.0 -0.660327168 -0.78860192
285040500.0 -0.462280064 -0.918189056
300040000.0 -0.242231872 -0.990127872
315039500.0 -0.007245322 -1.01699233
330039000.0 0.223446144 -0.993243968
345038500.0 0.445313408 -0.919171776
360038000.0 0.643782336 -0.798647232
375037500.0 0.808764864 -0.641758848
390037000.0 0.925679104 -0.455472224
405036500.0 1.01677847 -0.242516096
420036000.0 1.054546476 -0.018345388
435035500.0 1.047467708 0.217521056
450035000.0 0.977842304 0.45023632
465034500.0 0.867232448 0.660836928
480034000.0 0.709739712 0.83516416
495033500.0 0.518558272 0.96957792
510033000.0 0.304229344 1.054078936
525032500.0 0.08199644 1.094189048
540032000.0 -0.142755248 1.083934784
555031500.0 -0.358965312 1.02897799
570031000.0 -0.55697216 0.931704704
585030500.0 -0.73114976 0.790912576
600030000.0 -0.877446208 0.647519808
615029500.0 -0.986101248 0.444062912
630029000.0 -1.054303288 0.223201056
645028500.0 -1.07351768 -0.011736526
660028000.0 -1.040680172 -0.251478288
675027500.0 -0.952183232 -0.474596192
690027000.0 -0.808894784 -0.680902208
705026500.0 -0.62324512 -0.850059456
720026000.0 -0.396704448 -0.97724896
735025500.0 -0.141094864 -1.049743892
750025000.0 0.131797376 -1.057864784
765024500.0 0.400460384 -0.996131072
780024000.0 0.681933056 -0.863118016
795023500.0 0.85989216 -0.679296576
810023000.0 1.01611948 -0.44102784
825022500.0 1.099374888 -0.170869904
840022000.0 1.110645536 0.107164536
855021500.0 1.049313188 0.360846848
870021000.0 0.938885184 0.572707968
885020500.0 0.78452736 0.755358464
900020000.0 0.631600768 0.920809216
915019500.0 0.437079072 1.025944472
930019000.0 0.238487472 1.093572136
945018500.0 0.033542346 1.10044384
960018000.0 -0.166341376 1.087409856
975017500.0 -0.352305696 1.038506748
990017000.0 -0.513843072 0.958823232
1005016500.0 -0.673686592 0.856885568
1020016000.0 -0.83197312 0.722444544
1035015500.0 -0.940431872 0.575470336
1050015000.0 -1.028122306 0.39778608
1065014500.0 -1.1043632 0.195185024
1080014000.0 -1.129493472 -0.014946658
1095013500.0 -1.126602176 -0.252725808
1110013000.0 -1.067485216 -0.467181632
1125012500.0 -0.96503968 -0.694799104
1140012000.0 -0.782003584 -0.904532096
1155011500.0 -0.597088896 -1.108960512
1170011000.0 -0.337994848 -1.21845424
1185010500.0 0.005140406 -1.317238464
1200010000.0 0.420877536 -1.3247192
1215009500.0 0.830202048 -1.192208768
1230009000.0 1.239329696 -0.839067456
1245008500.0 1.424531456 -0.397116128
1260008000.0 1.427231904 0.099816296
1275007500.0 1.235100864 0.460231008
1290007000.0 1.011293174 0.692475264
1305006500.0 0.786469312 0.846257088
1320006000.0 0.595592192 0.900165184
1335005500.0 0.430652992 0.957299008
1350005000.0 0.289896288 0.995817408
1365004500.0 0.100209328 1.024659276
1380004000.0 0.060230836 1.054205536
1395003500.0 -0.049664608 1.111934304
1410003000.0 -0.167426272 1.231606128
1425002500.0 -0.417062144 1.32890736
1440002000.0 -0.775978368 1.440766816
1455001500.0 -1.369264352 1.288880832
1470001000.0 -1.862369088 0.679707712
1485000500.0 -1.732407936 -0.078069736
1500000000.0 -1.399525536 -0.398855104
