! Created with skrf 1.8.0 (http://scikit-rf.org).
# Hz S RI R 50.0 
!freq ReS11 ImS11
50000.0 0.998267456 0.000522841
15049500.0 1.000300169 0.023225564
30049000.0 1.000635862 0.044724752
45048500.0 1.000498056 0.066821472
60048000.0 1.000429034 0.088152552
75047500.0 0.99965024 0.110457576
90047000.0 0.997723712 0.132666112
105046500.0 0.996063808 0.15380152
120046000.0 0.993921536 0.175842208
135045500.0 0.99160928 0.197510864
150045000.0 0.987702528 0.219804656
165044500.0 0.984239488 0.241937168
180044000.0 0.980515776 0.264666288
195043500.0 0.975456576 0.28672016
210043000.0 0.970475328 0.308785088
225042500.0 0.965534656 0.330532576
240042000.0 0.95980704 0.352877504
255041500.0 0.952873472 0.374904704
270041000.0 0.945390528 0.396224672
285040500.0 0.93967936 0.417549248
300040000.0 0.931506048 0.437700608
315039500.0 0.926344128 0.459081824
330039000.0 0.919317184 0.480606944
345038500.0 0.909939584 0.499657984
360038000.0 0.902923776 0.517961792
375037500.0 0.894006848 0.535405472
390037000.0 0.887981632 0.560189312
405036500.0 0.876162688 0.572465664
420036000.0 0.866718528 0.592322688
435035500.0 0.85717408 0.6094544
450035000.0 0.838365376 0.629507392
465034500.0 0.834959936 0.647613248
480034000.0 0.821465792 0.663150144
495033500.0 0.807045568 0.680634304
510033000.0 0.793120448 0.697517312
525032500.0 0.782952128 0.711982656
540032000.0 0.768022464 0.72897024
555031500.0 0.753868288 0.748758528
570031000.0 0.737009856 0.764393984
585030500.0 0.720949952 0.780333632
600030000.0 0.707058176 0.809633792
615029500.0 0.686194816 0.825098304
630029000.0 0.667485504 0.840979072
645028500.0 0.64702272 0.853404992
660028000.0 0.627911488 0.869821184
675027500.0 0.609632192 0.885806144
690027000.0 0.588199808 0.899321472
705026500.0 0.56307968 0.91446304
720026000.0 0.536212192 0.927481024
735025500.0 0.510745536 0.939052416
750025000.0 0.483404704 0.948340544
765024500.0 0.455433024 0.957137216
780024000.0 0.42986 0.96755168
795023500.0 0.40671568 0.967101888
810023000.0 0.385275904 0.968595264
825022500.0 0.369826304 0.967613184
840022000.0 0.355546848 0.963370112
855021500.0 0.340395616 0.966710272
870021000.0 0.331525888 0.959954688
885020500.0 0.317774816 0.96059296
900020000.0 0.328750304 0.9831824
915019500.0 0.317821504 0.989522368
930019000.0 0.312691488 0.99052576
945018500.0 0.296918016 0.995945728
960018000.0 0.279507968 1.000865102
975017500.0 0.253984656 0.996152192
990017000.0 0.250442688 0.98917152
1005016500.0 0.23929032 0.991360704
1020016000.0 0.23114432 0.986934592
1035015500.0 0.231529168 0.99648736
1050015000.0 0.225115376 1.017303944
1065014500.0 0.229423888 1.035630584
1080014000.0 0.222770208 1.054162384
1095013500.0 0.220531248 1.093829752
1110013000.0 0.182332608 1.126723768
1125012500.0 0.141307616 1.183619616
1140012000.0 0.080828968 1.2163912
1155011500.0 0.004948543 1.179996608
1170011000.0 -0.062013424 1.20861912
1185010500.0 -0.136560032 1.193504096
1200010000.0 -0.194645952 1.156922704
1215009500.0 -0.243646272 1.11814964
1230009000.0 -0.275841536 1.06813836
1245008500.0 -0.297240416 1.011520148
1260008000.0 -0.290093408 0.98113824
1275007500.0 -0.274054336 0.943481856
1290007000.0 -0.245605136 0.901135296
1305006500.0 -0.214689728 0.892680704
1320006000.0 -0.170080672 0.908052672
1335005500.0 -0.1343568 0.912529152
1350005000.0 -0.069525752 0.946438784
1365004500.0 -0.02276102 1.012393476
1380004000.0 0.018321728 1.047776104
1395003500.0 0.060991552 1.112156032
1410003000.0 0.113173856 1.227324368
1425002500.0 0.130732104 1.413163424
1440002000.0 0.060941264 1.602782464
1455001500.0 -0.171164416 2.001146078
1470001000.0 -0.781515136 2.238763568
1485000500.0 -1.547913216 1.754262336
1500000000.0 -1.566797952 1.042459608
