! Created with skrf 1.8.0 (http://scikit-rf.org).
# Hz S RI R 50.0 
!freq ReS11 ImS11
50000.0 0.997252096 0.001636071
15049500.0 0.976666368 0.219568512
30049000.0 0.907276736 0.427643072
45048500.0 0.794184448 0.61567136
60048000.0 0.644645376 0.772350336
75047500.0 0.465910976 0.895777472
90047000.0 0.252807472 0.98104128
105046500.0 0.033175216 1.012975216
120046000.0 -0.188213472 0.998110336
135045500.0 -0.403476768 0.934271872
150045000.0 -0.600702976 0.823942528
165044500.0 -0.768993536 0.67196576
180044000.0 -0.899224512 0.485417952
195043500.0 -0.985906944 0.273699584
210043000.0 -1.024160266 0.046068632
225042500.0 -1.008391024 -0.187406032
240042000.0 -0.939583168 -0.412092512
255041500.0 -0.820364864 -0.615920896
270041000.0 -0.6569824 -0.785817152
285040500.0 -0.458045856 -0.917177536
300040000.0 -0.24034648 -0.98661632
315039500.0 -0.007300026 -1.015431404
330039000.0 0.224283296 -0.990992704
345038500.0 0.445516064 -0.918471424
360038000.0 0.64339808 -0.796417664
375037500.0 0.804735872 -0.638992896
390037000.0 0.932317952 -0.449360512
405036500.0 1.011868716 -0.241489984
420036000.0 1.051459672 -0.016532116
435035500.0 1.042200208 0.215587328
450035000.0 0.977188992 0.443798816
465034500.0 0.863582464 0.6602096
480034000.0 0.70771264 0.83029024
495033500.0 0.515287712 0.963731968
510033000.0 0.301870368 1.048591256
525032500.0 0.080821024 1.086967824
540032000.0 -0.14559576 1.0759598
555031500.0 -0.35717552 1.020020128
570031000.0 -0.5523504 0.921281664
585030500.0 -0.724914816 0.788285504
600030000.0 -0.872469568 0.636974336
615029500.0 -0.97885376 0.439379904
630029000.0 -1.04749 0.219494672
645028500.0 -1.060606124 -0.016796674
660028000.0 -1.02620256 -0.251557824
675027500.0 -0.93884224 -0.475427936
690027000.0 -0.79570304 -0.681174784
705026500.0 -0.611161664 -0.850697024
720026000.0 -0.379966432 -0.9746
735025500.0 -0.132556096 -1.042093992
750025000.0 0.138845488 -1.04544246
765024500.0 0.409326912 -0.987611776
780024000.0 0.687171008 -0.859270656
795023500.0 0.863533376 -0.666389952
810023000.0 1.012688876 -0.418709152
825022500.0 1.09372592 -0.152406928
840022000.0 1.103924512 0.124631912
855021500.0 1.035641788 0.367273088
870021000.0 0.921216512 0.590436864
885020500.0 0.7669328 0.761178048
900020000.0 0.61698176 0.928643584
915019500.0 0.412953792 1.02887082
930019000.0 0.21731904 1.090430376
945018500.0 0.020462088 1.107545496
960018000.0 -0.183696128 1.086940528
975017500.0 -0.384719328 1.041747452
990017000.0 -0.533967552 0.959593728
1005016500.0 -0.694939712 0.85754016
1020016000.0 -0.831616 0.723691136
1035015500.0 -0.956377536 0.565673728
1050015000.0 -1.030270458 0.371108288
1065014500.0 -1.116208432 0.177188016
1080014000.0 -1.135431888 -0.036628692
1095013500.0 -1.119707224 -0.244702944
1110013000.0 -1.056169152 -0.496378048
1125012500.0 -0.947222848 -0.713515328
1140012000.0 -0.786266112 -0.911382528
1155011500.0 -0.570472064 -1.149715072
1170011000.0 -0.26528216 -1.280782944
1185010500.0 0.04449358 -1.369561088
1200010000.0 0.4566152 -1.361686464
1215009500.0 0.886999872 -1.22628808
1230009000.0 1.248189456 -0.863906368
1245008500.0 1.44787968 -0.385926848
1260008000.0 1.439763904 0.106715552
1275007500.0 1.274927392 0.463096512
1290007000.0 1.021794676 0.741738048
1305006500.0 0.80328416 0.84466784
1320006000.0 0.58534048 0.953092928
1335005500.0 0.433949888 0.96817312
1350005000.0 0.296577152 1.024086236
1365004500.0 0.161736976 1.049265504
1380004000.0 0.080191864 1.07628012
1395003500.0 -0.04548766 1.134334448
1410003000.0 -0.194789968 1.217301008
1425002500.0 -0.414574816 1.366804832
1440002000.0 -0.763706176 1.421302912
1455001500.0 -1.393132928 1.355183136
1470001000.0 -1.898149504 0.652221184
1485000500.0 -1.710903744 -0.067043932
1500000000.0 -1.391041888 -0.431091424
