! Created with skrf 1.8.0 (http://scikit-rf.org).
# Hz S RI R 50.0 
!freq ReS11 ImS11
50000.0 0.007152687 -0.00436854
15049500.0 0.018952236 0.004457798
30049000.0 0.018087948 0.006701718
45048500.0 0.01563864 0.009024226
60048000.0 0.01239976 0.01130201
75047500.0 0.008867598 0.013993672
90047000.0 0.005685705 0.01574489
105046500.0 0.003353252 0.017012294
120046000.0 0.002779574 0.017678488
135045500.0 0.003673434 0.016560222
150045000.0 0.005859585 0.013384758
165044500.0 0.009151964 0.008364901
180044000.0 0.013386436 0.001163451
195043500.0 0.017991336 -0.008040216
210043000.0 0.02226628 -0.018786294
225042500.0 0.025926792 -0.030305536
240042000.0 0.028340666 -0.041734404
255041500.0 0.029151692 -0.052269284
270041000.0 0.02806183 -0.061149028
285040500.0 0.025350436 -0.06783432
300040000.0 0.021332768 -0.071094952
315039500.0 0.015776092 -0.070909096
330039000.0 0.009501722 -0.066819816
345038500.0 0.002568704 -0.05952808
360038000.0 -0.00447015 -0.047941048
375037500.0 -0.01074707 -0.03461412
390037000.0 -0.015821326 -0.019646806
405036500.0 -0.018222146 -0.001813305
420036000.0 -0.020582348 0.01465413
435035500.0 -0.019963698 0.031126632
450035000.0 -0.019032914 0.044589208
465034500.0 -0.016798166 0.055010552
480034000.0 -0.012700564 0.06163378
495033500.0 -0.00895808 0.064014852
510033000.0 -0.003679175 0.062406436
525032500.0 0.000171375 0.05457688
540032000.0 0.004466877 0.042843448
555031500.0 0.005817462 0.026250726
570031000.0 0.006594132 0.008161621
585030500.0 0.005666669 -0.013945636
600030000.0 0.000819739 -0.037296232
615029500.0 -0.004737682 -0.060621644
630029000.0 -0.012164272 -0.083565472
645028500.0 -0.021883266 -0.103359264
660028000.0 -0.032240354 -0.119146992
675027500.0 -0.041801724 -0.131416712
690027000.0 -0.053440812 -0.137232384
705026500.0 -0.067232888 -0.139240896
720026000.0 -0.078351032 -0.135621376
735025500.0 -0.084537328 -0.12418696
750025000.0 -0.093115016 -0.108865456
765024500.0 -0.099351232 -0.090350496
780024000.0 -0.095770656 -0.065299124
795023500.0 -0.099891072 -0.042911612
810023000.0 -0.097798928 -0.017396508
825022500.0 -0.092119824 0.006454796
840022000.0 -0.086187368 0.029140206
855021500.0 -0.078076456 0.048326324
870021000.0 -0.068838928 0.062381044
885020500.0 -0.060488396 0.072959032
900020000.0 -0.0457043 0.071302304
915019500.0 -0.042528108 0.069730128
930019000.0 -0.04054222 0.064890108
945018500.0 -0.036994352 0.049274588
960018000.0 -0.036943612 0.031065316
975017500.0 -0.0454725 0.015657856
990017000.0 -0.052260688 -0.004438393
1005016500.0 -0.061220532 -0.03638888
1020016000.0 -0.076074864 -0.059908732
1035015500.0 -0.095024576 -0.071691688
1050015000.0 -0.1059964 -0.089558536
1065014500.0 -0.128050104 -0.104050472
1080014000.0 -0.14425128 -0.118359568
1095013500.0 -0.162117824 -0.11396328
1110013000.0 -0.193196736 -0.11126224
1125012500.0 -0.20500464 -0.11406592
1140012000.0 -0.209909808 -0.098345224
1155011500.0 -0.214975552 -0.10447592
1170011000.0 -0.232180224 -0.074539752
1185010500.0 -0.207696496 -0.038170412
1200010000.0 -0.21232728 -0.021821074
1215009500.0 -0.20210808 0.012813046
1230009000.0 -0.167293824 0.027289324
1245008500.0 -0.160450544 0.053806432
1260008000.0 -0.141339456 0.056239332
1275007500.0 -0.130217824 0.078519312
1290007000.0 -0.11939432 0.093744568
1305006500.0 -0.087030352 0.103704856
1320006000.0 -0.093747368 0.12311216
1335005500.0 -0.065860152 0.115488024
1350005000.0 -0.077422712 0.117025584
1365004500.0 -0.058348904 0.1098404
1380004000.0 -0.055659536 0.072625968
1395003500.0 -0.107709712 0.069089368
1410003000.0 -0.118387776 0.088198904
1425002500.0 -0.170196704 0.055733256
1440002000.0 -0.222140464 0.0442727
1455001500.0 -0.284010048 -0.037305284
1470001000.0 -0.31102016 -0.07342464
1485000500.0 -0.33849504 -0.16735408
1500000000.0 -0.323741984 -0.216725904
