! Created with skrf 1.8.0 (http://scikit-rf.org).
# Hz S RI R 50.0 
!freq ReS11 ImS11
50000.0 0.999898048 0.002070605
15049500.0 0.977319744 0.220361792
30049000.0 0.907991104 0.4283432
45048500.0 0.794526912 0.616392768
60048000.0 0.645363072 0.773456448
75047500.0 0.466313088 0.897108032
90047000.0 0.252511232 0.982267584
105046500.0 0.03302686 1.014386654
120046000.0 -0.188886352 0.999197056
135045500.0 -0.403845248 0.936748096
150045000.0 -0.601912896 0.825054528
165044500.0 -0.770591744 0.672701312
180044000.0 -0.900916352 0.485310656
195043500.0 -0.987745664 0.273964192
210043000.0 -1.026065588 0.044457072
225042500.0 -1.010005714 -0.189057472
240042000.0 -0.941220672 -0.414966912
255041500.0 -0.821986368 -0.61912448
270041000.0 -0.657380864 -0.789982976
285040500.0 -0.459439136 -0.919121088
300040000.0 -0.238816928 -0.991109824
315039500.0 -0.005091045 -1.015967966
330039000.0 0.225644256 -0.988841088
345038500.0 0.448573952 -0.918362944
360038000.0 0.64410976 -0.797932288
375037500.0 0.80765024 -0.634441984
390037000.0 0.938770624 -0.44389072
405036500.0 1.01774478 -0.241327872
420036000.0 1.05706322 -0.016281458
435035500.0 1.04518342 0.221520144
450035000.0 0.988624192 0.45310592
465034500.0 0.865079296 0.660829952
480034000.0 0.708718016 0.838411328
495033500.0 0.512886176 0.968281792
510033000.0 0.299244256 1.055527808
525032500.0 0.077735832 1.093217608
540032000.0 -0.149834688 1.081480144
555031500.0 -0.363543392 1.02384317
570031000.0 -0.55501248 0.923456384
585030500.0 -0.730980224 0.78710432
600030000.0 -0.881222336 0.638214016
615029500.0 -0.99032928 0.438649056
630029000.0 -1.053200604 0.218891264
645028500.0 -1.072528008 -0.015400518
660028000.0 -1.032646536 -0.251626576
675027500.0 -0.95071712 -0.481354976
690027000.0 -0.803441792 -0.685044224
705026500.0 -0.618190592 -0.858142784
720026000.0 -0.393445728 -0.976837824
735025500.0 -0.13461784 -1.046646716
750025000.0 0.13669992 -1.054369928
765024500.0 0.403428064 -0.996199936
780024000.0 0.654991296 -0.897998656
795023500.0 0.865145728 -0.673818112
810023000.0 1.010279776 -0.429486816
825022500.0 1.093998312 -0.157252416
840022000.0 1.107466696 0.116997
855021500.0 1.038732052 0.365831424
870021000.0 0.928059072 0.579383232
885020500.0 0.776159104 0.761058304
900020000.0 0.621621632 0.923666752
915019500.0 0.431888992 1.030904412
930019000.0 0.231869456 1.085346696
945018500.0 0.025546542 1.10685432
960018000.0 -0.173228656 1.085199712
975017500.0 -0.34579888 1.036046384
990017000.0 -0.52464528 0.95705824
1005016500.0 -0.685312 0.856319424
1020016000.0 -0.8273824 0.736238784
1035015500.0 -0.956267008 0.565180032
1050015000.0 -1.019496322 0.389614304
1065014500.0 -1.105318304 0.187391648
1080014000.0 -1.127662656 -0.034372576
1095013500.0 -1.097032784 -0.25020712
1110013000.0 -1.045634032 -0.475015872
1125012500.0 -0.95065024 -0.715863232
1140012000.0 -0.771653952 -0.900965952
1155011500.0 -0.521222176 -1.10121524
1170011000.0 -0.264829152 -1.216757536
1185010500.0 0.040544672 -1.338180192
1200010000.0 0.4332432 -1.313317312
1215009500.0 0.85873216 -1.143065808
1230009000.0 1.248801472 -0.837740928
1245008500.0 1.432260992 -0.350442976
1260008000.0 1.40661312 0.104960816
1275007500.0 1.246477488 0.481940768
1290007000.0 1.007219076 0.727030144
1305006500.0 0.784969344 0.853027648
1320006000.0 0.56214208 0.928662144
1335005500.0 0.42105248 0.974025088
1350005000.0 0.304908992 0.976866432
1365004500.0 0.181104576 1.029177308
1380004000.0 0.061067548 1.058949352
1395003500.0 -0.060214124 1.127711176
1410003000.0 -0.169729856 1.210574752
1425002500.0 -0.417831392 1.293295392
1440002000.0 -0.79234432 1.36344576
1455001500.0 -1.354255328 1.339120032
1470001000.0 -1.8784864 0.62523264
1485000500.0 -1.727971648 -0.050487528
1500000000.0 -1.38884032 -0.397145664
