! Created with skrf 1.8.0 (http://scikit-rf.org).
# Hz S RI R 50.0 
!freq ReS11 ImS11
50000.0 0.009985194 -0.004515771
15049500.0 0.015053442 0.005593468
30049000.0 0.015005042 0.009458436
45048500.0 0.0138605 0.01344486
60048000.0 0.01202078 0.017556686
75047500.0 0.009945436 0.022541124
90047000.0 0.007844021 0.027303374
105046500.0 0.006433616 0.032546378
120046000.0 0.005926283 0.038093348
135045500.0 0.006661391 0.043664368
150045000.0 0.008818832 0.04838832
165044500.0 0.01199395 0.052511104
180044000.0 0.016343642 0.0555968
195043500.0 0.021630214 0.05751134
210043000.0 0.027426886 0.058114292
225042500.0 0.033284642 0.057552516
240042000.0 0.038873172 0.055794356
255041500.0 0.043786336 0.05305038
270041000.0 0.04740224 0.049608288
285040500.0 0.049514608 0.046061568
300040000.0 0.048738348 0.04182458
315039500.0 0.048196428 0.0381138
330039000.0 0.044608064 0.03615264
345038500.0 0.038735216 0.034752368
360038000.0 0.0307439 0.034970404
375037500.0 0.021669682 0.036146572
390037000.0 0.009878916 0.040188604
405036500.0 -0.002371525 0.04418446
420036000.0 -0.015745714 0.050412052
435035500.0 -0.028835858 0.058537276
450035000.0 -0.041139136 0.068190888
465034500.0 -0.051434368 0.078261624
480034000.0 -0.061448488 0.088110032
495033500.0 -0.069948528 0.099136568
510033000.0 -0.075497648 0.11003068
525032500.0 -0.078869008 0.120026048
540032000.0 -0.079992392 0.130248816
555031500.0 -0.078885936 0.139286928
570031000.0 -0.074802192 0.146519232
585030500.0 -0.068357768 0.152089984
600030000.0 -0.059780264 0.161334432
615029500.0 -0.050496144 0.163896864
630029000.0 -0.040034288 0.165462096
645028500.0 -0.028417052 0.163896048
660028000.0 -0.014711752 0.160591872
675027500.0 -0.003451125 0.15470576
690027000.0 0.007676825 0.147756512
705026500.0 0.016431228 0.139870368
720026000.0 0.024802546 0.131627112
735025500.0 0.0277892 0.121764328
750025000.0 0.030214708 0.11061792
765024500.0 0.027482968 0.101327824
780024000.0 0.025517052 0.09155144
795023500.0 0.012819414 0.082610536
810023000.0 0.001779723 0.074179624
825022500.0 -0.012530204 0.067865
840022000.0 -0.030910854 0.059319992
855021500.0 -0.048124328 0.05569548
870021000.0 -0.068980144 0.05341732
885020500.0 -0.087661344 0.054564508
900020000.0 -0.098483064 0.063439824
915019500.0 -0.12055984 0.063815572
930019000.0 -0.137250048 0.077797648
945018500.0 -0.15025464 0.082519672
960018000.0 -0.165023424 0.09143212
975017500.0 -0.17236 0.108370352
990017000.0 -0.183348944 0.117867112
1005016500.0 -0.179792896 0.127944144
1020016000.0 -0.1896728 0.141967984
1035015500.0 -0.17578 0.147055296
1050015000.0 -0.170449536 0.163218336
1065014500.0 -0.148451984 0.17508824
1080014000.0 -0.139593984 0.182583152
1095013500.0 -0.117747776 0.186402096
1110013000.0 -0.113799592 0.195804304
1125012500.0 -0.092973056 0.217440784
1140012000.0 -0.078354632 0.21075848
1155011500.0 -0.072645584 0.210814528
1170011000.0 -0.050486148 0.203340848
1185010500.0 -0.046302588 0.213080032
1200010000.0 -0.039922248 0.201429984
1215009500.0 -0.062054724 0.177295584
1230009000.0 -0.053535428 0.152884272
1245008500.0 -0.046449768 0.150295696
1260008000.0 -0.067668032 0.115173464
1275007500.0 -0.065046824 0.1087818
1290007000.0 -0.068515584 0.104721864
1305006500.0 -0.077515472 0.06837804
1320006000.0 -0.090429624 0.055833256
1335005500.0 -0.09666108 0.052367356
1350005000.0 -0.104726968 0.021678712
1365004500.0 -0.124880352 0.04719638
1380004000.0 -0.163903312 0.041272436
1395003500.0 -0.196194176 0.054830688
1410003000.0 -0.226443088 0.120522528
1425002500.0 -0.292532224 0.094571528
1440002000.0 -0.3292064 0.0982302
1455001500.0 -0.365618464 0.032738474
1470001000.0 -0.473988672 0.057040816
1485000500.0 -0.475381824 0.031216166
1500000000.0 -0.448524064 -0.029594442
