! Created with skrf 1.8.0 (http://scikit-rf.org).
# Hz S RI R 50.0 
!freq ReS11 ImS11
50000.0 -0.996475392 -0.000259953
15049500.0 -0.996053056 -0.016754196
30049000.0 -0.9962272 -0.033145026
45048500.0 -0.995651584 -0.049558016
60048000.0 -0.994767232 -0.065483944
75047500.0 -0.993885248 -0.081370752
90047000.0 -0.991268992 -0.09783152
105046500.0 -0.98961952 -0.11293948
120046000.0 -0.987511744 -0.12761724
135045500.0 -0.98497344 -0.143305744
150045000.0 -0.982926656 -0.157136272
165044500.0 -0.979849152 -0.170774736
180044000.0 -0.978067072 -0.184152784
195043500.0 -0.975730752 -0.197706304
210043000.0 -0.972187072 -0.212163184
225042500.0 -0.968151936 -0.226507344
240042000.0 -0.963938944 -0.239518976
255041500.0 -0.959566848 -0.252716928
270041000.0 -0.954199552 -0.26499688
285040500.0 -0.951828416 -0.280190752
300040000.0 -0.946613888 -0.291612672
315039500.0 -0.940306816 -0.30325792
330039000.0 -0.935110592 -0.317211712
345038500.0 -0.930791744 -0.333908992
360038000.0 -0.925520384 -0.345364288
375037500.0 -0.919781888 -0.361990656
390037000.0 -0.91118816 -0.3771896
405036500.0 -0.906903744 -0.392283552
420036000.0 -0.900312 -0.40647488
435035500.0 -0.893227904 -0.426024704
450035000.0 -0.886818176 -0.43800528
465034500.0 -0.874151232 -0.45695088
480034000.0 -0.864814848 -0.469860128
495033500.0 -0.852569024 -0.484369408
510033000.0 -0.84283296 -0.495825568
525032500.0 -0.833173568 -0.507840448
540032000.0 -0.82675264 -0.521216224
555031500.0 -0.821178112 -0.532541824
570031000.0 -0.816910464 -0.542590784
585030500.0 -0.809671808 -0.551289408
600030000.0 -0.801597312 -0.571528896
615029500.0 -0.790267968 -0.583498304
630029000.0 -0.778403072 -0.596675584
645028500.0 -0.767708224 -0.60709344
660028000.0 -0.75247936 -0.618963328
675027500.0 -0.74847872 -0.624004992
690027000.0 -0.738697472 -0.635318208
705026500.0 -0.726454592 -0.646263552
720026000.0 -0.720424448 -0.652983872
735025500.0 -0.704272 -0.659420928
750025000.0 -0.693690944 -0.670810496
765024500.0 -0.685171456 -0.679835648
780024000.0 -0.667590016 -0.699432448
795023500.0 -0.665433984 -0.701336896
810023000.0 -0.654344064 -0.713722304
825022500.0 -0.643807808 -0.723530624
840022000.0 -0.631604416 -0.735928
855021500.0 -0.62212352 -0.745542272
870021000.0 -0.612314752 -0.74892576
885020500.0 -0.604580608 -0.765380224
900020000.0 -0.621101824 -0.759963968
915019500.0 -0.6080816 -0.774213248
930019000.0 -0.595649152 -0.80184896
945018500.0 -0.578750784 -0.819553344
960018000.0 -0.558883776 -0.82816544
975017500.0 -0.542906624 -0.841366144
990017000.0 -0.512974016 -0.839301952
1005016500.0 -0.493325568 -0.85276128
1020016000.0 -0.48506032 -0.850235008
1035015500.0 -0.480705216 -0.841677312
1050015000.0 -0.471053888 -0.874117952
1065014500.0 -0.453281952 -0.865103488
1080014000.0 -0.463525728 -0.886035456
1095013500.0 -0.457531104 -0.878428928
1110013000.0 -0.46466032 -0.89059456
1125012500.0 -0.453303648 -0.930455168
1140012000.0 -0.430512192 -0.921350912
1155011500.0 -0.376537664 -0.953991936
1170011000.0 -0.376296736 -0.934581184
1185010500.0 -0.37594048 -0.968091328
1200010000.0 -0.365015776 -0.988020224
1215009500.0 -0.344338464 -0.997373888
1230009000.0 -0.29774928 -0.98156032
1245008500.0 -0.28202656 -1.000109077
1260008000.0 -0.256317888 -1.001958489
1275007500.0 -0.215454192 -0.991279808
1290007000.0 -0.19746344 -0.984535296
1305006500.0 -0.191219952 -0.99212128
1320006000.0 -0.165584848 -1.020983696
1335005500.0 -0.169837424 -1.036033036
1350005000.0 -0.14560952 -1.082970496
1365004500.0 -0.147717952 -1.170913696
1380004000.0 -0.0852142 -1.190781824
1395003500.0 -0.0313636 -1.283329856
1410003000.0 0.125473616 -1.317334528
1425002500.0 0.295679168 -1.321975456
1440002000.0 0.429717632 -1.262377856
1455001500.0 0.612111808 -1.163140896
1470001000.0 0.667289344 -1.030877948
1485000500.0 0.767847168 -0.870564352
1500000000.0 0.829041344 -0.720715456
