! Created with skrf 1.8.0 (http://scikit-rf.org).
# Hz S RI R 50.0 
!freq ReS11 ImS11
50000.0 0.009779762 -0.004400856
15049500.0 0.015083848 0.005534856
30049000.0 0.015035524 0.009486888
45048500.0 0.0138664 0.013318866
60048000.0 0.012119486 0.017415922
75047500.0 0.00983196 0.022555224
90047000.0 0.007859062 0.027532412
105046500.0 0.00650899 0.032478028
120046000.0 0.005959651 0.0380925
135045500.0 0.006786485 0.043624564
150045000.0 0.00876887 0.048475
165044500.0 0.012020544 0.05243168
180044000.0 0.016307558 0.055560084
195043500.0 0.021612682 0.057540596
210043000.0 0.027453794 0.058212064
225042500.0 0.033309222 0.05755202
240042000.0 0.038860128 0.05576532
255041500.0 0.043881544 0.053019568
270041000.0 0.047417912 0.049687012
285040500.0 0.049567508 0.046038596
300040000.0 0.049814896 0.042473836
315039500.0 0.04861754 0.039230272
330039000.0 0.044887536 0.036513612
345038500.0 0.039121416 0.033987636
360038000.0 0.03115864 0.035752552
375037500.0 0.021314938 0.036539328
390037000.0 0.009960646 0.040222956
405036500.0 -0.002882206 0.044269896
420036000.0 -0.015384984 0.051198092
435035500.0 -0.028596274 0.05895542
450035000.0 -0.04088886 0.068940512
465034500.0 -0.052114912 0.078297896
480034000.0 -0.061945228 0.08757844
495033500.0 -0.07027464 0.099550576
510033000.0 -0.074876944 0.11019432
525032500.0 -0.079410888 0.118992504
540032000.0 -0.080556384 0.130413176
555031500.0 -0.078462096 0.139852448
570031000.0 -0.074344648 0.14677672
585030500.0 -0.067503712 0.15298856
600030000.0 -0.059317744 0.160725216
615029500.0 -0.05091254 0.1638404
630029000.0 -0.039545652 0.164825648
645028500.0 -0.027593004 0.163395424
660028000.0 -0.014803878 0.16078192
675027500.0 -0.00339486 0.153912912
690027000.0 0.007679703 0.148083376
705026500.0 0.016766002 0.140070384
720026000.0 0.024034256 0.132324664
735025500.0 0.027936264 0.12271104
750025000.0 0.028583184 0.111770656
765024500.0 0.027645784 0.103238616
780024000.0 0.025503192 0.093625184
795023500.0 0.012054092 0.08368672
810023000.0 -0.000198466 0.073932784
825022500.0 -0.012906816 0.06647156
840022000.0 -0.030871516 0.060180196
855021500.0 -0.048921008 0.0567589
870021000.0 -0.06960708 0.053575812
885020500.0 -0.08730148 0.054138
900020000.0 -0.102034752 0.063838012
915019500.0 -0.121307464 0.06903024
930019000.0 -0.134595696 0.079941104
945018500.0 -0.155563472 0.087409944
960018000.0 -0.162483392 0.09813432
975017500.0 -0.173281664 0.10387692
990017000.0 -0.180839728 0.120539592
1005016500.0 -0.177927472 0.13044576
1020016000.0 -0.179035472 0.138630352
1035015500.0 -0.178315664 0.148911072
1050015000.0 -0.15701816 0.16285264
1065014500.0 -0.150138864 0.177769664
1080014000.0 -0.132808432 0.174697136
1095013500.0 -0.12499844 0.185481696
1110013000.0 -0.112239368 0.20372816
1125012500.0 -0.096975408 0.209705616
1140012000.0 -0.089492136 0.21558592
1155011500.0 -0.062868112 0.203621152
1170011000.0 -0.057588208 0.208248064
1185010500.0 -0.054482224 0.201703968
1200010000.0 -0.04989978 0.19980488
1215009500.0 -0.038948824 0.170534
1230009000.0 -0.048949144 0.17745448
1245008500.0 -0.033814388 0.15537528
1260008000.0 -0.052756196 0.127598136
1275007500.0 -0.05079828 0.099412552
1290007000.0 -0.06410612 0.092166592
1305006500.0 -0.07075444 0.071581752
1320006000.0 -0.082935352 0.068795752
1335005500.0 -0.09385972 0.044974976
1350005000.0 -0.113828192 0.04019762
1365004500.0 -0.123920984 0.03101416
1380004000.0 -0.172773616 0.049357472
1395003500.0 -0.218058112 0.06198604
1410003000.0 -0.228403424 0.06024448
1425002500.0 -0.258212272 0.10217896
1440002000.0 -0.333189376 0.063187204
1455001500.0 -0.398577568 0.082326912
1470001000.0 -0.434488928 0.03410764
1485000500.0 -0.422891456 0.012626562
1500000000.0 -0.456603776 -0.031635594
