! Created with skrf 1.8.0 (http://scikit-rf.org).
# Hz S RI R 50.0 
!freq ReS11 ImS11
50000.0 0.99734592 0.001643783
15049500.0 0.976526272 0.22012712
30049000.0 0.90706368 0.427564448
45048500.0 0.79384288 0.615124608
60048000.0 0.644765696 0.772296896
75047500.0 0.46586176 0.89580544
90047000.0 0.252333664 0.980763968
105046500.0 0.032940556 1.013213874
120046000.0 -0.187893376 0.99799456
135045500.0 -0.403165568 0.934014272
150045000.0 -0.600456 0.82380224
165044500.0 -0.768540864 0.671423168
180044000.0 -0.898591488 0.485021632
195043500.0 -0.985788544 0.273777696
210043000.0 -1.024082422 0.046011092
225042500.0 -1.008762002 -0.187069888
240042000.0 -0.939635072 -0.411967232
255041500.0 -0.820427136 -0.615399232
270041000.0 -0.657571584 -0.786349568
285040500.0 -0.459238816 -0.916199744
300040000.0 -0.241576208 -0.988217088
315039500.0 -0.005127621 -1.016568422
330039000.0 0.225036256 -0.98868256
345038500.0 0.444903584 -0.916042624
360038000.0 0.641571136 -0.796224512
375037500.0 0.805759808 -0.638906688
390037000.0 0.924993664 -0.450322016
405036500.0 1.01296115 -0.240471712
420036000.0 1.05313158 -0.018445354
435035500.0 1.04198742 0.2150032
450035000.0 0.986364352 0.452461088
465034500.0 0.864107072 0.658100672
480034000.0 0.703877504 0.831001472
495033500.0 0.517657152 0.962800128
510033000.0 0.303583872 1.048698904
525032500.0 0.079876248 1.086840632
540032000.0 -0.1451276 1.077387456
555031500.0 -0.35875728 1.018956066
570031000.0 -0.55680928 0.92237088
585030500.0 -0.730040128 0.780624
600030000.0 -0.868991168 0.636251008
615029500.0 -0.979830656 0.441353856
630029000.0 -1.047305108 0.21704104
645028500.0 -1.059754612 -0.016889914
660028000.0 -1.027131676 -0.251131648
675027500.0 -0.9371616 -0.4789584
690027000.0 -0.794931264 -0.678762688
705026500.0 -0.609514688 -0.850313088
720026000.0 -0.381075616 -0.971311168
735025500.0 -0.129988488 -1.0410043
750025000.0 0.143531904 -1.046961068
765024500.0 0.408037728 -0.982990464
780024000.0 0.69463808 -0.855778112
795023500.0 0.866094272 -0.661443584
810023000.0 1.01733315 -0.419884128
825022500.0 1.098216656 -0.157635888
840022000.0 1.098838568 0.113581864
855021500.0 1.038792612 0.373806912
870021000.0 0.916654784 0.58711776
885020500.0 0.773511744 0.767960704
900020000.0 0.614757632 0.922079616
915019500.0 0.422878208 1.031104922
930019000.0 0.228204656 1.088054184
945018500.0 0.015330884 1.107621072
960018000.0 -0.183377136 1.09309876
975017500.0 -0.37518704 1.043986084
990017000.0 -0.54442816 0.95862208
1005016500.0 -0.69712544 0.854759168
1020016000.0 -0.835788608 0.71473632
1035015500.0 -0.950175616 0.55178048
1050015000.0 -1.03091669 0.402504704
1065014500.0 -1.122746584 0.173027472
1080014000.0 -1.135134096 -0.039291376
1095013500.0 -1.126937032 -0.262045616
1110013000.0 -1.048046828 -0.475258528
1125012500.0 -0.942357696 -0.716487872
1140012000.0 -0.786687488 -0.92682272
1155011500.0 -0.56216608 -1.153031824
1170011000.0 -0.28503664 -1.282025216
1185010500.0 0.036778896 -1.343697792
1200010000.0 0.435041696 -1.353565568
1215009500.0 0.855908544 -1.229959008
1230009000.0 1.265472048 -0.846566848
1245008500.0 1.483640064 -0.378611744
1260008000.0 1.474175456 0.121686992
1275007500.0 1.290204416 0.508515968
1290007000.0 1.024300098 0.726937216
1305006500.0 0.765479552 0.88258048
1320006000.0 0.596727104 0.94866912
1335005500.0 0.423627488 0.983147264
1350005000.0 0.270352224 1.021775246
1365004500.0 0.197898224 1.052514672
1380004000.0 0.072351168 1.076052664
1395003500.0 -0.064687996 1.128300312
1410003000.0 -0.186805232 1.220213536
1425002500.0 -0.425945632 1.356003872
1440002000.0 -0.798328512 1.37280368
1455001500.0 -1.387243872 1.314572928
1470001000.0 -1.895831936 0.634842688
1485000500.0 -1.73062016 -0.067731664
1500000000.0 -1.402336608 -0.425619456
