! Created with skrf 1.8.0 (http://scikit-rf.org).
# Hz S RI R 50.0 
!freq ReS11 ImS11
50000.0 0.99847744 0.001167075
15049500.0 0.976395968 0.220457232
30049000.0 0.907128576 0.428055424
45048500.0 0.793859392 0.616117568
60048000.0 0.644672064 0.77329408
75047500.0 0.466206784 0.896421824
90047000.0 0.252360704 0.981848448
105046500.0 0.032439332 1.01363504
120046000.0 -0.189028656 0.998479552
135045500.0 -0.404288096 0.93628288
150045000.0 -0.601590272 0.82407968
165044500.0 -0.770178944 0.671616064
180044000.0 -0.900567936 0.484731424
195043500.0 -0.98733856 0.273491744
210043000.0 -1.025202752 0.045054348
225042500.0 -1.00933087 -0.188927184
240042000.0 -0.939384064 -0.413658752
255041500.0 -0.821009472 -0.617901952
270041000.0 -0.656985472 -0.788653248
285040500.0 -0.45894768 -0.919388416
300040000.0 -0.240191648 -0.987631232
315039500.0 -0.004807316 -1.015887618
330039000.0 0.22685472 -0.993993792
345038500.0 0.446921792 -0.916404544
360038000.0 0.6438592 -0.79807712
375037500.0 0.809056192 -0.637009024
390037000.0 0.93410272 -0.453434016
405036500.0 1.014307618 -0.24085728
420036000.0 1.05632508 -0.014997464
435035500.0 1.04449296 0.218838608
450035000.0 0.977059008 0.446839168
465034500.0 0.86601472 0.661524416
480034000.0 0.706167296 0.832039744
495033500.0 0.515241024 0.96776864
510033000.0 0.301645344 1.05470252
525032500.0 0.07869108 1.087597248
540032000.0 -0.145641008 1.079514024
555031500.0 -0.360013472 1.02357781
570031000.0 -0.555155904 0.923855424
585030500.0 -0.727996224 0.791896256
600030000.0 -0.877500992 0.6393712
615029500.0 -0.982746368 0.437750048
630029000.0 -1.051118492 0.214615904
645028500.0 -1.066238044 -0.017943404
660028000.0 -1.030553818 -0.251318864
675027500.0 -0.942265792 -0.481087616
690027000.0 -0.796320768 -0.683939904
705026500.0 -0.615833984 -0.849667712
720026000.0 -0.386985152 -0.974626816
735025500.0 -0.129336912 -1.045013308
750025000.0 0.138524256 -1.056954144
765024500.0 0.410583296 -0.996533248
780024000.0 0.639150528 -0.887879168
795023500.0 0.866554496 -0.667921664
810023000.0 1.020029664 -0.419099424
825022500.0 1.097450376 -0.155974304
840022000.0 1.102089528 0.113644008
855021500.0 1.040276528 0.366842496
870021000.0 0.92019616 0.58221344
885020500.0 0.78064064 0.758545408
900020000.0 0.619628416 0.927487872
915019500.0 0.431026432 1.033426642
930019000.0 0.228723872 1.088576672
945018500.0 0.015375378 1.1055392
960018000.0 -0.173592928 1.088184472
975017500.0 -0.366712832 1.042651056
990017000.0 -0.533766272 0.962304064
1005016500.0 -0.69097376 0.85850784
1020016000.0 -0.821766464 0.72893248
1035015500.0 -0.950200768 0.569133696
1050015000.0 -1.06919408 0.364967584
1065014500.0 -1.098209856 0.185331136
1080014000.0 -1.125666736 -0.0401329
1095013500.0 -1.118862984 -0.262802272
1110013000.0 -1.052032948 -0.481668928
1125012500.0 -0.963682688 -0.712829888
1140012000.0 -0.774033536 -0.899137792
1155011500.0 -0.527986752 -1.068906784
1170011000.0 -0.30596064 -1.247083552
1185010500.0 0.047534484 -1.328467008
1200010000.0 0.434514272 -1.320901024
1215009500.0 0.857859328 -1.1911292
1230009000.0 1.275771488 -0.857249664
1245008500.0 1.422880416 -0.391766304
1260008000.0 1.450523488 0.114301144
1275007500.0 1.244995952 0.475959648
1290007000.0 1.00160408 0.74355712
1305006500.0 0.780800896 0.84846752
1320006000.0 0.574963904 0.927157248
1335005500.0 0.436122592 0.95695168
1350005000.0 0.297056512 1.002273202
1365004500.0 0.201508576 1.008770108
1380004000.0 0.066536204 1.068736912
1395003500.0 -0.063104784 1.127808448
1410003000.0 -0.186248272 1.214509488
1425002500.0 -0.413661632 1.30883408
1440002000.0 -0.753681088 1.392171264
1455001500.0 -1.316134464 1.273579136
1470001000.0 -1.84601536 0.604468864
1485000500.0 -1.70953056 -0.0415651
1500000000.0 -1.364145632 -0.396186016
