! Created with skrf 1.8.0 (http://scikit-rf.org).
# Hz S RI R 50.0 
!freq ReS11 ImS11
50000.0 1.000086427 0.002116557
15049500.0 0.977780032 0.220053392
30049000.0 0.90798336 0.428483968
45048500.0 0.794602432 0.616788544
60048000.0 0.645294016 0.77392224
75047500.0 0.466375488 0.89675584
90047000.0 0.25244552 0.982477568
105046500.0 0.03264461 1.014560104
120046000.0 -0.189141824 0.99926016
135045500.0 -0.404184768 0.93475552
150045000.0 -0.601773568 0.824849664
165044500.0 -0.770533888 0.672312768
180044000.0 -0.900841344 0.484946176
195043500.0 -0.988296128 0.273152992
210043000.0 -1.026251316 0.044193488
225042500.0 -1.010543942 -0.189307056
240042000.0 -0.941051904 -0.414514592
255041500.0 -0.821425408 -0.618104384
270041000.0 -0.657130752 -0.789311104
285040500.0 -0.459615808 -0.919897984
300040000.0 -0.239530288 -0.989886976
315039500.0 -0.005977661 -1.017061234
330039000.0 0.224147664 -0.992102016
345038500.0 0.446816192 -0.917458368
360038000.0 0.64456544 -0.796745344
375037500.0 0.80770016 -0.637878976
390037000.0 0.93754208 -0.441203552
405036500.0 1.016376376 -0.23938664
420036000.0 1.054516076 -0.014178976
435035500.0 1.046370388 0.221094016
450035000.0 0.98893728 0.45019984
465034500.0 0.867066048 0.661855552
480034000.0 0.706981632 0.83384768
495033500.0 0.513722944 0.969775168
510033000.0 0.300415232 1.055383324
525032500.0 0.078210864 1.092675328
540032000.0 -0.149543744 1.080203536
555031500.0 -0.362115264 1.023597122
570031000.0 -0.5568848 0.923706048
585030500.0 -0.728006208 0.788193216
600030000.0 -0.876433792 0.64288928
615029500.0 -0.985545984 0.438598016
630029000.0 -1.05232048 0.21258184
645028500.0 -1.073016408 -0.014007776
660028000.0 -1.036229492 -0.254988784
675027500.0 -0.943201088 -0.475767424
690027000.0 -0.805078592 -0.685882752
705026500.0 -0.614499392 -0.852707968
720026000.0 -0.389832448 -0.980611456
735025500.0 -0.131287176 -1.050362228
750025000.0 0.139047776 -1.055331112
765024500.0 0.40693392 -0.996613056
780024000.0 0.669560896 -0.889512
795023500.0 0.868751168 -0.674404352
810023000.0 1.023788452 -0.429728736
825022500.0 1.092584368 -0.161095008
840022000.0 1.102909568 0.11577284
855021500.0 1.041463136 0.364826944
870021000.0 0.926769856 0.581886272
885020500.0 0.776978688 0.757304
900020000.0 0.622949056 0.928723904
915019500.0 0.430204384 1.03121388
930019000.0 0.230876784 1.086403968
945018500.0 0.019457004 1.106404544
960018000.0 -0.167549968 1.091658712
975017500.0 -0.35959904 1.0355649
990017000.0 -0.532215712 0.960408384
1005016500.0 -0.68588256 0.855651008
1020016000.0 -0.831876992 0.727309504
1035015500.0 -0.952079552 0.567761344
1050015000.0 -1.052111268 0.377484544
1065014500.0 -1.100199584 0.185614528
1080014000.0 -1.126454472 -0.029046862
1095013500.0 -1.108281136 -0.253196864
1110013000.0 -1.052929044 -0.482117152
1125012500.0 -0.951475648 -0.699656
1140012000.0 -0.778582272 -0.903689472
1155011500.0 -0.526317312 -1.088959936
1170011000.0 -0.285761728 -1.247296208
1185010500.0 0.033524074 -1.30726944
1200010000.0 0.427226496 -1.3182552
1215009500.0 0.860989952 -1.189721104
1230009000.0 1.211348896 -0.818063872
1245008500.0 1.418957824 -0.374790592
1260008000.0 1.386601696 0.083966584
1275007500.0 1.23855936 0.474618528
1290007000.0 1.009414912 0.71277216
1305006500.0 0.779716416 0.85614976
1320006000.0 0.585459072 0.923938176
1335005500.0 0.422328832 0.971090752
1350005000.0 0.28353696 1.002953053
1365004500.0 0.220835136 1.024097324
1380004000.0 0.043400216 1.059283852
1395003500.0 -0.046988216 1.124942304
1410003000.0 -0.178810512 1.21653152
1425002500.0 -0.404308704 1.32419072
1440002000.0 -0.774333632 1.384778016
1455001500.0 -1.367616288 1.3483312
1470001000.0 -1.857760192 0.679570112
1485000500.0 -1.711310144 -0.03804042
1500000000.0 -1.382547136 -0.390622848
