! Created with skrf 1.8.0 (http://scikit-rf.org).
# Hz S RI R 50.0 
!freq ReS11 ImS11
50000.0 0.00721298 -0.004366566
15049500.0 0.019166092 0.004424306
30049000.0 0.018238486 0.006782337
45048500.0 0.015915694 0.009087618
60048000.0 0.012679914 0.011346212
75047500.0 0.009049398 0.014167218
90047000.0 0.005955444 0.015754512
105046500.0 0.003547041 0.017231044
120046000.0 0.002916657 0.01771397
135045500.0 0.003786804 0.016507298
150045000.0 0.005842894 0.013669068
165044500.0 0.009084144 0.008621242
180044000.0 0.013373328 0.001332875
195043500.0 0.017940962 -0.007873216
210043000.0 0.022295114 -0.018647432
225042500.0 0.02587914 -0.030200216
240042000.0 0.028241314 -0.04162186
255041500.0 0.029080332 -0.052272288
270041000.0 0.028035324 -0.061204568
285040500.0 0.025350794 -0.067972352
300040000.0 0.021262746 -0.070628472
315039500.0 0.016008814 -0.071346344
330039000.0 0.010025034 -0.067076944
345038500.0 0.002873082 -0.059398984
360038000.0 -0.004217326 -0.048256184
375037500.0 -0.010557914 -0.035528144
390037000.0 -0.013903024 -0.018208506
405036500.0 -0.018634064 -0.002157878
420036000.0 -0.020339666 0.015069674
435035500.0 -0.02046357 0.030158632
450035000.0 -0.019016174 0.044764352
465034500.0 -0.016466988 0.055032732
480034000.0 -0.012315546 0.061600952
495033500.0 -0.008539468 0.064062916
510033000.0 -0.003584894 0.062301232
525032500.0 0.000452442 0.054912508
540032000.0 0.003582161 0.042444332
555031500.0 0.00548549 0.027450794
570031000.0 0.006566264 0.008074444
585030500.0 0.005179068 -0.014596542
600030000.0 0.000298245 -0.037187072
615029500.0 -0.005514344 -0.061166504
630029000.0 -0.012389338 -0.083106856
645028500.0 -0.022927518 -0.102852728
660028000.0 -0.031857212 -0.121037688
675027500.0 -0.04379596 -0.13202128
690027000.0 -0.055115616 -0.136018528
705026500.0 -0.068148888 -0.137797824
720026000.0 -0.07753496 -0.133443744
735025500.0 -0.086516768 -0.12513676
750025000.0 -0.093918424 -0.10956548
765024500.0 -0.097475752 -0.090909928
780024000.0 -0.0996342 -0.06301014
795023500.0 -0.100691344 -0.043783888
810023000.0 -0.097793208 -0.018140086
825022500.0 -0.092990192 0.006966129
840022000.0 -0.084791448 0.02951518
855021500.0 -0.077383712 0.04873352
870021000.0 -0.06855988 0.062343284
885020500.0 -0.06046778 0.07295476
900020000.0 -0.04405828 0.069100144
915019500.0 -0.04443708 0.075375144
930019000.0 -0.036672964 0.065257916
945018500.0 -0.038079868 0.05036694
960018000.0 -0.035973604 0.037943128
975017500.0 -0.039725416 0.014034274
990017000.0 -0.051553424 -0.00536752
1005016500.0 -0.061616844 -0.028841274
1020016000.0 -0.077058736 -0.054728384
1035015500.0 -0.093235368 -0.073685088
1050015000.0 -0.114607288 -0.091995416
1065014500.0 -0.134481728 -0.109070328
1080014000.0 -0.1541684 -0.106025896
1095013500.0 -0.176196976 -0.114383888
1110013000.0 -0.189192128 -0.121946048
1125012500.0 -0.206999168 -0.106542064
1140012000.0 -0.213576144 -0.109374592
1155011500.0 -0.208915232 -0.085593336
1170011000.0 -0.216030784 -0.067283784
1185010500.0 -0.216646512 -0.044781648
1200010000.0 -0.213140416 -0.022175914
1215009500.0 -0.195043568 -0.004786277
1230009000.0 -0.174592992 0.011015428
1245008500.0 -0.17473528 0.051299996
1260008000.0 -0.12686068 0.069020704
1275007500.0 -0.125620144 0.07245576
1290007000.0 -0.112069536 0.094060272
1305006500.0 -0.102861952 0.098709784
1320006000.0 -0.086578648 0.1152972
1335005500.0 -0.062500896 0.108719008
1350005000.0 -0.071313264 0.106817968
1365004500.0 -0.05861572 0.102116824
1380004000.0 -0.061690604 0.091734376
1395003500.0 -0.097819432 0.084795928
1410003000.0 -0.108579968 0.065658688
1425002500.0 -0.144854192 0.039278988
1440002000.0 -0.240426096 0.035558208
1455001500.0 -0.27615936 -0.004171315
1470001000.0 -0.338205088 -0.053868292
1485000500.0 -0.337219328 -0.154280208
1500000000.0 -0.330069888 -0.195821568
