! Created with skrf 1.8.0 (http://scikit-rf.org).
# Hz S RI R 50.0 
!freq ReS11 ImS11
50000.0 0.99920416 0.002283316
15049500.0 0.977253696 0.22015952
30049000.0 0.908145024 0.427839264
45048500.0 0.794769984 0.616241152
60048000.0 0.645719168 0.773313792
75047500.0 0.466774368 0.896873152
90047000.0 0.253084992 0.982431488
105046500.0 0.0335828 1.014467956
120046000.0 -0.188171552 0.99967008
135045500.0 -0.402904928 0.935867776
150045000.0 -0.600739584 0.825989568
165044500.0 -0.769792448 0.673790976
180044000.0 -0.900414144 0.48675424
195043500.0 -0.987880704 0.274746016
210043000.0 -1.026545524 0.046188624
225042500.0 -1.010824324 -0.187439488
240042000.0 -0.942232 -0.412155232
255041500.0 -0.823138176 -0.616550848
270041000.0 -0.661319168 -0.78751104
285040500.0 -0.463129536 -0.91883776
300040000.0 -0.242312336 -0.990354624
315039500.0 -0.006509164 -1.017398
330039000.0 0.227925456 -0.993526016
345038500.0 0.44476352 -0.91802592
360038000.0 0.643777344 -0.800705792
375037500.0 0.806594176 -0.639378432
390037000.0 0.92504256 -0.448602624
405036500.0 1.016299844 -0.242812864
420036000.0 1.058405996 -0.018978754
435035500.0 1.049509644 0.217406384
450035000.0 0.983603328 0.458939488
465034500.0 0.867309184 0.661325504
480034000.0 0.709432704 0.837228864
495033500.0 0.518064032 0.968616256
510033000.0 0.30607616 1.05575204
525032500.0 0.081465392 1.094013456
540032000.0 -0.143487216 1.082895872
555031500.0 -0.356339936 1.027479768
570031000.0 -0.556573056 0.926358016
585030500.0 -0.726408704 0.791590656
600030000.0 -0.876444416 0.64102976
615029500.0 -0.990041344 0.445815488
630029000.0 -1.053150892 0.223685472
645028500.0 -1.06840932 -0.008300619
660028000.0 -1.038579464 -0.2486872
675027500.0 -0.950936256 -0.474898144
690027000.0 -0.811289856 -0.679968064
705026500.0 -0.62176512 -0.851186176
720026000.0 -0.396194752 -0.977886592
735025500.0 -0.142023392 -1.047469616
750025000.0 0.12918824 -1.05232346
765024500.0 0.399845248 -1.003000975
780024000.0 0.678679552 -0.881894912
795023500.0 0.865798976 -0.681641472
810023000.0 1.022836208 -0.436689792
825022500.0 1.094464776 -0.164968704
840022000.0 1.105110048 0.0987736
855021500.0 1.049596072 0.3582424
870021000.0 0.92659104 0.580123904
885020500.0 0.783440384 0.759163328
900020000.0 0.627881984 0.925495872
915019500.0 0.435239584 1.02639985
930019000.0 0.238511696 1.09049332
945018500.0 0.036477632 1.10850072
960018000.0 -0.159762048 1.094164848
975017500.0 -0.355044128 1.038527608
990017000.0 -0.524542624 0.975869184
1005016500.0 -0.679555072 0.857784896
1020016000.0 -0.823552576 0.73435168
1035015500.0 -0.944364224 0.566311744
1050015000.0 -1.018140554 0.4031056
1065014500.0 -1.102434512 0.193167664
1080014000.0 -1.12524164 -0.014556982
1095013500.0 -1.112484696 -0.238215424
1110013000.0 -1.051820516 -0.46767776
1125012500.0 -0.952367872 -0.708542528
1140012000.0 -0.784616704 -0.891649024
1155011500.0 -0.549930688 -1.104398848
1170011000.0 -0.303080512 -1.247536656
1185010500.0 0.033434204 -1.317301408
1200010000.0 0.420632832 -1.318488256
1215009500.0 0.842949824 -1.180601472
1230009000.0 1.228572016 -0.842633984
1245008500.0 1.39686288 -0.384301472
1260008000.0 1.442067488 0.080131696
1275007500.0 1.248130672 0.481866368
1290007000.0 1.00714016 0.707763584
1305006500.0 0.765833664 0.844772416
1320006000.0 0.587562816 0.936196992
1335005500.0 0.411737248 0.961157248
1350005000.0 0.279232416 0.983862656
1365004500.0 0.157666336 1.032200456
1380004000.0 0.055686768 1.068135856
1395003500.0 -0.054545352 1.120053056
1410003000.0 -0.186832336 1.219127776
1425002500.0 -0.407578848 1.317366368
1440002000.0 -0.772148608 1.42212176
1455001500.0 -1.35552896 1.294787776
1470001000.0 -1.90837728 0.680000576
1485000500.0 -1.751039168 -0.068395136
1500000000.0 -1.40458976 -0.394936384
